Time Stamp,ID,Extended,Dir,Bus,LEN,D1,D2,D3,D4,D5,D6,D7,D8
4302977365,00000130,false,Rx,0,8,0E,80,2F,7D,00,01,0D,6F,
4302977599,00000140,false,Rx,0,8,FF,FF,01,6C,20,00,0D,21,
4302987215,00000500,false,Rx,0,1,0C,00,00,00,00,00,00,00,
4302987457,00000130,false,Rx,0,8,17,80,1A,7D,00,01,0E,8E,
4302987697,00000140,false,Rx,0,8,FF,FF,01,6C,20,00,0E,06,
4302987926,00000495,false,Rx,0,8,00,00,12,8A,21,69,2C,64,
4302997348,00000130,false,Rx,0,8,18,80,0C,7D,00,01,0F,40,
4302997593,00000140,false,Rx,0,8,FF,FF,01,6C,20,00,0F,1B,
4303007352,00000130,false,Rx,0,8,15,80,05,7D,00,01,00,00,
4303007596,00000140,false,Rx,0,8,FF,FF,01,6C,20,00,00,A0,
4303017345,00000130,false,Rx,0,8,1C,80,05,7D,00,01,01,92,
4303017590,00000140,false,Rx,0,8,FF,FF,01,6C,20,00,01,BD,
4303027350,00000130,false,Rx,0,8,11,80,15,7D,00,01,02,BD,
4303027584,00000140,false,Rx,0,8,FF,FF,01,6C,20,00,02,9A,
4303037365,00000130,false,Rx,0,8,02,80,10,7D,00,01,03,21,
4303037599,00000140,false,Rx,0,8,FF,FF,01,6C,20,00,03,87,
4303047349,00000130,false,Rx,0,8,04,80,03,7D,00,01,04,F1,
4303047594,00000140,false,Rx,0,8,FF,FF,01,6C,20,00,04,D4,
4303057355,00000130,false,Rx,0,8,06,80,17,7D,00,01,05,0D,
4303057589,00000140,false,Rx,0,8,FF,FF,01,6C,20,00,05,C9,
4303067370,00000130,false,Rx,0,8,0D,80,27,7D,00,01,06,30,
4303067604,00000140,false,Rx,0,8,FF,FF,01,6C,20,00,06,EE,
4303077355,00000130,false,Rx,0,8,18,80,37,7D,00,01,07,4E,
4303077589,00000140,false,Rx,0,8,FF,FF,01,6C,20,00,07,F3,
4303087215,00000500,false,Rx,0,1,0C,00,00,00,00,00,00,00,
4303087457,00000130,false,Rx,0,8,18,80,28,7D,00,01,08,67,
4303087698,00000140,false,Rx,0,8,FF,FF,01,6C,20,00,08,48,
4303087926,00000495,false,Rx,0,8,00,00,12,8A,21,69,2C,64,
4303097349,00000130,false,Rx,0,8,18,80,15,7D,00,01,09,FD,
4303097583,00000140,false,Rx,0,8,FF,FF,01,6C,20,00,09,55,
4303107344,00000130,false,Rx,0,8,19,80,1E,7D,00,01,0A,4E,
4303107578,00000140,false,Rx,0,8,FF,FF,01,6C,20,00,0A,72,
4303117340,00000130,false,Rx,0,8,0E,80,17,7D,00,01,0B,79,
4303117585,00000140,false,Rx,0,8,FF,FF,01,6C,20,00,0B,6F,
4303127345,00000130,false,Rx,0,8,08,80,10,7D,00,01,0C,F2,
4303127590,00000140,false,Rx,0,8,FF,FF,01,6C,20,00,0C,3C,
4303137359,00000130,false,Rx,0,8,04,80,1C,7D,00,01,0D,96,
4303137594,00000140,false,Rx,0,8,FF,FF,01,6C,20,00,0D,21,
4303147354,00000130,false,Rx,0,8,FE,7F,1F,7D,00,01,0E,C7,
4303147600,00000140,false,Rx,0,8,FF,FF,01,6C,20,00,0E,06,
4303157495,00000130,false,Rx,0,8,F8,7F,02,7D,00,01,0F,4F,
4303157732,00000140,false,Rx,0,8,FF,FF,01,6C,20,00,0F,1B,
4303167345,00000130,false,Rx,0,8,01,80,12,7D,00,01,00,35,
4303167590,00000140,false,Rx,0,8,FF,FF,01,6C,20,00,00,A0,
4303177349,00000130,false,Rx,0,8,15,80,0C,7D,00,01,01,00,
4303177595,00000140,false,Rx,0,8,FF,FF,01,6C,20,00,01,BD,
4303187209,00000500,false,Rx,0,1,0C,00,00,00,00,00,00,00,
4303187452,00000130,false,Rx,0,8,21,80,F5,7C,00,01,02,8B,
4303187692,00000140,false,Rx,0,8,FF,FF,01,6C,20,00,02,9A,
4303187920,00000495,false,Rx,0,8,00,00,12,8A,21,69,2C,64,
4303197343,00000130,false,Rx,0,8,1B,80,EE,7C,00,01,03,0F,
4303197589,00000140,false,Rx,0,8,FF,FF,01,6C,20,00,03,87,
4303207338,00000130,false,Rx,0,8,12,80,FF,7C,00,01,04,57,
4303207584,00000140,false,Rx,0,8,FF,FF,01,6C,20,00,04,D4,
4303217344,00000130,false,Rx,0,8,0A,80,FF,7C,00,01,05,21,
4303217579,00000140,false,Rx,0,8,FF,FF,01,6C,20,00,05,C9,
4303227347,00000130,false,Rx,0,8,07,80,FE,7C,00,01,06,8A,
4303227583,00000140,false,Rx,0,8,FF,FF,01,6C,20,00,06,EE,
4303237361,00000130,false,Rx,0,8,0B,80,06,7D,00,01,07,55,
4303237597,00000140,false,Rx,0,8,FF,FF,01,6C,20,00,07,F3,
4303247344,00000130,false,Rx,0,8,08,80,0F,7D,00,01,08,14,
4303247590,00000140,false,Rx,0,8,FF,FF,01,6C,20,00,08,48,
4303257349,00000130,false,Rx,0,8,11,80,0D,7D,00,01,09,EB,
4303257585,00000140,false,Rx,0,8,FF,FF,01,6C,20,00,09,55,
4303267365,00000130,false,Rx,0,8,1A,80,04,7D,00,01,0A,E4,
4303267609,00000140,false,Rx,0,8,FF,FF,01,6C,20,00,0A,72,
4303277349,00000130,false,Rx,0,8,12,80,F8,7C,00,01,0B,E7,
4303277593,00000140,false,Rx,0,8,FF,FF,01,6C,20,00,0B,6F,
4303287216,00000500,false,Rx,0,1,0C,00,00,00,00,00,00,00,
4303287460,00000130,false,Rx,0,8,0D,80,FA,7C,00,01,0C,85,
4303287699,00000140,false,Rx,0,8,FF,FF,01,6C,20,00,0C,3C,
4303287937,00000495,false,Rx,0,8,00,00,12,8A,21,69,2C,64,
4303297351,00000130,false,Rx,0,8,06,80,0A,7D,00,01,0D,A3,
4303297585,00000140,false,Rx,0,8,FF,FF,01,6C,20,00,0D,21,
4303307346,00000130,false,Rx,0,8,F6,7F,F9,7C,00,01,0E,94,
4303307590,00000140,false,Rx,0,8,FF,FF,01,6C,20,00,0E,06,
4303317340,00000130,false,Rx,0,8,FF,7F,07,7D,00,01,0F,1E,
4303317584,00000140,false,Rx,0,8,FF,FF,01,6C,20,00,0F,1B,
4303327355,00000130,false,Rx,0,8,04,80,11,7D,00,01,00,BF,
4303327600,00000140,false,Rx,0,8,FF,FF,01,6C,20,00,00,A0,
4303337361,00000130,false,Rx,0,8,0D,80,0E,7D,00,01,01,BF,
4303337606,00000140,false,Rx,0,8,FF,FF,01,6C,20,00,01,BD,
4303347365,00000130,false,Rx,0,8,13,80,18,7D,00,01,02,AF,
4303347599,00000140,false,Rx,0,8,FF,FF,01,6C,20,00,02,9A,
4303357505,00000130,false,Rx,0,8,11,80,10,7D,00,01,03,7F,
4303357751,00000140,false,Rx,0,8,FF,FF,01,6C,20,00,03,87,
4303367344,00000130,false,Rx,0,8,0A,80,06,7D,00,01,04,2F,
4303367588,00000140,false,Rx,0,8,FF,FF,01,6C,20,00,04,D4,
4303377350,00000130,false,Rx,0,8,01,80,FE,7C,00,01,05,7E,
4303377595,00000140,false,Rx,0,8,FF,FF,01,6C,20,00,05,C9,
4303387211,00000500,false,Rx,0,1,0C,00,00,00,00,00,00,00,
4303387453,00000130,false,Rx,0,8,0A,80,F7,7C,00,01,06,71,
4303387693,00000140,false,Rx,0,8,FF,FF,01,6C,20,00,06,EE,
4303387921,00000495,false,Rx,0,8,00,00,12,8A,21,69,2C,64,
4303397345,00000130,false,Rx,0,8,10,80,11,7D,00,01,07,3C,
4303397590,00000140,false,Rx,0,8,FF,FF,01,6C,20,00,07,F3,
4303407351,00000130,false,Rx,0,8,06,80,2E,7D,00,01,08,BE,
4303407585,00000140,false,Rx,0,8,FF,FF,01,6C,20,00,08,48,
4303417334,00000130,false,Rx,0,8,F9,7F,28,7D,00,01,09,3E,
4303417579,00000140,false,Rx,0,8,FF,FF,01,6C,20,00,09,55,
4303427339,00000130,false,Rx,0,8,00,80,21,7D,00,01,0A,2B,
4303427584,00000140,false,Rx,0,8,FF,FF,01,6C,20,00,0A,72,
4303437354,00000130,false,Rx,0,8,0B,80,14,7D,00,01,0B,F3,
4303437589,00000140,false,Rx,0,8,FF,FF,01,6C,20,00,0B,6F,
4303447349,00000130,false,Rx,0,8,0A,80,10,7D,00,01,0C,48,
4303447593,00000140,false,Rx,0,8,FF,FF,01,6C,20,00,0C,3C,
4303457344,00000130,false,Rx,0,8,08,80,1F,7D,00,01,0D,93,
4303457588,00000140,false,Rx,0,8,FF,FF,01,6C,20,00,0D,21,
4303467357,00000130,false,Rx,0,8,0A,80,1A,7D,00,01,0E,D1,
4303467602,00000140,false,Rx,0,8,FF,FF,01,6C,20,00,0E,06,
4303477371,00000130,false,Rx,0,8,FD,7F,0F,7D,00,01,0F,D3,
4303477606,00000140,false,Rx,0,8,FF,FF,01,6C,20,00,0F,1B,
4303487220,00000500,false,Rx,0,1,0C,00,00,00,00,00,00,00,
4303487452,00000130,false,Rx,0,8,FF,7F,0E,7D,00,01,00,B8,
4303487486,000005A0,false,Rx,1,8,00,00,00,C0,20,42,97,0C,
4303487703,00000140,false,Rx,0,8,FF,FF,01,6C,20,00,00,A0,
4303487932,00000495,false,Rx,0,8,00,00,12,8A,21,69,2C,64,
4303497347,00000130,false,Rx,0,8,05,80,12,7D,00,01,01,41,
4303497591,00000140,false,Rx,0,8,FF,FF,01,6C,20,00,01,BD,
4303507340,00000130,false,Rx,0,8,00,80,21,7D,00,01,02,C3,
4303507585,00000140,false,Rx,0,8,FF,FF,01,6C,20,00,02,9A,
4303517345,00000130,false,Rx,0,8,FA,7F,14,7D,00,01,03,E6,
4303517579,00000140,false,Rx,0,8,FF,FF,01,6C,20,00,03,87,
4303527340,00000130,false,Rx,0,8,F6,7F,0F,7D,00,01,04,29,
4303527574,00000140,false,Rx,0,8,FF,FF,01,6C,20,00,04,D4,
4303537355,00000130,false,Rx,0,8,F5,7F,0D,7D,00,01,05,07,
4303537589,00000140,false,Rx,0,8,FF,FF,01,6C,20,00,05,C9,
4303547361,00000130,false,Rx,0,8,F5,7F,07,7D,00,01,06,83,
4303547595,00000140,false,Rx,0,8,FF,FF,01,6C,20,00,06,EE,
4303557500,00000130,false,Rx,0,8,FC,7F,05,7D,00,01,07,C5,
4303557736,00000140,false,Rx,0,8,FF,FF,01,6C,20,00,07,F3,
4303567338,00000130,false,Rx,0,8,03,80,09,7D,00,01,08,40,
4303567583,00000140,false,Rx,0,8,FF,FF,01,6C,20,00,08,48,
4303577353,00000130,false,Rx,0,8,0A,80,0D,7D,00,01,09,67,
4303577587,00000140,false,Rx,0,8,FF,FF,01,6C,20,00,09,55,
4303587212,00000500,false,Rx,0,1,0C,00,00,00,00,00,00,00,
4303587454,00000130,false,Rx,0,8,05,80,07,7D,00,01,0A,BF,
4303587694,00000140,false,Rx,0,8,FF,FF,01,6C,20,00,0A,72,
4303587933,00000495,false,Rx,0,8,00,00,12,8A,21,69,2C,64,
4303597346,00000130,false,Rx,0,8,02,80,F4,7C,00,01,0B,9C,
4303597590,00000140,false,Rx,0,8,FF,FF,01,6C,20,00,0B,6F,
4303607351,00000130,false,Rx,0,8,11,80,01,7D,00,01,0C,40,
4303607586,00000140,false,Rx,0,8,FF,FF,01,6C,20,00,0C,3C,
4303617345,00000130,false,Rx,0,8,0F,80,1A,7D,00,01,0D,C2,
4303617590,00000140,false,Rx,0,8,FF,FF,01,6C,20,00,0D,21,
4303627350,00000130,false,Rx,0,8,0B,80,20,7D,00,01,0E,00,
4303627595,00000140,false,Rx,0,8,FF,FF,01,6C,20,00,0E,06,
4303637354,00000130,false,Rx,0,8,0B,80,10,7D,00,01,0F,32,
4303637600,00000140,false,Rx,0,8,FF,FF,01,6C,20,00,0F,1B,
4303647349,00000130,false,Rx,0,8,09,80,F8,7C,00,01,00,A4,
4303647595,00000140,false,Rx,0,8,FF,FF,01,6C,20,00,00,A0,
4303657344,00000130,false,Rx,0,8,04,80,F7,7C,00,01,01,23,
4303657589,00000140,false,Rx,0,8,FF,FF,01,6C,20,00,01,BD,
4303667359,00000130,false,Rx,0,8,09,80,0B,7D,00,01,02,2E,
4303667605,00000140,false,Rx,0,8,FF,FF,01,6C,20,00,02,9A,
4303677354,00000130,false,Rx,0,8,03,80,13,7D,00,01,03,C2,
4303677599,00000140,false,Rx,0,8,FF,FF,01,6C,20,00,03,87,
4303687215,00000500,false,Rx,0,1,0C,00,00,00,00,00,00,00,
4303687458,00000130,false,Rx,0,8,00,80,FF,7C,00,01,04,54,
4303687697,00000140,false,Rx,0,8,FF,FF,01,6C,20,00,04,D4,
4303687935,00000495,false,Rx,0,8,00,00,12,8A,21,69,2C,64,
4303697349,00000130,false,Rx,0,8,06,80,13,7D,00,01,05,B8,
4303697584,00000140,false,Rx,0,8,FF,FF,01,6C,20,00,05,C9,
4303707344,00000130,false,Rx,0,8,08,80,17,7D,00,01,06,2B,
4303707579,00000140,false,Rx,0,8,FF,FF,01,6C,20,00,06,EE,
4303717338,00000130,false,Rx,0,8,18,80,12,7D,00,01,07,50,
4303717584,00000140,false,Rx,0,8,FF,FF,01,6C,20,00,07,F3,
4303727343,00000130,false,Rx,0,8,22,80,15,7D,00,01,08,5E,
4303727579,00000140,false,Rx,0,8,FF,FF,01,6C,20,00,08,48,
4303737347,00000130,false,Rx,0,8,1E,80,25,7D,00,01,09,01,
4303737593,00000140,false,Rx,0,8,FF,FF,01,6C,20,00,09,55,
4303747350,00000130,false,Rx,0,8,10,80,19,7D,00,01,0A,CA,
4303747596,00000140,false,Rx,0,8,FF,FF,01,6C,20,00,0A,72,
4303757491,00000130,false,Rx,0,8,0A,80,0D,7D,00,01,0B,5D,
4303757736,00000140,false,Rx,0,8,FF,FF,01,6C,20,00,0B,6F,
4303767340,00000130,false,Rx,0,8,01,80,05,7D,00,01,0C,4C,
4303767584,00000140,false,Rx,0,8,FF,FF,01,6C,20,00,0C,3C,
4303777344,00000130,false,Rx,0,8,FF,7F,07,7D,00,01,0D,24,
4303777578,00000140,false,Rx,0,8,FF,FF,01,6C,20,00,0D,21,
4303787213,00000500,false,Rx,0,1,0C,00,00,00,00,00,00,00,
4303787457,00000130,false,Rx,0,8,05,80,0C,7D,00,01,0E,02,
4303787696,00000140,false,Rx,0,8,FF,FF,01,6C,20,00,0E,06,
4303787924,00000495,false,Rx,0,8,00,00,12,8A,21,69,2C,64,
4303797348,00000130,false,Rx,0,8,05,80,07,7D,00,01,0F,D6,
4303797583,00000140,false,Rx,0,8,FF,FF,01,6C,20,00,0F,1B,
4303807342,00000130,false,Rx,0,8,0E,80,0B,7D,00,01,00,9A,
4303807586,00000140,false,Rx,0,8,FF,FF,01,6C,20,00,00,A0,
4303817346,00000130,false,Rx,0,8,15,80,FC,7C,00,01,01,0E,
4303817580,00000140,false,Rx,0,8,FF,FF,01,6C,20,00,01,BD,
4303827341,00000130,false,Rx,0,8,0C,80,F7,7C,00,01,02,D6,
4303827575,00000140,false,Rx,0,8,FF,FF,01,6C,20,00,02,9A,
4303837345,00000130,false,Rx,0,8,03,80,EE,7C,00,01,03,64,
4303837589,00000140,false,Rx,0,8,FF,FF,01,6C,20,00,03,87,
4303847350,00000130,false,Rx,0,8,03,80,FB,7C,00,01,04,06,
4303847584,00000140,false,Rx,0,8,FF,FF,01,6C,20,00,04,D4,
4303857344,00000130,false,Rx,0,8,FC,7F,05,7D,00,01,05,FF,
4303857588,00000140,false,Rx,0,8,FF,FF,01,6C,20,00,05,C9,
4303867370,00000130,false,Rx,0,8,F9,7F,FE,7C,00,01,06,2B,
4303867604,00000140,false,Rx,0,8,FF,FF,01,6C,20,00,06,EE,
4303877355,00000130,false,Rx,0,8,01,80,0C,7D,00,01,07,9E,
4303877589,00000140,false,Rx,0,8,FF,FF,01,6C,20,00,07,F3,
4303887215,00000500,false,Rx,0,1,0C,00,00,00,00,00,00,00,
4303887457,00000130,false,Rx,0,8,0D,80,1C,7D,00,01,08,70,
4303887697,00000140,false,Rx,0,8,FF,FF,01,6C,20,00,08,48,
4303887936,00000495,false,Rx,0,8,00,00,12,8A,21,69,2C,64,
4303897349,00000130,false,Rx,0,8,15,80,09,7D,00,01,09,37,
4303897583,00000140,false,Rx,0,8,FF,FF,01,6C,20,00,09,55,
4303907344,00000130,false,Rx,0,8,0B,80,F5,7C,00,01,0A,64,
4303907578,00000140,false,Rx,0,8,FF,FF,01,6C,20,00,0A,72,
4303917338,00000130,false,Rx,0,8,06,80,F7,7C,00,01,0B,4B,
4303917583,00000140,false,Rx,0,8,FF,FF,01,6C,20,00,0B,6F,
4303927341,00000130,false,Rx,0,8,0F,80,F9,7C,00,01,0C,81,
4303927586,00000140,false,Rx,0,8,FF,FF,01,6C,20,00,0C,3C,
4303937355,00000130,false,Rx,0,8,0C,80,F6,7C,00,01,0D,07,
4303937599,00000140,false,Rx,0,8,FF,FF,01,6C,20,00,0D,21,
4303947360,00000130,false,Rx,0,8,0D,80,FA,7C,00,01,0E,BF,
4303947605,00000140,false,Rx,0,8,FF,FF,01,6C,20,00,0E,06,
4303957500,00000130,false,Rx,0,8,0E,80,02,7D,00,01,0F,3C,
4303957735,00000140,false,Rx,0,8,FF,FF,01,6C,20,00,0F,1B,
4303967349,00000130,false,Rx,0,8,11,80,FC,7C,00,01,00,7A,
4303967593,00000140,false,Rx,0,8,FF,FF,01,6C,20,00,00,A0,
4303977365,00000130,false,Rx,0,8,13,80,F6,7C,00,01,01,7E,
4303977609,00000140,false,Rx,0,8,FF,FF,01,6C,20,00,01,BD,
4303987215,00000500,false,Rx,0,1,0C,00,00,00,00,00,00,00,
4303987457,00000130,false,Rx,0,8,0D,80,FA,7C,00,01,02,23,
4303987696,00000140,false,Rx,0,8,FF,FF,01,6C,20,00,02,9A,
4303987926,00000495,false,Rx,0,8,00,00,12,8A,21,69,2C,64,
4303997349,00000130,false,Rx,0,8,0F,80,08,7D,00,01,03,5E,
4303997583,00000140,false,Rx,0,8,FF,FF,01,6C,20,00,03,87,
4304007344,00000130,false,Rx,0,8,11,80,13,7D,00,01,04,92,
4304007578,00000140,false,Rx,0,8,FF,FF,01,6C,20,00,04,D4,
4304017339,00000130,false,Rx,0,8,05,80,0F,7D,00,01,05,73,
4304017573,00000140,false,Rx,0,8,FF,FF,01,6C,20,00,05,C9,
4304027344,00000130,false,Rx,0,8,00,80,01,7D,00,01,06,76,
4304027578,00000140,false,Rx,0,8,FF,FF,01,6C,20,00,06,EE,
4304037349,00000130,false,Rx,0,8,00,80,F9,7C,00,01,07,12,
4304037593,00000140,false,Rx,0,8,FF,FF,01,6C,20,00,07,F3,
4304047342,00000130,false,Rx,0,8,FF,7F,05,7D,00,01,08,99,
4304047587,00000140,false,Rx,0,8,FF,FF,01,6C,20,00,08,48,
4304057336,00000130,false,Rx,0,8,07,80,13,7D,00,01,09,79,
4304057580,00000140,false,Rx,0,8,FF,FF,01,6C,20,00,09,55,
4304067361,00000130,false,Rx,0,8,08,80,14,7D,00,01,0A,09,
4304067595,00000140,false,Rx,0,8,FF,FF,01,6C,20,00,0A,72,
4304077344,00000130,false,Rx,0,8,06,80,17,7D,00,01,0B,AB,
4304077579,00000140,false,Rx,0,8,FF,FF,01,6C,20,00,0B,6F,
4304087214,00000500,false,Rx,0,1,0C,00,00,00,00,00,00,00,
4304087446,00000130,false,Rx,0,8,08,80,08,7D,00,01,0C,6B,
4304087697,00000140,false,Rx,0,8,FF,FF,01,6C,20,00,0C,3C,
4304087925,00000495,false,Rx,0,8,00,00,12,8A,21,69,2C,64,
4304097339,00000130,false,Rx,0,8,05,80,F6,7C,00,01,0D,88,
4304097584,00000140,false,Rx,0,8,FF,FF,01,6C,20,00,0D,21,
4304107344,00000130,false,Rx,0,8,08,80,0D,7D,00,01,0E,8E,
4304107579,00000140,false,Rx,0,8,FF,FF,01,6C,20,00,0E,06,
4304117336,00000130,false,Rx,0,8,04,80,21,7D,00,01,0F,2B,
4304117572,00000140,false,Rx,0,8,FF,FF,01,6C,20,00,0F,1B,
4304127340,00000130,false,Rx,0,8,FA,7F,24,7D,00,01,00,EE,
4304127585,00000140,false,Rx,0,8,FF,FF,01,6C,20,00,00,A0,
4304137355,00000130,false,Rx,0,8,FC,7F,21,7D,00,01,01,FF,
4304137591,00000140,false,Rx,0,8,FF,FF,01,6C,20,00,01,BD,
4304147349,00000130,false,Rx,0,8,FF,7F,1A,7D,00,01,02,D9,
4304147585,00000140,false,Rx,0,8,FF,FF,01,6C,20,00,02,9A,
4304157491,00000130,false,Rx,0,8,04,80,13,7D,00,01,03,4C,
4304157737,00000140,false,Rx,0,8,FF,FF,01,6C,20,00,03,87,
4304167350,00000130,false,Rx,0,8,0C,80,16,7D,00,01,04,12,
4304167585,00000140,false,Rx,0,8,FF,FF,01,6C,20,00,04,D4,
4304177354,00000130,false,Rx,0,8,0E,80,1F,7D,00,01,05,A8,
4304177589,00000140,false,Rx,0,8,FF,FF,01,6C,20,00,05,C9,
4304187213,00000500,false,Rx,0,1,0C,00,00,00,00,00,00,00,
4304187456,00000130,false,Rx,0,8,08,80,25,7D,00,01,06,D0,
4304187686,00000140,false,Rx,0,8,FF,FF,01,6C,20,00,06,EE,
4304187924,00000495,false,Rx,0,8,00,00,12,8A,21,69,2C,64,
4304197347,00000130,false,Rx,0,8,07,80,1B,7D,00,01,07,A8,
4304197593,00000140,false,Rx,0,8,FF,FF,01,6C,20,00,07,F3,
4304207340,00000130,false,Rx,0,8,0C,80,25,7D,00,01,08,1F,
4304207586,00000140,false,Rx,0,8,FF,FF,01,6C,20,00,08,48,
4304217355,00000130,false,Rx,0,8,0D,80,1E,7D,00,01,09,B9,
4304217591,00000140,false,Rx,0,8,FF,FF,01,6C,20,00,09,55,
4304227339,00000130,false,Rx,0,8,04,80,0A,7D,00,01,0A,4A,
4304227584,00000140,false,Rx,0,8,FF,FF,01,6C,20,00,0A,72,
4304237355,00000130,false,Rx,0,8,FC,7F,08,7D,00,01,0B,F1,
4304237589,00000140,false,Rx,0,8,FF,FF,01,6C,20,00,0B,6F,
4304247348,00000130,false,Rx,0,8,FA,7F,06,7D,00,01,0C,67,
4304247593,00000140,false,Rx,0,8,FF,FF,01,6C,20,00,0C,3C,
4304257352,00000130,false,Rx,0,8,0A,80,11,7D,00,01,0D,3F,
4304257586,00000140,false,Rx,0,8,FF,FF,01,6C,20,00,0D,21,
4304267355,00000130,false,Rx,0,8,0C,80,21,7D,00,01,0E,E4,
4304267600,00000140,false,Rx,0,8,FF,FF,01,6C,20,00,0E,06,
4304277340,00000130,false,Rx,0,8,02,80,25,7D,00,01,0F,4D,
4304277585,00000140,false,Rx,0,8,FF,FF,01,6C,20,00,0F,1B,
4304287219,00000500,false,Rx,0,1,0C,00,00,00,00,00,00,00,
4304287452,00000130,false,Rx,0,8,FB,7F,16,7D,00,01,00,48,
4304287702,00000140,false,Rx,0,8,FF,FF,01,6C,20,00,00,A0,
4304287930,00000495,false,Rx,0,8,00,00,12,8A,21,69,2C,64,
4304297345,00000130,false,Rx,0,8,00,80,0B,7D,00,01,01,86,
4304297589,00000140,false,Rx,0,8,FF,FF,01,6C,20,00,01,BD,
4304307339,00000130,false,Rx,0,8,0E,80,12,7D,00,01,02,53,
4304307574,00000140,false,Rx,0,8,FF,FF,01,6C,20,00,02,9A,
4304317334,00000130,false,Rx,0,8,13,80,1B,7D,00,01,03,0C,
4304317579,00000140,false,Rx,0,8,FF,FF,01,6C,20,00,03,87,
4304327339,00000130,false,Rx,0,8,10,80,21,7D,00,01,04,34,
4304327573,00000140,false,Rx,0,8,FF,FF,01,6C,20,00,04,D4,
4304337355,00000130,false,Rx,0,8,12,80,22,7D,00,01,05,2D,
4304337588,00000140,false,Rx,0,8,FF,FF,01,6C,20,00,05,C9,
4304347358,00000130,false,Rx,0,8,16,80,23,7D,00,01,06,09,
4304347592,00000140,false,Rx,0,8,FF,FF,01,6C,20,00,06,EE,
4304357496,00000130,false,Rx,0,8,1A,80,19,7D,00,01,07,23,
4304357731,00000140,false,Rx,0,8,FF,FF,01,6C,20,00,07,F3,
4304367334,00000130,false,Rx,0,8,1B,80,24,7D,00,01,08,42,
4304367569,00000140,false,Rx,0,8,FF,FF,01,6C,20,00,08,48,
4304377339,00000130,false,Rx,0,8,12,80,2A,7D,00,01,09,C6,
4304377573,00000140,false,Rx,0,8,FF,FF,01,6C,20,00,09,55,
4304387209,00000500,false,Rx,0,1,0C,00,00,00,00,00,00,00,
4304387452,00000130,false,Rx,0,8,0D,80,2A,7D,00,01,0A,04,
4304387681,00000140,false,Rx,0,8,FF,FF,01,6C,20,00,0A,72,
4304387920,00000495,false,Rx,0,8,00,00,12,8A,21,69,2C,64,
4304397335,00000130,false,Rx,0,8,0C,80,25,7D,00,01,0B,38,
4304397580,00000140,false,Rx,0,8,FF,FF,01,6C,20,00,0B,6F,
4304407340,00000130,false,Rx,0,8,0B,80,14,7D,00,01,0C,A0,
4304407585,00000140,false,Rx,0,8,FF,FF,01,6C,20,00,0C,3C,
4304417334,00000130,false,Rx,0,8,FD,7F,1E,7D,00,01,0D,6D,
4304417569,00000140,false,Rx,0,8,FF,FF,01,6C,20,00,0D,21,
4304427339,00000130,false,Rx,0,8,F8,7F,2C,7D,00,01,0E,85,
4304427573,00000140,false,Rx,0,8,FF,FF,01,6C,20,00,0E,06,
4304437343,00000130,false,Rx,0,8,07,80,2A,7D,00,01,0F,05,
4304437587,00000140,false,Rx,0,8,FF,FF,01,6C,20,00,0F,1B,
4304447347,00000130,false,Rx,0,8,11,80,21,7D,00,01,00,1D,
4304447591,00000140,false,Rx,0,8,FF,FF,01,6C,20,00,00,A0,
4304457341,00000130,false,Rx,0,8,14,80,12,7D,00,01,01,A5,
4304457585,00000140,false,Rx,0,8,FF,FF,01,6C,20,00,01,BD,
4304467365,00000130,false,Rx,0,8,12,80,18,7D,00,01,02,F2,
4304467599,00000140,false,Rx,0,8,FF,FF,01,6C,20,00,02,9A,
4304477370,00000130,false,Rx,0,8,13,80,1C,7D,00,01,03,07,
4304477614,00000140,false,Rx,0,8,FF,FF,01,6C,20,00,03,87,
4304487220,00000500,false,Rx,0,1,0C,00,00,00,00,00,00,00,
4304487462,00000130,false,Rx,0,8,0C,80,10,7D,00,01,04,73,
4304487496,000005A0,false,Rx,1,8,00,00,00,C0,20,34,93,0C,
4304487703,00000140,false,Rx,0,8,FF,FF,01,6C,20,00,04,D4,
4304487943,00000495,false,Rx,0,8,00,00,12,8A,21,69,2C,64,
4304497349,00000130,false,Rx,0,8,0A,80,0B,7D,00,01,05,9A,
4304497583,00000140,false,Rx,0,8,FF,FF,01,6C,20,00,05,C9,
4304507344,00000130,false,Rx,0,8,09,80,05,7D,00,01,06,4C,
4304507578,00000140,false,Rx,0,8,FF,FF,01,6C,20,00,06,EE,
4304517339,00000130,false,Rx,0,8,07,80,FB,7C,00,01,07,48,
4304517583,00000140,false,Rx,0,8,FF,FF,01,6C,20,00,07,F3,
4304527334,00000130,false,Rx,0,8,0C,80,E7,7C,00,01,08,EA,
4304527578,00000140,false,Rx,0,8,FF,FF,01,6C,20,00,08,48,
4304537349,00000130,false,Rx,0,8,11,80,EE,7C,00,01,09,B5,
4304537583,00000140,false,Rx,0,8,FF,FF,01,6C,20,00,09,55,
4304547354,00000130,false,Rx,0,8,0B,80,0D,7D,00,01,0A,1D,
4304547589,00000140,false,Rx,0,8,FF,FF,01,6C,20,00,0A,72,
4304557495,00000130,false,Rx,0,8,0C,80,13,7D,00,01,0B,76,
4304557733,00000140,false,Rx,0,8,FF,FF,01,6C,20,00,0B,6F,
4304567335,00000130,false,Rx,0,8,17,80,1B,7D,00,01,0C,DE,
4304567579,00000140,false,Rx,0,8,FF,FF,01,6C,20,00,0C,3C,
4304577339,00000130,false,Rx,0,8,21,80,27,7D,00,01,0D,2B,
4304577574,00000140,false,Rx,0,8,FF,FF,01,6C,20,00,0D,21,
4304587210,00000500,false,Rx,0,1,0C,00,00,00,00,00,00,00,
4304587441,00000130,false,Rx,0,8,1E,80,23,7D,00,01,0E,33,
4304587682,00000140,false,Rx,0,8,FF,FF,01,6C,20,00,0E,06,
4304587920,00000495,false,Rx,0,8,00,00,12,8A,21,69,2C,64,
4304597334,00000130,false,Rx,0,8,1A,80,28,7D,00,01,0F,8E,
4304597579,00000140,false,Rx,0,8,FF,FF,01,6C,20,00,0F,1B,
4304607338,00000130,false,Rx,0,8,1F,80,1E,7D,00,01,00,4F,
4304607584,00000140,false,Rx,0,8,FF,FF,01,6C,20,00,00,A0,
4304617342,00000130,false,Rx,0,8,1B,80,0A,7D,00,01,01,60,
4304617577,00000140,false,Rx,0,8,FF,FF,01,6C,20,00,01,BD,
4304627335,00000130,false,Rx,0,8,14,80,1F,7D,00,01,02,2A,
4304627581,00000140,false,Rx,0,8,FF,FF,01,6C,20,00,02,9A,
4304637349,00000130,false,Rx,0,8,08,80,15,7D,00,01,03,96,
4304637595,00000140,false,Rx,0,8,FF,FF,01,6C,20,00,03,87,
4304647344,00000130,false,Rx,0,8,05,80,F2,7C,00,01,04,C8,
4304647579,00000140,false,Rx,0,8,FF,FF,01,6C,20,00,04,D4,
4304657338,00000130,false,Rx,0,8,0D,80,EA,7C,00,01,05,9E,
4304657573,00000140,false,Rx,0,8,FF,FF,01,6C,20,00,05,C9,
4304667354,00000130,false,Rx,0,8,10,80,FB,7C,00,01,06,62,
4304667600,00000140,false,Rx,0,8,FF,FF,01,6C,20,00,06,EE,
4304677349,00000130,false,Rx,0,8,14,80,FE,7C,00,01,07,C9,
4304677584,00000140,false,Rx,0,8,FF,FF,01,6C,20,00,07,F3,
4304687209,00000500,false,Rx,0,1,0C,00,00,00,00,00,00,00,
4304687452,00000130,false,Rx,0,8,08,80,04,7D,00,01,08,DD,
4304687692,00000140,false,Rx,0,8,FF,FF,01,6C,20,00,08,48,
4304687920,00000495,false,Rx,0,8,00,00,12,8A,21,69,2C,64,
4304697334,00000130,false,Rx,0,8,FD,7F,0C,7D,00,01,09,23,
4304697579,00000140,false,Rx,0,8,FF,FF,01,6C,20,00,09,55,
4304707329,00000130,false,Rx,0,8,FA,7F,0C,7D,00,01,0A,8A,
4304707574,00000140,false,Rx,0,8,FF,FF,01,6C,20,00,0A,72,
4304717334,00000130,false,Rx,0,8,00,80,00,7D,00,01,0B,9D,
4304717580,00000140,false,Rx,0,8,FF,FF,01,6C,20,00,0B,6F,
4304727339,00000130,false,Rx,0,8,08,80,01,7D,00,01,0C,76,
4304727573,00000140,false,Rx,0,8,FF,FF,01,6C,20,00,0C,3C,
4304737345,00000130,false,Rx,0,8,0A,80,10,7D,00,01,0D,55,
4304737589,00000140,false,Rx,0,8,FF,FF,01,6C,20,00,0D,21,
4304747348,00000130,false,Rx,0,8,0D,80,03,7D,00,01,0E,AC,
4304747593,00000140,false,Rx,0,8,FF,FF,01,6C,20,00,0E,06,
9800578,000007D0,false,Tx,1,8,02,11,01,00,00,00,00,00,
4304757497,00000130,false,Rx,0,8,0B,80,FA,7C,00,01,0F,71,
4304757743,00000140,false,Rx,0,8,FF,FF,01,6C,20,00,0F,1B,
4304767335,00000130,false,Rx,0,8,0E,80,06,7D,00,01,00,32,
4304767580,00000140,false,Rx,0,8,FF,FF,01,6C,20,00,00,A0,
4304777341,00000130,false,Rx,0,8,11,80,09,7D,00,01,01,B6,
4304777585,00000140,false,Rx,0,8,FF,FF,01,6C,20,00,01,BD,
4304787209,00000500,false,Rx,0,1,0C,00,00,00,00,00,00,00,
4304787453,00000130,false,Rx,0,8,0A,80,10,7D,00,01,02,EE,
4304787692,00000140,false,Rx,0,8,FF,FF,01,6C,20,00,02,9A,
4304787930,00000495,false,Rx,0,8,00,00,12,8A,21,69,2C,64,
4304797355,00000130,false,Rx,0,8,05,80,0D,7D,00,01,03,E9,
4304797589,00000140,false,Rx,0,8,FF,FF,01,6C,20,00,03,87,
4304807339,00000130,false,Rx,0,8,00,80,0F,7D,00,01,04,5A,
4304807584,00000140,false,Rx,0,8,FF,FF,01,6C,20,00,04,D4,
4304817344,00000130,false,Rx,0,8,FB,7F,17,7D,00,01,05,4B,
4304817578,00000140,false,Rx,0,8,FF,FF,01,6C,20,00,05,C9,
4304827339,00000130,false,Rx,0,8,02,80,1D,7D,00,01,06,E0,
4304827584,00000140,false,Rx,0,8,FF,FF,01,6C,20,00,06,EE,
4304837355,00000130,false,Rx,0,8,0E,80,07,7D,00,01,07,0B,
4304837590,00000140,false,Rx,0,8,FF,FF,01,6C,20,00,07,F3,
4304847340,00000130,false,Rx,0,8,14,80,03,7D,00,01,08,D4,
4304847585,00000140,false,Rx,0,8,FF,FF,01,6C,20,00,08,48,
4304857344,00000130,false,Rx,0,8,15,80,15,7D,00,01,09,1B,
9903131,000007D0,false,Tx,1,8,02,11,02,00,00,00,00,00,
4304857578,00000140,false,Rx,0,8,FF,FF,01,6C,20,00,09,55,
4304867360,00000130,false,Rx,0,8,11,80,0D,7D,00,01,0A,CC,
4304867594,00000140,false,Rx,0,8,FF,FF,01,6C,20,00,0A,72,
4304877343,00000130,false,Rx,0,8,0E,80,06,7D,00,01,0B,FD,
4304877587,00000140,false,Rx,0,8,FF,FF,01,6C,20,00,0B,6F,
4304887212,00000500,false,Rx,0,1,0C,00,00,00,00,00,00,00,
4304887455,00000130,false,Rx,0,8,0C,80,FF,7C,00,01,0C,07,
4304887694,00000140,false,Rx,0,8,FF,FF,01,6C,20,00,0C,3C,
4304887923,00000495,false,Rx,0,8,00,00,12,8A,21,69,2C,64,
4304897336,00000130,false,Rx,0,8,02,80,08,7D,00,01,0D,1E,
4304897580,00000140,false,Rx,0,8,FF,FF,01,6C,20,00,0D,21,
4304907331,00000130,false,Rx,0,8,09,80,13,7D,00,01,0E,2B,
4304907576,00000140,false,Rx,0,8,FF,FF,01,6C,20,00,0E,06,
4304917335,00000130,false,Rx,0,8,0F,80,1E,7D,00,01,0F,4D,
4304917569,00000140,false,Rx,0,8,FF,FF,01,6C,20,00,0F,1B,
4304927330,00000130,false,Rx,0,8,11,80,23,7D,00,01,00,C9,
4304927574,00000140,false,Rx,0,8,FF,FF,01,6C,20,00,00,A0,
4304937345,00000130,false,Rx,0,8,0B,80,0C,7D,00,01,01,B8,
4304937590,00000140,false,Rx,0,8,FF,FF,01,6C,20,00,01,BD,
4304947361,00000130,false,Rx,0,8,06,80,FB,7C,00,01,02,7C,
4304947595,00000140,false,Rx,0,8,FF,FF,01,6C,20,00,02,9A,
4304957489,00000130,false,Rx,0,8,11,80,02,7D,00,01,03,45,
4304957736,00000140,false,Rx,0,8,FF,FF,01,6C,20,00,03,87,
4304967329,00000130,false,Rx,0,8,13,80,FD,7C,00,01,04,DE,
10014427,000007D0,false,Tx,1,8,02,11,03,00,00,00,00,00,
4304967574,00000140,false,Rx,0,8,FF,FF,01,6C,20,00,04,D4,
4304977354,00000130,false,Rx,0,8,0E,80,FA,7C,00,01,05,97,
4304977599,00000140,false,Rx,0,8,FF,FF,01,6C,20,00,05,C9,
4304987204,00000500,false,Rx,0,1,0C,00,00,00,00,00,00,00,
4304987446,00000130,false,Rx,0,8,0C,80,FB,7C,00,01,06,60,
4304987687,00000140,false,Rx,0,8,FF,FF,01,6C,20,00,06,EE,
4304987925,00000495,false,Rx,0,8,00,00,12,8A,21,69,2C,64,
4304997339,00000130,false,Rx,0,8,0E,80,00,7D,00,01,07,00,
4304997583,00000140,false,Rx,0,8,FF,FF,01,6C,20,00,07,F3,
4305007334,00000130,false,Rx,0,8,10,80,1A,7D,00,01,08,4E,
4305007578,00000140,false,Rx,0,8,FF,FF,01,6C,20,00,08,48,
4305017329,00000130,false,Rx,0,8,15,80,17,7D,00,01,09,CF,
4305017573,00000140,false,Rx,0,8,FF,FF,01,6C,20,00,09,55,
4305027344,00000130,false,Rx,0,8,16,80,0D,7D,00,01,0A,42,
4305027578,00000140,false,Rx,0,8,FF,FF,01,6C,20,00,0A,72,
4305037349,00000130,false,Rx,0,8,15,80,10,7D,00,01,0B,FE,
4305037584,00000140,false,Rx,0,8,FF,FF,01,6C,20,00,0B,6F,
4305047335,00000130,false,Rx,0,8,10,80,1A,7D,00,01,0C,3A,
4305047579,00000140,false,Rx,0,8,FF,FF,01,6C,20,00,0C,3C,
4305057339,00000130,false,Rx,0,8,0C,80,1F,7D,00,01,0D,FA,
4305057574,00000140,false,Rx,0,8,FF,FF,01,6C,20,00,0D,21,
4305067354,00000130,false,Rx,0,8,15,80,07,7D,00,01,0E,72,
4305067600,00000140,false,Rx,0,8,FF,FF,01,6C,20,00,0E,06,
10119129,000007D1,false,Tx,1,8,02,11,01,00,00,00,00,00,
4305077339,00000130,false,Rx,0,8,12,80,F5,7C,00,01,0F,3B,
4305077574,00000140,false,Rx,0,8,FF,FF,01,6C,20,00,0F,1B,
4305087209,00000500,false,Rx,0,1,0C,00,00,00,00,00,00,00,
4305087451,00000130,false,Rx,0,8,16,80,0E,7D,00,01,00,2E,
4305087702,00000140,false,Rx,0,8,FF,FF,01,6C,20,00,00,A0,
4305087930,00000495,false,Rx,0,8,00,00,12,8A,21,69,2C,64,
4305097344,00000130,false,Rx,0,8,1D,80,14,7D,00,01,01,4B,
4305097590,00000140,false,Rx,0,8,FF,FF,01,6C,20,00,01,BD,
4305107339,00000130,false,Rx,0,8,13,80,01,7D,00,01,02,5C,
4305107574,00000140,false,Rx,0,8,FF,FF,01,6C,20,00,02,9A,
4305117334,00000130,false,Rx,0,8,0A,80,01,7D,00,01,03,77,
4305117580,00000140,false,Rx,0,8,FF,FF,01,6C,20,00,03,87,
4305127339,00000130,false,Rx,0,8,06,80,0E,7D,00,01,04,E3,
4305127584,00000140,false,Rx,0,8,FF,FF,01,6C,20,00,04,D4,
4305137354,00000130,false,Rx,0,8,FF,7F,15,7D,00,01,05,F6,
4305137589,00000140,false,Rx,0,8,FF,FF,01,6C,20,00,05,C9,
4305147357,00000130,false,Rx,0,8,00,80,03,7D,00,01,06,A2,
4305147593,00000140,false,Rx,0,8,FF,FF,01,6C,20,00,06,EE,
4305157496,00000130,false,Rx,0,8,0B,80,05,7D,00,01,07,EB,
4305157733,00000140,false,Rx,0,8,FF,FF,01,6C,20,00,07,F3,
4305167335,00000130,false,Rx,0,8,0D,80,0D,7D,00,01,08,F4,
4305167570,00000140,false,Rx,0,8,FF,FF,01,6C,20,00,08,48,
4305177339,00000130,false,Rx,0,8,07,80,06,7D,00,01,09,48,
4305177585,00000140,false,Rx,0,8,FF,FF,01,6C,20,00,09,55,
10227077,000007D1,false,Tx,1,8,02,11,02,00,00,00,00,00,
4305187209,00000500,false,Rx,0,1,0C,00,00,00,00,00,00,00,
4305187442,00000130,false,Rx,0,8,05,80,FC,7C,00,01,0A,78,
4305187681,00000140,false,Rx,0,8,FF,FF,01,6C,20,00,0A,72,
4305187920,00000495,false,Rx,0,8,00,00,12,8A,21,69,2C,64,
4305197345,00000130,false,Rx,0,8,04,80,F8,7C,00,01,0B,8D,
4305197579,00000140,false,Rx,0,8,FF,FF,01,6C,20,00,0B,6F,
4305207330,00000130,false,Rx,0,8,01,80,FE,7C,00,01,0C,8B,
4305207574,00000140,false,Rx,0,8,FF,FF,01,6C,20,00,0C,3C,
4305217335,00000130,false,Rx,0,8,05,80,12,7D,00,01,0D,DD,
4305217569,00000140,false,Rx,0,8,FF,FF,01,6C,20,00,0D,21,
4305227340,00000130,false,Rx,0,8,02,80,1F,7D,00,01,0E,DC,
4305227574,00000140,false,Rx,0,8,FF,FF,01,6C,20,00,0E,06,
4305237344,00000130,false,Rx,0,8,05,80,25,7D,00,01,0F,C3,
4305237579,00000140,false,Rx,0,8,FF,FF,01,6C,20,00,0F,1B,
4305247338,00000130,false,Rx,0,8,05,80,19,7D,00,01,00,95,
4305247583,00000140,false,Rx,0,8,FF,FF,01,6C,20,00,00,A0,
4305257342,00000130,false,Rx,0,8,07,80,02,7D,00,01,01,15,
4305257576,00000140,false,Rx,0,8,FF,FF,01,6C,20,00,01,BD,
4305267356,00000130,false,Rx,0,8,03,80,FB,7C,00,01,02,48,
4305267590,00000140,false,Rx,0,8,FF,FF,01,6C,20,00,02,9A,
4305277340,00000130,false,Rx,0,8,01,80,F3,7C,00,01,03,98,
4305277584,00000140,false,Rx,0,8,FF,FF,01,6C,20,00,03,87,
4305287210,00000500,false,Rx,0,1,0C,00,00,00,00,00,00,00,
4305287452,00000130,false,Rx,0,8,0A,80,F3,7C,00,01,04,FE,
4305287691,00000140,false,Rx,0,8,FF,FF,01,6C,20,00,04,D4,
4305287919,00000495,false,Rx,0,8,00,00,12,8A,21,69,2C,64,
10336815,000007D1,false,Tx,1,8,02,11,03,00,00,00,00,00,
4305297344,00000130,false,Rx,0,8,09,80,FF,7C,00,01,05,C6,
4305297588,00000140,false,Rx,0,8,FF,FF,01,6C,20,00,05,C9,
4305307339,00000130,false,Rx,0,8,0D,80,01,7D,00,01,06,90,
4305307573,00000140,false,Rx,0,8,FF,FF,01,6C,20,00,06,EE,
4305317334,00000130,false,Rx,0,8,16,80,F2,7C,00,01,07,B1,
4305317578,00000140,false,Rx,0,8,FF,FF,01,6C,20,00,07,F3,
4305327329,00000130,false,Rx,0,8,13,80,EB,7C,00,01,08,CD,
4305327573,00000140,false,Rx,0,8,FF,FF,01,6C,20,00,08,48,
4305337353,00000130,false,Rx,0,8,0E,80,FE,7C,00,01,09,BE,
4305337587,00000140,false,Rx,0,8,FF,FF,01,6C,20,00,09,55,
4305347347,00000130,false,Rx,0,8,0B,80,10,7D,00,01,0A,5B,
4305347581,00000140,false,Rx,0,8,FF,FF,01,6C,20,00,0A,72,
4305357485,00000130,false,Rx,0,8,08,80,FD,7C,00,01,0B,E9,
4305357731,00000140,false,Rx,0,8,FF,FF,01,6C,20,00,0B,6F,
4305367334,00000130,false,Rx,0,8,00,80,EC,7C,00,01,0C,EC,
4305367578,00000140,false,Rx,0,8,FF,FF,01,6C,20,00,0C,3C,
4305377339,00000130,false,Rx,0,8,05,80,0D,7D,00,01,0D,4F,
4305377573,00000140,false,Rx,0,8,FF,FF,01,6C,20,00,0D,21,
4305387209,00000500,false,Rx,0,1,0C,00,00,00,00,00,00,00,
4305387442,00000130,false,Rx,0,8,0A,80,1A,7D,00,01,0E,D1,
4305387681,00000140,false,Rx,0,8,FF,FF,01,6C,20,00,0E,06,
4305387920,00000495,false,Rx,0,8,00,00,12,8A,21,69,2C,64,
4305397346,00000130,false,Rx,0,8,0B,80,13,7D,00,01,0F,8C,
4305397580,00000140,false,Rx,0,8,FF,FF,01,6C,20,00,0F,1B,
10447278,000007D2,false,Tx,1,8,02,11,01,00,00,00,00,00,
4305407346,00000130,false,Rx,0,8,0D,80,07,7D,00,01,00,BF,
4305407580,00000140,false,Rx,0,8,FF,FF,01,6C,20,00,00,A0,
4305408017,000007DA,false,Rx,1,8,03,7F,11,7F,AA,AA,AA,AA,
10461648,000007D2,false,Tx,1,8,02,11,02,00,00,00,00,00,
4305417343,00000130,false,Rx,0,8,0E,80,15,7D,00,01,01,7F,
4305417577,00000140,false,Rx,0,8,FF,FF,01,6C,20,00,01,BD,
4305427336,00000130,false,Rx,0,8,00,80,26,7D,00,01,02,C8,
4305427581,00000140,false,Rx,0,8,FF,FF,01,6C,20,00,02,9A,
4305428018,000007DA,false,Rx,1,8,03,7F,11,7F,AA,AA,AA,AA,
4305437354,00000130,false,Rx,0,8,01,80,28,7D,00,01,03,9E,
4305437588,00000140,false,Rx,0,8,FF,FF,01,6C,20,00,03,87,
4305447339,00000130,false,Rx,0,8,0D,80,16,7D,00,01,04,4F,
4305447583,00000140,false,Rx,0,8,FF,FF,01,6C,20,00,04,D4,
4305457344,00000130,false,Rx,0,8,09,80,12,7D,00,01,05,8E,
4305457578,00000140,false,Rx,0,8,FF,FF,01,6C,20,00,05,C9,
10505577,000007D2,false,Tx,1,8,02,11,03,00,00,00,00,00,
4305467360,00000130,false,Rx,0,8,15,80,18,7D,00,01,06,08,
4305467594,00000140,false,Rx,0,8,FF,FF,01,6C,20,00,06,EE,
4305468021,000007DA,false,Rx,1,8,03,7F,11,7F,AA,AA,AA,AA,
4305477367,00000130,false,Rx,0,8,1A,80,05,7D,00,01,07,0F,
4305477601,00000140,false,Rx,0,8,FF,FF,01,6C,20,00,07,F3,
4305487206,00000500,false,Rx,0,1,0C,00,00,00,00,00,00,00,
4305487448,00000130,false,Rx,0,8,18,80,02,7D,00,01,08,05,
4305487482,000005A0,false,Rx,1,8,00,00,00,C0,20,10,94,0C,
4305487690,00000140,false,Rx,0,8,FF,FF,01,6C,20,00,08,48,
4305487928,00000495,false,Rx,0,8,00,00,12,8A,21,69,2C,64,
4305497334,00000130,false,Rx,0,8,14,80,0F,7D,00,01,09,0B,
10544689,000007D3,false,Tx,1,8,02,11,01,00,00,00,00,00,
4305497578,00000140,false,Rx,0,8,FF,FF,01,6C,20,00,09,55,
4305507339,00000130,false,Rx,0,8,0A,80,17,7D,00,01,0A,0D,
4305507573,00000140,false,Rx,0,8,FF,FF,01,6C,20,00,0A,72,
4305517333,00000130,false,Rx,0,8,0B,80,18,7D,00,01,0B,31,
4305517567,00000140,false,Rx,0,8,FF,FF,01,6C,20,00,0B,6F,
4305527328,00000130,false,Rx,0,8,0D,80,16,7D,00,01,0C,A7,
4305527572,00000140,false,Rx,0,8,FF,FF,01,6C,20,00,0C,3C,
4305537344,00000130,false,Rx,0,8,0C,80,19,7D,00,01,0D,9B,
4305537589,00000140,false,Rx,0,8,FF,FF,01,6C,20,00,0D,21,
4305547349,00000130,false,Rx,0,8,0D,80,1D,7D,00,01,0E,54,
4305547584,00000140,false,Rx,0,8,FF,FF,01,6C,20,00,0E,06,
4305557489,00000130,false,Rx,0,8,0A,80,0E,7D,00,01,0F,97,
4305557725,00000140,false,Rx,0,8,FF,FF,01,6C,20,00,0F,1B,
4305567339,00000130,false,Rx,0,8,0B,80,F6,7C,00,01,00,08,
4305567585,00000140,false,Rx,0,8,FF,FF,01,6C,20,00,00,A0,
4305577334,00000130,false,Rx,0,8,0B,80,FD,7C,00,01,01,DC,
4305577580,00000140,false,Rx,0,8,FF,FF,01,6C,20,00,01,BD,
4305587205,00000500,false,Rx,0,1,0C,00,00,00,00,00,00,00,
4305587437,00000130,false,Rx,0,8,08,80,15,7D,00,01,02,8B,
4305587677,00000140,false,Rx,0,8,FF,FF,01,6C,20,00,02,9A,
4305587916,00000495,false,Rx,0,8,00,00,12,8A,21,69,2C,64,
4305597340,00000130,false,Rx,0,8,0B,80,24,7D,00,01,03,34,
4305597575,00000140,false,Rx,0,8,FF,FF,01,6C,20,00,03,87,
4305607333,00000130,false,Rx,0,8,06,80,21,7D,00,01,04,5E,
4305607569,00000140,false,Rx,0,8,FF,FF,01,6C,20,00,04,D4,
10656111,000007D3,false,Tx,1,8,02,11,02,00,00,00,00,00,
4305617328,00000130,false,Rx,0,8,02,80,03,7D,00,01,05,3F,
4305617574,00000140,false,Rx,0,8,FF,FF,01,6C,20,00,05,C9,
4305627323,00000130,false,Rx,0,8,05,80,EE,7C,00,01,06,DE,
4305627569,00000140,false,Rx,0,8,FF,FF,01,6C,20,00,06,EE,
4305637339,00000130,false,Rx,0,8,02,80,EB,7C,00,01,07,92,
4305637584,00000140,false,Rx,0,8,FF,FF,01,6C,20,00,07,F3,
4305647334,00000130,false,Rx,0,8,F9,7F,07,7D,00,01,08,9E,
4305647580,00000140,false,Rx,0,8,FF,FF,01,6C,20,00,08,48,
4305657339,00000130,false,Rx,0,8,01,80,16,7D,00,01,09,75,
4305657574,00000140,false,Rx,0,8,FF,FF,01,6C,20,00,09,55,
4305667355,00000130,false,Rx,0,8,12,80,15,7D,00,01,0A,B2,
4305667590,00000140,false,Rx,0,8,FF,FF,01,6C,20,00,0A,72,
4305677338,00000130,false,Rx,0,8,0D,80,0E,7D,00,01,0B,6D,
4305677584,00000140,false,Rx,0,8,FF,FF,01,6C,20,00,0B,6F,
4305687208,00000500,false,Rx,0,1,0C,00,00,00,00,00,00,00,
4305687452,00000130,false,Rx,0,8,0B,80,FF,7C,00,01,0C,89,
4305687691,00000140,false,Rx,0,8,FF,FF,01,6C,20,00,0C,3C,
4305687919,00000495,false,Rx,0,8,00,00,12,8A,21,69,2C,64,
4305697345,00000130,false,Rx,0,8,14,80,05,7D,00,01,0D,DC,
4305697579,00000140,false,Rx,0,8,FF,FF,01,6C,20,00,0D,21,
4305707340,00000130,false,Rx,0,8,12,80,15,7D,00,01,0E,C6,
4305707574,00000140,false,Rx,0,8,FF,FF,01,6C,20,00,0E,06,
10758528,000007D3,false,Tx,1,8,02,11,03,00,00,00,00,00,
4305717334,00000130,false,Rx,0,8,06,80,14,7D,00,01,0F,61,
4305717568,00000140,false,Rx,0,8,FF,FF,01,6C,20,00,0F,1B,
4305727338,00000130,false,Rx,0,8,0B,80,0D,7D,00,01,00,CF,
4305727583,00000140,false,Rx,0,8,FF,FF,01,6C,20,00,00,A0,
4305737352,00000130,false,Rx,0,8,19,80,0B,7D,00,01,01,B0,
4305737597,00000140,false,Rx,0,8,FF,FF,01,6C,20,00,01,BD,
4305747346,00000130,false,Rx,0,8,16,80,0A,7D,00,01,02,A1,
4305747590,00000140,false,Rx,0,8,FF,FF,01,6C,20,00,02,9A,
4305757495,00000130,false,Rx,0,8,0A,80,FA,7C,00,01,03,B0,
4305757741,00000140,false,Rx,0,8,FF,FF,01,6C,20,00,03,87,
4305767334,00000130,false,Rx,0,8,0C,80,F5,7C,00,01,04,4C,
4305767568,00000140,false,Rx,0,8,FF,FF,01,6C,20,00,04,D4,
4305777340,00000130,false,Rx,0,8,09,80,FB,7C,00,01,05,73,
4305777574,00000140,false,Rx,0,8,FF,FF,01,6C,20,00,05,C9,
4305787200,00000500,false,Rx,0,1,0C,00,00,00,00,00,00,00,
4305787443,00000130,false,Rx,0,8,0C,80,04,7D,00,01,06,12,
4305787682,00000140,false,Rx,0,8,FF,FF,01,6C,20,00,06,EE,
4305787920,00000495,false,Rx,0,8,00,00,12,8A,21,69,2C,64,
4305797335,00000130,false,Rx,0,8,0D,80,08,7D,00,01,07,90,
4305797580,00000140,false,Rx,0,8,FF,FF,01,6C,20,00,07,F3,
4305807330,00000130,false,Rx,0,8,07,80,0E,7D,00,01,08,22,
4305807564,00000140,false,Rx,0,8,FF,FF,01,6C,20,00,08,48,
4305817334,00000130,false,Rx,0,8,01,80,07,7D,00,01,09,F1,
4305817569,00000140,false,Rx,0,8,FF,FF,01,6C,20,00,09,55,
10871009,000007D4,false,Tx,1,8,02,11,01,00,00,00,00,00,
4305827328,00000130,false,Rx,0,8,00,80,01,7D,00,01,0A,EA,
4305827572,00000140,false,Rx,0,8,FF,FF,01,6C,20,00,0A,72,
4305837352,00000130,false,Rx,0,8,0B,80,03,7D,00,01,0B,16,
4305837586,00000140,false,Rx,0,8,FF,FF,01,6C,20,00,0B,6F,
4305847335,00000130,false,Rx,0,8,11,80,04,7D,00,01,0C,9F,
4305847579,00000140,false,Rx,0,8,FF,FF,01,6C,20,00,0C,3C,
4305857329,00000130,false,Rx,0,8,0C,80,12,7D,00,01,0D,52,
4305857573,00000140,false,Rx,0,8,FF,FF,01,6C,20,00,0D,21,
4305867344,00000130,false,Rx,0,8,09,80,1D,7D,00,01,0E,3D,
4305867588,00000140,false,Rx,0,8,FF,FF,01,6C,20,00,0E,06,
4305877329,00000130,false,Rx,0,8,10,80,25,7D,00,01,0F,4E,
4305877573,00000140,false,Rx,0,8,FF,FF,01,6C,20,00,0F,1B,
4305887200,00000500,false,Rx,0,1,0C,00,00,00,00,00,00,00,
4305887442,00000130,false,Rx,0,8,07,80,24,7D,00,01,00,A8,
4305887692,00000140,false,Rx,0,8,FF,FF,01,6C,20,00,00,A0,
4305887921,00000495,false,Rx,0,8,00,00,12,8A,21,69,2C,64,
4305897336,00000130,false,Rx,0,8,01,80,23,7D,00,01,01,6D,
4305897580,00000140,false,Rx,0,8,FF,FF,01,6C,20,00,01,BD,
4305907330,00000130,false,Rx,0,8,0B,80,23,7D,00,01,02,22,
4305907564,00000140,false,Rx,0,8,FF,FF,01,6C,20,00,02,9A,
4305917334,00000130,false,Rx,0,8,19,80,0D,7D,00,01,03,EB,
4305917568,00000140,false,Rx,0,8,FF,FF,01,6C,20,00,03,87,
4305927339,00000130,false,Rx,0,8,14,80,19,7D,00,01,04,05,
4305927573,00000140,false,Rx,0,8,FF,FF,01,6C,20,00,04,D4,
4305937344,00000130,false,Rx,0,8,06,80,18,7D,00,01,05,71,
4305937578,00000140,false,Rx,0,8,FF,FF,01,6C,20,00,05,C9,
4305947349,00000130,false,Rx,0,8,03,80,04,7D,00,01,06,4E,
4305947583,00000140,false,Rx,0,8,FF,FF,01,6C,20,00,06,EE,
10995797,000007D4,false,Tx,1,8,02,11,02,00,00,00,00,00,
4305957489,00000130,false,Rx,0,8,0C,80,07,7D,00,01,07,B1,
4305957725,00000140,false,Rx,0,8,FF,FF,01,6C,20,00,07,F3,
4305967339,00000130,false,Rx,0,8,0F,80,20,7D,00,01,08,27,
4305967573,00000140,false,Rx,0,8,FF,FF,01,6C,20,00,08,48,
4305977355,00000130,false,Rx,0,8,0E,80,1F,7D,00,01,09,34,
4305977589,00000140,false,Rx,0,8,FF,FF,01,6C,20,00,09,55,
4305987205,00000500,false,Rx,0,1,0C,00,00,00,00,00,00,00,
4305987447,00000130,false,Rx,0,8,0B,80,1D,7D,00,01,0A,F3,
4305987678,00000140,false,Rx,0,8,FF,FF,01,6C,20,00,0A,72,
4305987916,00000495,false,Rx,0,8,00,00,12,8A,21,69,2C,64,
4305997341,00000130,false,Rx,0,8,03,80,17,7D,00,01,0B,9F,
4305997585,00000140,false,Rx,0,8,FF,FF,01,6C,20,00,0B,6F,
4306007335,00000130,false,Rx,0,8,FE,7F,05,7D,00,01,0C,B0,
4306007579,00000140,false,Rx,0,8,FF,FF,01,6C,20,00,0C,3C,
4306017329,00000130,false,Rx,0,8,0B,80,08,7D,00,01,0D,91,
4306017574,00000140,false,Rx,0,8,FF,FF,01,6C,20,00,0D,21,
4306027334,00000130,false,Rx,0,8,08,80,19,7D,00,01,0E,D5,
4306027579,00000140,false,Rx,0,8,FF,FF,01,6C,20,00,0E,06,
4306037350,00000130,false,Rx,0,8,03,80,19,7D,00,01,0F,FD,
4306037585,00000140,false,Rx,0,8,FF,FF,01,6C,20,00,0F,1B,
4306047344,00000130,false,Rx,0,8,0B,80,17,7D,00,01,00,82,
4306047589,00000140,false,Rx,0,8,FF,FF,01,6C,20,00,00,A0,
4306057337,00000130,false,Rx,0,8,12,80,20,7D,00,01,01,8D,
4306057582,00000140,false,Rx,0,8,FF,FF,01,6C,20,00,01,BD,
11105390,000007D4,false,Tx,1,8,02,11,03,00,00,00,00,00,
4306067351,00000130,false,Rx,0,8,07,80,1E,7D,00,01,02,1E,
4306067597,00000140,false,Rx,0,8,FF,FF,01,6C,20,00,02,9A,
4306077345,00000130,false,Rx,0,8,03,80,1A,7D,00,01,03,DF,
4306077580,00000140,false,Rx,0,8,FF,FF,01,6C,20,00,03,87,
4306087204,00000500,false,Rx,0,1,0C,00,00,00,00,00,00,00,
4306087446,00000130,false,Rx,0,8,0C,80,1B,7D,00,01,04,BA,
4306087687,00000140,false,Rx,0,8,FF,FF,01,6C,20,00,04,D4,
4306087915,00000495,false,Rx,0,8,00,00,12,8A,21,69,2C,64,
4306097338,00000130,false,Rx,0,8,0A,80,12,7D,00,01,05,69,
4306097574,00000140,false,Rx,0,8,FF,FF,01,6C,20,00,05,C9,
4306107334,00000130,false,Rx,0,8,0B,80,19,7D,00,01,06,DA,
4306107579,00000140,false,Rx,0,8,FF,FF,01,6C,20,00,06,EE,
4306117339,00000130,false,Rx,0,8,09,80,15,7D,00,01,07,BF,
4306117574,00000140,false,Rx,0,8,FF,FF,01,6C,20,00,07,F3,
4306127333,00000130,false,Rx,0,8,09,80,FB,7C,00,01,08,F2,
4306127568,00000140,false,Rx,0,8,FF,FF,01,6C,20,00,08,48,
4306137337,00000130,false,Rx,0,8,13,80,F9,7C,00,01,09,EA,
4306137582,00000140,false,Rx,0,8,FF,FF,01,6C,20,00,09,55,
4306147350,00000130,false,Rx,0,8,15,80,FF,7C,00,01,0A,7F,
4306147586,00000140,false,Rx,0,8,FF,FF,01,6C,20,00,0A,72,
4306157481,00000130,false,Rx,0,8,0E,80,08,7D,00,01,0B,EB,
4306157727,00000140,false,Rx,0,8,FF,FF,01,6C,20,00,0B,6F,
4306167330,00000130,false,Rx,0,8,0A,80,25,7D,00,01,0C,B8,
4306167574,00000140,false,Rx,0,8,FF,FF,01,6C,20,00,0C,3C,
11215296,000007D5,false,Tx,1,8,02,11,01,00,00,00,00,00,
4306177335,00000130,false,Rx,0,8,03,80,38,7D,00,01,0D,6C,
4306177569,00000140,false,Rx,0,8,FF,FF,01,6C,20,00,0D,21,
4306187204,00000500,false,Rx,0,1,0C,00,00,00,00,00,00,00,
4306187438,00000130,false,Rx,0,8,09,80,29,7D,00,01,0E,A7,
4306187677,00000140,false,Rx,0,8,FF,FF,01,6C,20,00,0E,06,
4306187915,00000495,false,Rx,0,8,00,00,12,8A,21,69,2C,64,
4306197331,00000130,false,Rx,0,8,16,80,0E,7D,00,01,0F,95,
4306197575,00000140,false,Rx,0,8,FF,FF,01,6C,20,00,0F,1B,
4306207336,00000130,false,Rx,0,8,10,80,15,7D,00,01,00,DA,
4306207580,00000140,false,Rx,0,8,FF,FF,01,6C,20,00,00,A0,
4306217330,00000130,false,Rx,0,8,09,80,0C,7D,00,01,01,02,
4306217574,00000140,false,Rx,0,8,FF,FF,01,6C,20,00,01,BD,
4306227335,00000130,false,Rx,0,8,0A,80,0A,7D,00,01,02,A3,
4306227569,00000140,false,Rx,0,8,FF,FF,01,6C,20,00,02,9A,
4306237340,00000130,false,Rx,0,8,08,80,12,7D,00,01,03,9D,
4306237585,00000140,false,Rx,0,8,FF,FF,01,6C,20,00,03,87,
4306247334,00000130,false,Rx,0,8,00,80,08,7D,00,01,04,51,
4306247579,00000140,false,Rx,0,8,FF,FF,01,6C,20,00,04,D4,
4306257340,00000130,false,Rx,0,8,01,80,06,7D,00,01,05,07,
4306257574,00000140,false,Rx,0,8,FF,FF,01,6C,20,00,05,C9,
4306267355,00000130,false,Rx,0,8,04,80,06,7D,00,01,06,14,
4306267590,00000140,false,Rx,0,8,FF,FF,01,6C,20,00,06,EE,
4306277340,00000130,false,Rx,0,8,03,80,20,7D,00,01,07,27,
11322867,000007D5,false,Tx,1,8,02,11,02,00,00,00,00,00,
4306277574,00000140,false,Rx,0,8,FF,FF,01,6C,20,00,07,F3,
4306287210,00000500,false,Rx,0,1,0C,00,00,00,00,00,00,00,
4306287442,00000130,false,Rx,0,8,09,80,3B,7D,00,01,08,D3,
4306287682,00000140,false,Rx,0,8,FF,FF,01,6C,20,00,08,48,
4306287921,00000495,false,Rx,0,8,00,00,12,8A,21,69,2C,64,
4306297345,00000130,false,Rx,0,8,15,80,20,7D,00,01,09,EB,
4306297579,00000140,false,Rx,0,8,FF,FF,01,6C,20,00,09,55,
4306307339,00000130,false,Rx,0,8,16,80,0E,7D,00,01,0A,FC,
4306307574,00000140,false,Rx,0,8,FF,FF,01,6C,20,00,0A,72,
4306317334,00000130,false,Rx,0,8,12,80,1F,7D,00,01,0B,0C,
4306317578,00000140,false,Rx,0,8,FF,FF,01,6C,20,00,0B,6F,
4306327327,00000130,false,Rx,0,8,09,80,23,7D,00,01,0C,3E,
4306327571,00000140,false,Rx,0,8,FF,FF,01,6C,20,00,0C,3C,
4306337340,00000130,false,Rx,0,8,FF,7F,21,7D,00,01,0D,84,
4306337585,00000140,false,Rx,0,8,FF,FF,01,6C,20,00,0D,21,
4306347346,00000130,false,Rx,0,8,03,80,1C,7D,00,01,0E,3F,
4306347590,00000140,false,Rx,0,8,FF,FF,01,6C,20,00,0E,06,
4306357484,00000130,false,Rx,0,8,FF,7F,26,7D,00,01,0F,B5,
4306357719,00000140,false,Rx,0,8,FF,FF,01,6C,20,00,0F,1B,
4306367334,00000130,false,Rx,0,8,0A,80,10,7D,00,01,00,D4,
4306367579,00000140,false,Rx,0,8,FF,FF,01,6C,20,00,00,A0,
4306377339,00000130,false,Rx,0,8,11,80,FD,7C,00,01,01,0D,
4306377583,00000140,false,Rx,0,8,FF,FF,01,6C,20,00,01,BD,
11432468,000007D5,false,Tx,1,8,02,11,03,00,00,00,00,00,
4306387199,00000500,false,Rx,0,1,0C,00,00,00,00,00,00,00,
4306387442,00000130,false,Rx,0,8,0E,80,0D,7D,00,01,02,C1,
4306387678,00000140,false,Rx,0,8,FF,FF,01,6C,20,00,02,9A,
4306387921,00000495,false,Rx,0,8,00,00,12,8A,21,69,2C,64,
4306397336,00000130,false,Rx,0,8,12,80,23,7D,00,01,03,09,
4306397570,00000140,false,Rx,0,8,FF,FF,01,6C,20,00,03,87,
4306407330,00000130,false,Rx,0,8,1C,80,16,7D,00,01,04,AB,
4306407564,00000140,false,Rx,0,8,FF,FF,01,6C,20,00,04,D4,
4306417335,00000130,false,Rx,0,8,18,80,11,7D,00,01,05,D4,
4306417569,00000140,false,Rx,0,8,FF,FF,01,6C,20,00,05,C9,
4306427330,00000130,false,Rx,0,8,09,80,13,7D,00,01,06,C3,
4306427564,00000140,false,Rx,0,8,FF,FF,01,6C,20,00,06,EE,
4306437344,00000130,false,Rx,0,8,0A,80,13,7D,00,01,07,39,
4306437578,00000140,false,Rx,0,8,FF,FF,01,6C,20,00,07,F3,
4306447328,00000130,false,Rx,0,8,0B,80,0B,7D,00,01,08,46,
4306447572,00000140,false,Rx,0,8,FF,FF,01,6C,20,00,08,48,
4306457333,00000130,false,Rx,0,8,09,80,FD,7C,00,01,09,8E,
4306457567,00000140,false,Rx,0,8,FF,FF,01,6C,20,00,09,55,
4306467348,00000130,false,Rx,0,8,07,80,04,7D,00,01,0A,BB,
4306467583,00000140,false,Rx,0,8,FF,FF,01,6C,20,00,0A,72,
4306477352,00000130,false,Rx,0,8,00,80,14,7D,00,01,0B,C6,
4306477596,00000140,false,Rx,0,8,FF,FF,01,6C,20,00,0B,6F,
4306487201,00000500,false,Rx,0,1,0C,00,00,00,00,00,00,00,
4306487443,00000130,false,Rx,0,8,02,80,16,7D,00,01,0C,FB,
4306487477,000005A0,false,Rx,1,8,00,00,00,C0,20,48,97,0C,
4306487686,00000140,false,Rx,0,8,FF,FF,01,6C,20,00,0C,3C,
4306487914,00000495,false,Rx,0,8,00,00,12,8A,21,69,2C,64,
11541562,000007D6,false,Tx,1,8,02,11,01,00,00,00,00,00,
4306497338,00000130,false,Rx,0,8,0D,80,1D,7D,00,01,0D,73,
4306497573,00000140,false,Rx,0,8,FF,FF,01,6C,20,00,0D,21,
4306507321,00000130,false,Rx,0,8,0C,80,21,7D,00,01,0E,E4,
4306507567,00000140,false,Rx,0,8,FF,FF,01,6C,20,00,0E,06,
4306517325,00000130,false,Rx,0,8,09,80,1E,7D,00,01,0F,9E,
4306517560,00000140,false,Rx,0,8,FF,FF,01,6C,20,00,0F,1B,
4306527329,00000130,false,Rx,0,8,08,80,14,7D,00,01,00,DB,
4306527574,00000140,false,Rx,0,8,FF,FF,01,6C,20,00,00,A0,
4306537344,00000130,false,Rx,0,8,00,80,0A,7D,00,01,01,EC,
4306537579,00000140,false,Rx,0,8,FF,FF,01,6C,20,00,01,BD,
4306547339,00000130,false,Rx,0,8,FE,7F,1A,7D,00,01,02,84,
4306547574,00000140,false,Rx,0,8,FF,FF,01,6C,20,00,02,9A,
4306557480,00000130,false,Rx,0,8,03,80,11,7D,00,01,03,16,
4306557726,00000140,false,Rx,0,8,FF,FF,01,6C,20,00,03,87,
4306567338,00000130,false,Rx,0,8,FC,7F,FF,7C,00,01,04,4F,
4306567573,00000140,false,Rx,0,8,FF,FF,01,6C,20,00,04,D4,
4306577333,00000130,false,Rx,0,8,FA,7F,00,7D,00,01,05,F3,
4306577579,00000140,false,Rx,0,8,FF,FF,01,6C,20,00,05,C9,
4306587202,00000500,false,Rx,0,1,0C,00,00,00,00,00,00,00,
4306587446,00000130,false,Rx,0,8,0C,80,07,7D,00,01,06,AC,
4306587676,00000140,false,Rx,0,8,FF,FF,01,6C,20,00,06,EE,
4306587914,00000495,false,Rx,0,8,00,00,12,8A,21,69,2C,64,
4306597338,00000130,false,Rx,0,8,15,80,0B,7D,00,01,07,45,
4306597574,00000140,false,Rx,0,8,FF,FF,01,6C,20,00,07,F3,
11648797,000007D6,false,Tx,1,8,02,11,02,00,00,00,00,00,
4306607331,00000130,false,Rx,0,8,16,80,04,7D,00,01,08,65,
4306607566,00000140,false,Rx,0,8,FF,FF,01,6C,20,00,08,48,
4306617335,00000130,false,Rx,0,8,14,80,03,7D,00,01,09,C9,
4306617570,00000140,false,Rx,0,8,FF,FF,01,6C,20,00,09,55,
4306627339,00000130,false,Rx,0,8,0F,80,02,7D,00,01,0A,08,
4306627575,00000140,false,Rx,0,8,FF,FF,01,6C,20,00,0A,72,
4306637346,00000130,false,Rx,0,8,0A,80,02,7D,00,01,0B,21,
4306637580,00000140,false,Rx,0,8,FF,FF,01,6C,20,00,0B,6F,
4306647341,00000130,false,Rx,0,8,04,80,05,7D,00,01,0C,78,
4306647585,00000140,false,Rx,0,8,FF,FF,01,6C,20,00,0C,3C,
4306657336,00000130,false,Rx,0,8,FC,7F,02,7D,00,01,0D,1C,
4306657571,00000140,false,Rx,0,8,FF,FF,01,6C,20,00,0D,21,
4306667350,00000130,false,Rx,0,8,01,80,05,7D,00,01,0E,76,
4306667595,00000140,false,Rx,0,8,FF,FF,01,6C,20,00,0E,06,
4306677335,00000130,false,Rx,0,8,00,80,09,7D,00,01,0F,F4,
4306677579,00000140,false,Rx,0,8,FF,FF,01,6C,20,00,0F,1B,
4306687204,00000500,false,Rx,0,1,0C,00,00,00,00,00,00,00,
4306687437,00000130,false,Rx,0,8,F5,7F,0B,7D,00,01,00,0F,
4306687687,00000140,false,Rx,0,8,FF,FF,01,6C,20,00,00,A0,
4306687925,00000495,false,Rx,0,8,00,00,12,8A,21,69,2C,64,
4306697330,00000130,false,Rx,0,8,F3,7F,16,7D,00,01,01,87,
4306697574,00000140,false,Rx,0,8,FF,FF,01,6C,20,00,01,BD,
4306707324,00000130,false,Rx,0,8,FB,7F,23,7D,00,01,02,82,
4306707568,00000140,false,Rx,0,8,FF,FF,01,6C,20,00,02,9A,
11759484,000007D6,false,Tx,1,8,02,11,03,00,00,00,00,00,
4306717328,00000130,false,Rx,0,8,10,80,18,7D,00,01,03,55,
4306717572,00000140,false,Rx,0,8,FF,FF,01,6C,20,00,03,87,
4306727321,00000130,false,Rx,0,8,16,80,02,7D,00,01,04,98,
4306727565,00000140,false,Rx,0,8,FF,FF,01,6C,20,00,04,D4,
4306737335,00000130,false,Rx,0,8,0B,80,F5,7C,00,01,05,DF,
4306737580,00000140,false,Rx,0,8,FF,FF,01,6C,20,00,05,C9,
4306747340,00000130,false,Rx,0,8,FF,7F,08,7D,00,01,06,97,
4306747584,00000140,false,Rx,0,8,FF,FF,01,6C,20,00,06,EE,
4306757479,00000130,false,Rx,0,8,FD,7F,1A,7D,00,01,07,0A,
4306757714,00000140,false,Rx,0,8,FF,FF,01,6C,20,00,07,F3,
4306767328,00000130,false,Rx,0,8,03,80,1E,7D,00,01,08,A5,
4306767573,00000140,false,Rx,0,8,FF,FF,01,6C,20,00,08,48,
4306777333,00000130,false,Rx,0,8,07,80,18,7D,00,01,09,B0,
4306777567,00000140,false,Rx,0,8,FF,FF,01,6C,20,00,09,55,
4306787192,00000500,false,Rx,0,1,0C,00,00,00,00,00,00,00,
4306787434,00000130,false,Rx,0,8,03,80,0D,7D,00,01,0A,CF,
4306787673,00000140,false,Rx,0,8,FF,FF,01,6C,20,00,0A,72,
4306787913,00000495,false,Rx,0,8,00,00,12,8A,21,69,2C,64,
4306797325,00000130,false,Rx,0,8,F7,7F,18,7D,00,01,0B,2A,
4306797570,00000140,false,Rx,0,8,FF,FF,01,6C,20,00,0B,6F,
4306807329,00000130,false,Rx,0,8,F3,7F,1D,7D,00,01,0C,CF,
4306807563,00000140,false,Rx,0,8,FF,FF,01,6C,20,00,0C,3C,
4306817324,00000130,false,Rx,0,8,F2,7F,18,7D,00,01,0D,50,
4306817558,00000140,false,Rx,0,8,FF,FF,01,6C,20,00,0D,21,
11872277,000007D7,false,Tx,1,8,02,11,01,00,00,00,00,00,
4306827318,00000130,false,Rx,0,8,F6,7F,17,7D,00,01,0E,62,
4306827559,00000140,false,Rx,0,8,FF,FF,01,6C,20,00,0E,06,
4306837344,00000130,false,Rx,0,8,FB,7F,0C,7D,00,01,0F,BE,
4306837578,00000140,false,Rx,0,8,FF,FF,01,6C,20,00,0F,1B,
4306847339,00000130,false,Rx,0,8,0C,80,07,7D,00,01,00,E2,
4306847583,00000140,false,Rx,0,8,FF,FF,01,6C,20,00,00,A0,
4306857334,00000130,false,Rx,0,8,13,80,06,7D,00,01,01,70,
4306857578,00000140,false,Rx,0,8,FF,FF,01,6C,20,00,01,BD,
4306867349,00000130,false,Rx,0,8,0C,80,0B,7D,00,01,02,1A,
4306867584,00000140,false,Rx,0,8,FF,FF,01,6C,20,00,02,9A,
4306877334,00000130,false,Rx,0,8,F9,7F,0B,7D,00,01,03,93,
4306877568,00000140,false,Rx,0,8,FF,FF,01,6C,20,00,03,87,
4306887204,00000500,false,Rx,0,1,0C,00,00,00,00,00,00,00,
4306887436,00000130,false,Rx,0,8,F1,7F,16,7D,00,01,04,54,
4306887676,00000140,false,Rx,0,8,FF,FF,01,6C,20,00,04,D4,
4306887915,00000495,false,Rx,0,8,00,00,12,8A,21,69,2C,64,
4306897339,00000130,false,Rx,0,8,03,80,1F,7D,00,01,05,4E,
4306897573,00000140,false,Rx,0,8,FF,FF,01,6C,20,00,05,C9,
4306907335,00000130,false,Rx,0,8,0F,80,25,7D,00,01,06,5E,
4306907569,00000140,false,Rx,0,8,FF,FF,01,6C,20,00,06,EE,
4306917339,00000130,false,Rx,0,8,11,80,21,7D,00,01,07,4E,
4306917583,00000140,false,Rx,0,8,FF,FF,01,6C,20,00,07,F3,
4306927334,00000130,false,Rx,0,8,05,80,04,7D,00,01,08,3B,
4306927568,00000140,false,Rx,0,8,FF,FF,01,6C,20,00,08,48,
4306937349,00000130,false,Rx,0,8,01,80,03,7D,00,01,09,44,
4306937583,00000140,false,Rx,0,8,FF,FF,01,6C,20,00,09,55,
4306947344,00000130,false,Rx,0,8,07,80,0F,7D,00,01,0A,72,
4306947578,00000140,false,Rx,0,8,FF,FF,01,6C,20,00,0A,72,
11996828,000007D7,false,Tx,1,8,02,11,02,00,00,00,00,00,
4306957485,00000130,false,Rx,0,8,FF,7F,02,7D,00,01,0B,B5,
4306957722,00000140,false,Rx,0,8,FF,FF,01,6C,20,00,0B,6F,
4306967325,00000130,false,Rx,0,8,F1,7F,F0,7C,00,01,0C,3D,
4306967569,00000140,false,Rx,0,8,FF,FF,01,6C,20,00,0C,3C,
4306977350,00000130,false,Rx,0,8,F8,7F,F3,7C,00,01,0D,11,
4306977595,00000140,false,Rx,0,8,FF,FF,01,6C,20,00,0D,21,
4306987200,00000500,false,Rx,0,1,0C,00,00,00,00,00,00,00,
4306987442,00000130,false,Rx,0,8,0C,80,FE,7C,00,01,0E,57,
4306987683,00000140,false,Rx,0,8,FF,FF,01,6C,20,00,0E,06,
4306987910,00000495,false,Rx,0,8,00,00,12,8A,21,69,2C,64,
4306997334,00000130,false,Rx,0,8,0A,80,0B,7D,00,01,0F,48,
4306997569,00000140,false,Rx,0,8,FF,FF,01,6C,20,00,0F,1B,
4307007329,00000130,false,Rx,0,8,01,80,16,7D,00,01,00,80,
4307007574,00000140,false,Rx,0,8,FF,FF,01,6C,20,00,00,A0,
4307017324,00000130,false,Rx,0,8,FC,7F,15,7D,00,01,01,65,
4307017569,00000140,false,Rx,0,8,FF,FF,01,6C,20,00,01,BD,
4307027328,00000130,false,Rx,0,8,03,80,18,7D,00,01,02,16,
4307027563,00000140,false,Rx,0,8,FF,FF,01,6C,20,00,02,9A,
4307037344,00000130,false,Rx,0,8,0C,80,0D,7D,00,01,03,66,
4307037579,00000140,false,Rx,0,8,FF,FF,01,6C,20,00,03,87,
4307047328,00000130,false,Rx,0,8,03,80,0A,7D,00,01,04,62,
4307047574,00000140,false,Rx,0,8,FF,FF,01,6C,20,00,04,D4,
4307057323,00000130,false,Rx,0,8,FD,7F,21,7D,00,01,05,D6,
4307057569,00000140,false,Rx,0,8,FF,FF,01,6C,20,00,05,C9,
12107021,000007D7,false,Tx,1,8,02,11,03,00,00,00,00,00,
4307067349,00000130,false,Rx,0,8,F9,7F,1C,7D,00,01,06,1F,
4307067585,00000140,false,Rx,0,8,FF,FF,01,6C,20,00,06,EE,
4307077333,00000130,false,Rx,0,8,05,80,08,7D,00,01,07,42,
4307077568,00000140,false,Rx,0,8,FF,FF,01,6C,20,00,07,F3,
4307087203,00000500,false,Rx,0,1,0C,00,00,00,00,00,00,00,
4307087436,00000130,false,Rx,0,8,08,80,F7,7C,00,01,08,6D,
4307087676,00000140,false,Rx,0,8,FF,FF,01,6C,20,00,08,48,
4307087904,00000495,false,Rx,0,8,00,00,12,8A,21,69,2C,64,
4307097327,00000130,false,Rx,0,8,05,80,F8,7C,00,01,09,EA,
4307097572,00000140,false,Rx,0,8,FF,FF,01,6C,20,00,09,55,
4307107330,00000130,false,Rx,0,8,02,80,00,7D,00,01,0A,3A,
4307107565,00000140,false,Rx,0,8,FF,FF,01,6C,20,00,0A,72,
4307117323,00000130,false,Rx,0,8,02,80,FF,7C,00,01,0B,55,
4307117569,00000140,false,Rx,0,8,FF,FF,01,6C,20,00,0B,6F,
4307127327,00000130,false,Rx,0,8,09,80,00,7D,00,01,0C,41,
4307127562,00000140,false,Rx,0,8,FF,FF,01,6C,20,00,0C,3C,
4307137342,00000130,false,Rx,0,8,08,80,03,7D,00,01,0D,BF,
4307137576,00000140,false,Rx,0,8,FF,FF,01,6C,20,00,0D,21,
4307147335,00000130,false,Rx,0,8,FD,7F,09,7D,00,01,0E,AF,
4307147580,00000140,false,Rx,0,8,FF,FF,01,6C,20,00,0E,06,
4307157476,00000130,false,Rx,0,8,F9,7F,17,7D,00,01,0F,23,
4307157711,00000140,false,Rx,0,8,FF,FF,01,6C,20,00,0F,1B,
4307167334,00000130,false,Rx,0,8,03,80,1A,7D,00,01,00,F8,
4307167579,00000140,false,Rx,0,8,FF,FF,01,6C,20,00,00,A0,
4307177329,00000130,false,Rx,0,8,12,80,0B,7D,00,01,01,85,
12222961,000007D8,false,Tx,1,8,02,11,01,00,00,00,00,00,
4307177574,00000140,false,Rx,0,8,FF,FF,01,6C,20,00,01,BD,
4307187209,00000500,false,Rx,0,1,0C,00,00,00,00,00,00,00,
4307187452,00000130,false,Rx,0,8,1A,80,07,7D,00,01,02,B2,
4307187681,00000140,false,Rx,0,8,FF,FF,01,6C,20,00,02,9A,
4307187920,00000495,false,Rx,0,8,00,00,12,8A,21,69,2C,64,
4307197334,00000130,false,Rx,0,8,10,80,04,7D,00,01,03,79,
4307197578,00000140,false,Rx,0,8,FF,FF,01,6C,20,00,03,87,
4307207327,00000130,false,Rx,0,8,08,80,FF,7C,00,01,04,86,
4307207571,00000140,false,Rx,0,8,FF,FF,01,6C,20,00,04,D4,
4307217330,00000130,false,Rx,0,8,0E,80,FE,7C,00,01,05,22,
4307217575,00000140,false,Rx,0,8,FF,FF,01,6C,20,00,05,C9,
4307227334,00000130,false,Rx,0,8,0E,80,04,7D,00,01,06,A8,
4307227568,00000140,false,Rx,0,8,FF,FF,01,6C,20,00,06,EE,
4307237339,00000130,false,Rx,0,8,08,80,09,7D,00,01,07,CE,
4307237583,00000140,false,Rx,0,8,FF,FF,01,6C,20,00,07,F3,
4307247333,00000130,false,Rx,0,8,01,80,14,7D,00,01,08,BC,
4307247577,00000140,false,Rx,0,8,FF,FF,01,6C,20,00,08,48,
4307257336,00000130,false,Rx,0,8,0D,80,20,7D,00,01,09,80,
4307257570,00000140,false,Rx,0,8,FF,FF,01,6C,20,00,09,55,
4307267351,00000130,false,Rx,0,8,14,80,1F,7D,00,01,0A,C2,
4307267585,00000140,false,Rx,0,8,FF,FF,01,6C,20,00,0A,72,
12320944,000007D8,false,Tx,1,8,02,11,02,00,00,00,00,00,
4307277334,00000130,false,Rx,0,8,0E,80,1D,7D,00,01,0B,DA,
4307277569,00000140,false,Rx,0,8,FF,FF,01,6C,20,00,0B,6F,
4307287205,00000500,false,Rx,0,1,0C,00,00,00,00,00,00,00,
4307287437,00000130,false,Rx,0,8,06,80,2D,7D,00,01,0C,74,
4307287677,00000140,false,Rx,0,8,FF,FF,01,6C,20,00,0C,3C,
4307287916,00000495,false,Rx,0,8,00,00,12,8A,21,69,2C,64,
4307297331,00000130,false,Rx,0,8,01,80,20,7D,00,01,0D,4F,
4307297565,00000140,false,Rx,0,8,FF,FF,01,6C,20,00,0D,21,
4307307325,00000130,false,Rx,0,8,09,80,07,7D,00,01,0E,70,
4307307559,00000140,false,Rx,0,8,FF,FF,01,6C,20,00,0E,06,
4307317320,00000130,false,Rx,0,8,11,80,EC,7C,00,01,0F,2F,
4307317554,00000140,false,Rx,0,8,FF,FF,01,6C,20,00,0F,1B,
4307327325,00000130,false,Rx,0,8,0A,80,F4,7C,00,01,00,81,
4307327569,00000140,false,Rx,0,8,FF,FF,01,6C,20,00,00,A0,
4307337341,00000130,false,Rx,0,8,0B,80,F8,7C,00,01,01,03,
4307337585,00000140,false,Rx,0,8,FF,FF,01,6C,20,00,01,BD,
4307347344,00000130,false,Rx,0,8,08,80,EC,7C,00,01,02,98,
4307347579,00000140,false,Rx,0,8,FF,FF,01,6C,20,00,02,9A,
4307357473,00000130,false,Rx,0,8,0C,80,E2,7C,00,01,03,FA,
4307357719,00000140,false,Rx,0,8,FF,FF,01,6C,20,00,03,87,
4307367324,00000130,false,Rx,0,8,10,80,F3,7C,00,01,04,2F,
4307367568,00000140,false,Rx,0,8,FF,FF,01,6C,20,00,04,D4,
4307377328,00000130,false,Rx,0,8,0D,80,0F,7D,00,01,05,A1,
4307377573,00000140,false,Rx,0,8,FF,FF,01,6C,20,00,05,C9,
4307387199,00000500,false,Rx,0,1,0C,00,00,00,00,00,00,00,
12432722,000007D8,false,Tx,1,8,02,11,03,00,00,00,00,00,
4307387431,00000130,false,Rx,0,8,09,80,06,7D,00,01,06,F2,
4307387671,00000140,false,Rx,0,8,FF,FF,01,6C,20,00,06,EE,
4307387910,00000495,false,Rx,0,8,00,00,12,8A,21,69,2C,64,
4307397334,00000130,false,Rx,0,8,05,80,FB,7C,00,01,07,F2,
4307397568,00000140,false,Rx,0,8,FF,FF,01,6C,20,00,07,F3,
4307407319,00000130,false,Rx,0,8,0A,80,0B,7D,00,01,08,1B,
4307407564,00000140,false,Rx,0,8,FF,FF,01,6C,20,00,08,48,
4307417323,00000130,false,Rx,0,8,12,80,0C,7D,00,01,09,66,
4307417558,00000140,false,Rx,0,8,FF,FF,01,6C,20,00,09,55,
4307427318,00000130,false,Rx,0,8,0A,80,FD,7C,00,01,0A,4E,
4307427562,00000140,false,Rx,0,8,FF,FF,01,6C,20,00,0A,72,
4307437334,00000130,false,Rx,0,8,07,80,FA,7C,00,01,0B,BE,
4307437578,00000140,false,Rx,0,8,FF,FF,01,6C,20,00,0B,6F,
4307447329,00000130,false,Rx,0,8,0F,80,03,7D,00,01,0C,2C,
4307447573,00000140,false,Rx,0,8,FF,FF,01,6C,20,00,0C,3C,
4307457334,00000130,false,Rx,0,8,06,80,01,7D,00,01,0D,6A,
4307457568,00000140,false,Rx,0,8,FF,FF,01,6C,20,00,0D,21,
4307467349,00000130,false,Rx,0,8,08,80,F9,7C,00,01,0E,35,
4307467584,00000140,false,Rx,0,8,FF,FF,01,6C,20,00,0E,06,
4307477344,00000130,false,Rx,0,8,08,80,09,7D,00,01,0F,26,
4307477589,00000140,false,Rx,0,8,FF,FF,01,6C,20,00,0F,1B,
4307487204,00000500,false,Rx,0,1,0C,00,00,00,00,00,00,00,
4307487446,00000130,false,Rx,0,8,12,80,1C,7D,00,01,00,7D,
4307487470,000005A0,false,Rx,1,8,00,00,00,C0,20,78,93,0C,
4307487689,00000140,false,Rx,0,8,FF,FF,01,6C,20,00,00,A0,
4307487916,00000495,false,Rx,0,8,00,00,12,8A,21,69,2C,64,
12541767,000007D9,false,Tx,1,8,02,11,01,00,00,00,00,00,
4307497341,00000130,false,Rx,0,8,15,80,12,7D,00,01,01,F8,
4307497576,00000140,false,Rx,0,8,FF,FF,01,6C,20,00,01,BD,
4307507334,00000130,false,Rx,0,8,1B,80,FB,7C,00,01,02,23,
4307507570,00000140,false,Rx,0,8,FF,FF,01,6C,20,00,02,9A,
4307517329,00000130,false,Rx,0,8,18,80,FC,7C,00,01,03,D2,
4307517564,00000140,false,Rx,0,8,FF,FF,01,6C,20,00,03,87,
4307527333,00000130,false,Rx,0,8,14,80,01,7D,00,01,04,9C,
4307527569,00000140,false,Rx,0,8,FF,FF,01,6C,20,00,04,D4,
4307537338,00000130,false,Rx,0,8,10,80,0A,7D,00,01,05,21,
4307537584,00000140,false,Rx,0,8,FF,FF,01,6C,20,00,05,C9,
4307547344,00000130,false,Rx,0,8,0A,80,18,7D,00,01,06,ED,
4307547579,00000140,false,Rx,0,8,FF,FF,01,6C,20,00,06,EE,
4307557485,00000130,false,Rx,0,8,0D,80,1C,7D,00,01,07,CB,
4307557720,00000140,false,Rx,0,8,FF,FF,01,6C,20,00,07,F3,
4307567323,00000130,false,Rx,0,8,10,80,17,7D,00,01,08,E6,
4307567558,00000140,false,Rx,0,8,FF,FF,01,6C,20,00,08,48,
4307577328,00000130,false,Rx,0,8,0F,80,08,7D,00,01,09,8C,
4307577563,00000140,false,Rx,0,8,FF,FF,01,6C,20,00,09,55,
4307587198,00000500,false,Rx,0,1,0C,00,00,00,00,00,00,00,
4307587431,00000130,false,Rx,0,8,14,80,02,7D,00,01,0A,84,
4307587671,00000140,false,Rx,0,8,FF,FF,01,6C,20,00,0A,72,
4307587909,00000495,false,Rx,0,8,00,00,12,8A,21,69,2C,64,
4307597323,00000130,false,Rx,0,8,0B,80,07,7D,00,01,0B,A3,
4307597568,00000140,false,Rx,0,8,FF,FF,01,6C,20,00,0B,6F,
12650281,000007D9,false,Tx,1,8,02,11,02,00,00,00,00,00,
4307607329,00000130,false,Rx,0,8,0A,80,06,7D,00,01,0C,C7,
4307607563,00000140,false,Rx,0,8,FF,FF,01,6C,20,00,0C,3C,
4307617324,00000130,false,Rx,0,8,15,80,10,7D,00,01,0D,B0,
4307617558,00000140,false,Rx,0,8,FF,FF,01,6C,20,00,0D,21,
4307627317,00000130,false,Rx,0,8,15,80,17,7D,00,01,0E,9C,
4307627562,00000140,false,Rx,0,8,FF,FF,01,6C,20,00,0E,06,
4307637331,00000130,false,Rx,0,8,0E,80,09,7D,00,01,0F,F5,
4307637575,00000140,false,Rx,0,8,FF,FF,01,6C,20,00,0F,1B,
4307647334,00000130,false,Rx,0,8,09,80,0D,7D,00,01,00,75,
4307647579,00000140,false,Rx,0,8,FF,FF,01,6C,20,00,00,A0,
4307657329,00000130,false,Rx,0,8,07,80,07,7D,00,01,01,CA,
4307657574,00000140,false,Rx,0,8,FF,FF,01,6C,20,00,01,BD,
4307667344,00000130,false,Rx,0,8,07,80,00,7D,00,01,02,E6,
4307667579,00000140,false,Rx,0,8,FF,FF,01,6C,20,00,02,9A,
4307677329,00000130,false,Rx,0,8,0A,80,03,7D,00,01,03,A3,
4307677573,00000140,false,Rx,0,8,FF,FF,01,6C,20,00,03,87,
4307687198,00000500,false,Rx,0,1,0C,00,00,00,00,00,00,00,
4307687442,00000130,false,Rx,0,8,08,80,13,7D,00,01,04,A4,
4307687681,00000140,false,Rx,0,8,FF,FF,01,6C,20,00,04,D4,
4307687909,00000495,false,Rx,0,8,00,00,12,8A,21,69,2C,64,
4307697334,00000130,false,Rx,0,8,0C,80,0E,7D,00,01,05,96,
4307697568,00000140,false,Rx,0,8,FF,FF,01,6C,20,00,05,C9,
4307707329,00000130,false,Rx,0,8,15,80,11,7D,00,01,06,15,
4307707563,00000140,false,Rx,0,8,FF,FF,01,6C,20,00,06,EE,
12758687,000007D9,false,Tx,1,8,02,11,03,00,00,00,00,00,
4307717323,00000130,false,Rx,0,8,17,80,0C,7D,00,01,07,F4,
4307717568,00000140,false,Rx,0,8,FF,FF,01,6C,20,00,07,F3,
4307727329,00000130,false,Rx,0,8,11,80,FA,7C,00,01,08,F3,
4307727573,00000140,false,Rx,0,8,FF,FF,01,6C,20,00,08,48,
4307737333,00000130,false,Rx,0,8,03,80,F1,7C,00,01,09,24,
4307737567,00000140,false,Rx,0,8,FF,FF,01,6C,20,00,09,55,
4307747336,00000130,false,Rx,0,8,FC,7F,FB,7C,00,01,0A,5C,
4307747571,00000140,false,Rx,0,8,FF,FF,01,6C,20,00,0A,72,
4307757474,00000130,false,Rx,0,8,FC,7F,07,7D,00,01,0B,8D,
4307757720,00000140,false,Rx,0,8,FF,FF,01,6C,20,00,0B,6F,
4307767324,00000130,false,Rx,0,8,07,80,0D,7D,00,01,0C,E8,
4307767568,00000140,false,Rx,0,8,FF,FF,01,6C,20,00,0C,3C,
4307777329,00000130,false,Rx,0,8,09,80,08,7D,00,01,0D,2B,
4307777563,00000140,false,Rx,0,8,FF,FF,01,6C,20,00,0D,21,
4307787199,00000500,false,Rx,0,1,0C,00,00,00,00,00,00,00,
4307787441,00000130,false,Rx,0,8,07,80,F9,7C,00,01,0E,69,
4307787681,00000140,false,Rx,0,8,FF,FF,01,6C,20,00,0E,06,
4307787910,00000495,false,Rx,0,8,00,00,12,8A,21,69,2C,64,
4307797333,00000130,false,Rx,0,8,04,80,E6,7C,00,01,0F,01,
4307797568,00000140,false,Rx,0,8,FF,FF,01,6C,20,00,0F,1B,
4307807328,00000130,false,Rx,0,8,06,80,E6,7C,00,01,00,00,
4307807572,00000140,false,Rx,0,8,FF,FF,01,6C,20,00,00,A0,
4307817334,00000130,false,Rx,0,8,0F,80,05,7D,00,01,01,CC,
4307817579,00000140,false,Rx,0,8,FF,FF,01,6C,20,00,01,BD,
12866596,000007DA,false,Tx,1,8,02,11,01,00,00,00,00,00,
4307827329,00000130,false,Rx,0,8,0D,80,22,7D,00,01,02,9B,
4307827563,00000140,false,Rx,0,8,FF,FF,01,6C,20,00,02,9A,
4307837334,00000130,false,Rx,0,8,0A,80,21,7D,00,01,03,B6,
4307837579,00000140,false,Rx,0,8,FF,FF,01,6C,20,00,03,87,
4307847328,00000130,false,Rx,0,8,08,80,0F,7D,00,01,04,88,
4307847573,00000140,false,Rx,0,8,FF,FF,01,6C,20,00,04,D4,
4307857332,00000130,false,Rx,0,8,02,80,04,7D,00,01,05,34,
4307857566,00000140,false,Rx,0,8,FF,FF,01,6C,20,00,05,C9,
4307867346,00000130,false,Rx,0,8,F5,7F,00,7D,00,01,06,88,
4307867580,00000140,false,Rx,0,8,FF,FF,01,6C,20,00,06,EE,
4307877329,00000130,false,Rx,0,8,05,80,FB,7C,00,01,07,F2,
4307877573,00000140,false,Rx,0,8,FF,FF,01,6C,20,00,07,F3,
4307887199,00000500,false,Rx,0,1,0C,00,00,00,00,00,00,00,
4307887442,00000130,false,Rx,0,8,12,80,F8,7C,00,01,08,C0,
4307887682,00000140,false,Rx,0,8,FF,FF,01,6C,20,00,08,48,
4307887910,00000495,false,Rx,0,8,00,00,12,8A,21,69,2C,64,
4307897324,00000130,false,Rx,0,8,10,80,08,7D,00,01,09,69,
4307897569,00000140,false,Rx,0,8,FF,FF,01,6C,20,00,09,55,
4307907319,00000130,false,Rx,0,8,07,80,0D,7D,00,01,0A,A6,
4307907563,00000140,false,Rx,0,8,FF,FF,01,6C,20,00,0A,72,
4307917323,00000130,false,Rx,0,8,09,80,FA,7C,00,01,0B,BF,
4307917568,00000140,false,Rx,0,8,FF,FF,01,6C,20,00,0B,6F,
4307927329,00000130,false,Rx,0,8,16,80,F8,7C,00,01,0C,DD,
4307927563,00000140,false,Rx,0,8,FF,FF,01,6C,20,00,0C,3C,
12976612,000007DA,false,Tx,1,8,02,11,02,00,00,00,00,00,
4307937333,00000130,false,Rx,0,8,1A,80,FB,7C,00,01,0D,C5,
4307937567,00000140,false,Rx,0,8,FF,FF,01,6C,20,00,0D,21,
4307947339,00000130,false,Rx,0,8,0D,80,0D,7D,00,01,0E,BA,
4307947574,00000140,false,Rx,0,8,FF,FF,01,6C,20,00,0E,06,
4307957476,00000130,false,Rx,0,8,03,80,21,7D,00,01,0F,A5,
4307957713,00000140,false,Rx,0,8,FF,FF,01,6C,20,00,0F,1B,
4307967325,00000130,false,Rx,0,8,06,80,2F,7D,00,01,00,3C,
4307967570,00000140,false,Rx,0,8,FF,FF,01,6C,20,00,00,A0,
4307977349,00000130,false,Rx,0,8,09,80,30,7D,00,01,01,EF,
4307977584,00000140,false,Rx,0,8,FF,FF,01,6C,20,00,01,BD,
4307987189,00000500,false,Rx,0,1,0C,00,00,00,00,00,00,00,
4307987431,00000130,false,Rx,0,8,0C,80,16,7D,00,01,02,5C,
4307987672,00000140,false,Rx,0,8,FF,FF,01,6C,20,00,02,9A,
4307987910,00000495,false,Rx,0,8,00,00,12,8A,21,69,2C,64,
4307997333,00000130,false,Rx,0,8,07,80,02,7D,00,01,03,2F,
4307997579,00000140,false,Rx,0,8,FF,FF,01,6C,20,00,03,87,
4308007318,00000130,false,Rx,0,8,FE,7F,09,7D,00,01,04,9A,
4308007563,00000140,false,Rx,0,8,FF,FF,01,6C,20,00,04,D4,
4308017323,00000130,false,Rx,0,8,FF,7F,0B,7D,00,01,05,0E,
4308017558,00000140,false,Rx,0,8,FF,FF,01,6C,20,00,05,C9,
4308027317,00000130,false,Rx,0,8,03,80,01,7D,00,01,06,91,
4308027552,00000140,false,Rx,0,8,FF,FF,01,6C,20,00,06,EE,
4308037331,00000130,false,Rx,0,8,0A,80,00,7D,00,01,07,69,
4308037577,00000140,false,Rx,0,8,FF,FF,01,6C,20,00,07,F3,
13088650,000007DA,false,Tx,1,8,02,11,03,00,00,00,00,00,
4308047324,00000130,false,Rx,0,8,0B,80,0B,7D,00,01,08,46,
4308047570,00000140,false,Rx,0,8,FF,FF,01,6C,20,00,08,48,
4308057318,00000130,false,Rx,0,8,03,80,07,7D,00,01,09,4B,
4308057563,00000140,false,Rx,0,8,FF,FF,01,6C,20,00,09,55,
4308067343,00000130,false,Rx,0,8,03,80,08,7D,00,01,0A,10,
4308067578,00000140,false,Rx,0,8,FF,FF,01,6C,20,00,0A,72,
4308077327,00000130,false,Rx,0,8,0B,80,08,7D,00,01,0B,DF,
4308077573,00000140,false,Rx,0,8,FF,FF,01,6C,20,00,0B,6F,
4308087196,00000500,false,Rx,0,1,0C,00,00,00,00,00,00,00,
4308087439,00000130,false,Rx,0,8,13,80,08,7D,00,01,0C,E7,
4308087679,00000140,false,Rx,0,8,FF,FF,01,6C,20,00,0C,3C,
4308087917,00000495,false,Rx,0,8,00,00,12,8A,21,69,2C,64,
4308097330,00000130,false,Rx,0,8,0C,80,06,7D,00,01,0D,09,
4308097575,00000140,false,Rx,0,8,FF,FF,01,6C,20,00,0D,21,
4308107325,00000130,false,Rx,0,8,02,80,00,7D,00,01,0E,4E,
4308107570,00000140,false,Rx,0,8,FF,FF,01,6C,20,00,0E,06,
4308117330,00000130,false,Rx,0,8,0E,80,F9,7C,00,01,0F,FB,
4308117564,00000140,false,Rx,0,8,FF,FF,01,6C,20,00,0F,1B,
4308127335,00000130,false,Rx,0,8,10,80,0C,7D,00,01,00,29,
4308127580,00000140,false,Rx,0,8,FF,FF,01,6C,20,00,00,A0,
4308137340,00000130,false,Rx,0,8,09,80,2D,7D,00,01,01,A9,
4308137574,00000140,false,Rx,0,8,FF,FF,01,6C,20,00,01,BD,
4308147335,00000130,false,Rx,0,8,13,80,25,7D,00,01,02,28,
4308147579,00000140,false,Rx,0,8,FF,FF,01,6C,20,00,02,9A,
13199144,000007DB,false,Tx,1,8,02,11,01,00,00,00,00,00,
4308157481,00000130,false,Rx,0,8,13,80,12,7D,00,01,03,11,
4308157727,00000140,false,Rx,0,8,FF,FF,01,6C,20,00,03,87,
4308167330,00000130,false,Rx,0,8,0B,80,06,7D,00,01,04,72,
4308167564,00000140,false,Rx,0,8,FF,FF,01,6C,20,00,04,D4,
4308177324,00000130,false,Rx,0,8,0C,80,FD,7C,00,01,05,26,
4308177568,00000140,false,Rx,0,8,FF,FF,01,6C,20,00,05,C9,
4308187195,00000500,false,Rx,0,1,0C,00,00,00,00,00,00,00,
4308187437,00000130,false,Rx,0,8,14,80,0B,7D,00,01,06,05,
4308187676,00000140,false,Rx,0,8,FF,FF,01,6C,20,00,06,EE,
4308187904,00000495,false,Rx,0,8,00,00,12,8A,21,69,2C,64,
4308197330,00000130,false,Rx,0,8,19,80,06,7D,00,01,07,56,
4308197564,00000140,false,Rx,0,8,FF,FF,01,6C,20,00,07,F3,
4308207324,00000130,false,Rx,0,8,0E,80,F3,7C,00,01,08,0B,
4308207558,00000140,false,Rx,0,8,FF,FF,01,6C,20,00,08,48,
4308217318,00000130,false,Rx,0,8,04,80,F5,7C,00,01,09,1F,
4308217552,00000140,false,Rx,0,8,FF,FF,01,6C,20,00,09,55,
4308227323,00000130,false,Rx,0,8,03,80,1A,7D,00,01,0A,2A,
4308227557,00000140,false,Rx,0,8,FF,FF,01,6C,20,00,0A,72,
4308237326,00000130,false,Rx,0,8,04,80,29,7D,00,01,0B,28,
4308237571,00000140,false,Rx,0,8,FF,FF,01,6C,20,00,0B,6F,
4308247330,00000130,false,Rx,0,8,04,80,0A,7D,00,01,0C,04,
4308247564,00000140,false,Rx,0,8,FF,FF,01,6C,20,00,0C,3C,
4308257324,00000130,false,Rx,0,8,02,80,00,7D,00,01,0D,69,
4308257558,00000140,false,Rx,0,8,FF,FF,01,6C,20,00,0D,21,
13309579,000007DB,false,Tx,1,8,02,11,02,00,00,00,00,00,
4308267349,00000130,false,Rx,0,8,0B,80,05,7D,00,01,0E,1E,
4308267584,00000140,false,Rx,0,8,FF,FF,01,6C,20,00,0E,06,
4308277324,00000130,false,Rx,0,8,0D,80,07,7D,00,01,0F,04,
4308277568,00000140,false,Rx,0,8,FF,FF,01,6C,20,00,0F,1B,
4308287194,00000500,false,Rx,0,1,0C,00,00,00,00,00,00,00,
4308287436,00000130,false,Rx,0,8,0A,80,FB,7C,00,01,00,FD,
4308287676,00000140,false,Rx,0,8,FF,FF,01,6C,20,00,00,A0,
4308287915,00000495,false,Rx,0,8,00,00,12,8A,21,69,2C,64,
4308297329,00000130,false,Rx,0,8,10,80,16,7D,00,01,01,79,
4308297573,00000140,false,Rx,0,8,FF,FF,01,6C,20,00,01,BD,
4308307323,00000130,false,Rx,0,8,12,80,39,7D,00,01,02,59,
4308307557,00000140,false,Rx,0,8,FF,FF,01,6C,20,00,02,9A,
4308317316,00000130,false,Rx,0,8,0E,80,28,7D,00,01,03,C2,
4308317561,00000140,false,Rx,0,8,FF,FF,01,6C,20,00,03,87,
4308327320,00000130,false,Rx,0,8,15,80,08,7D,00,01,04,DC,
4308327554,00000140,false,Rx,0,8,FF,FF,01,6C,20,00,04,D4,
4308337335,00000130,false,Rx,0,8,16,80,FC,7C,00,01,05,9D,
4308337569,00000140,false,Rx,0,8,FF,FF,01,6C,20,00,05,C9,
4308347340,00000130,false,Rx,0,8,0B,80,14,7D,00,01,06,72,
4308347574,00000140,false,Rx,0,8,FF,FF,01,6C,20,00,06,EE,
4308357479,00000130,false,Rx,0,8,0B,80,27,7D,00,01,07,FE,
4308357716,00000140,false,Rx,0,8,FF,FF,01,6C,20,00,07,F3,
4308367318,00000130,false,Rx,0,8,0B,80,27,7D,00,01,08,45,
4308367552,00000140,false,Rx,0,8,FF,FF,01,6C,20,00,08,48,
13418253,000007DB,false,Tx,1,8,02,11,03,00,00,00,00,00,
4308377323,00000130,false,Rx,0,8,06,80,1E,7D,00,01,09,8C,
4308377568,00000140,false,Rx,0,8,FF,FF,01,6C,20,00,09,55,
4308387194,00000500,false,Rx,0,1,0C,00,00,00,00,00,00,00,
4308387436,00000130,false,Rx,0,8,0F,80,0D,7D,00,01,0A,74,
4308387666,00000140,false,Rx,0,8,FF,FF,01,6C,20,00,0A,72,
4308387905,00000495,false,Rx,0,8,00,00,12,8A,21,69,2C,64,
4308397328,00000130,false,Rx,0,8,19,80,16,7D,00,01,0B,24,
4308397572,00000140,false,Rx,0,8,FF,FF,01,6C,20,00,0B,6F,
4308407323,00000130,false,Rx,0,8,10,80,14,7D,00,01,0C,2C,
4308407568,00000140,false,Rx,0,8,FF,FF,01,6C,20,00,0C,3C,
4308417329,00000130,false,Rx,0,8,06,80,20,7D,00,01,0D,C1,
4308417563,00000140,false,Rx,0,8,FF,FF,01,6C,20,00,0D,21,
4308427323,00000130,false,Rx,0,8,FE,7F,1C,7D,00,01,0E,79,
4308427558,00000140,false,Rx,0,8,FF,FF,01,6C,20,00,0E,06,
4308437336,00000130,false,Rx,0,8,FF,7F,16,7D,00,01,0F,9A,
4308437572,00000140,false,Rx,0,8,FF,FF,01,6C,20,00,0F,1B,
4308447329,00000130,false,Rx,0,8,FE,7F,10,7D,00,01,00,1D,
4308447575,00000140,false,Rx,0,8,FF,FF,01,6C,20,00,00,A0,
4308457335,00000130,false,Rx,0,8,06,80,14,7D,00,01,01,C7,
4308457570,00000140,false,Rx,0,8,FF,FF,01,6C,20,00,01,BD,
4308467339,00000130,false,Rx,0,8,10,80,0D,7D,00,01,02,79,
4308467585,00000140,false,Rx,0,8,FF,FF,01,6C,20,00,02,9A,
4308477354,00000130,false,Rx,0,8,18,80,05,7D,00,01,03,C1,
4308477590,00000140,false,Rx,0,8,FF,FF,01,6C,20,00,03,87,
13527907,000007DC,false,Tx,1,8,02,11,01,00,00,00,00,00,
4308487193,00000500,false,Rx,0,1,0C,00,00,00,00,00,00,00,
4308487436,00000130,false,Rx,0,8,10,80,07,7D,00,01,04,94,
4308487471,000005A0,false,Rx,1,8,00,00,00,C0,20,82,93,0C,
4308487678,00000140,false,Rx,0,8,FF,FF,01,6C,20,00,04,D4,
4308487906,00000495,false,Rx,0,8,00,00,12,8A,21,69,2C,64,
4308497331,00000130,false,Rx,0,8,00,80,10,7D,00,01,05,D5,
4308497566,00000140,false,Rx,0,8,FF,FF,01,6C,20,00,05,C9,
4308507324,00000130,false,Rx,0,8,00,80,10,7D,00,01,06,F2,
4308507559,00000140,false,Rx,0,8,FF,FF,01,6C,20,00,06,EE,
4308517318,00000130,false,Rx,0,8,05,80,12,7D,00,01,07,0F,
4308517563,00000140,false,Rx,0,8,FF,FF,01,6C,20,00,07,F3,
4308527323,00000130,false,Rx,0,8,0F,80,1F,7D,00,01,08,74,
4308527558,00000140,false,Rx,0,8,FF,FF,01,6C,20,00,08,48,
4308537337,00000130,false,Rx,0,8,0E,80,21,7D,00,01,09,0D,
4308537572,00000140,false,Rx,0,8,FF,FF,01,6C,20,00,09,55,
4308547340,00000130,false,Rx,0,8,01,80,0C,7D,00,01,0A,1F,
4308547575,00000140,false,Rx,0,8,FF,FF,01,6C,20,00,0A,72,
4308557470,00000130,false,Rx,0,8,04,80,0D,7D,00,01,0B,5C,
4308557715,00000140,false,Rx,0,8,FF,FF,01,6C,20,00,0B,6F,
4308567318,00000130,false,Rx,0,8,04,80,19,7D,00,01,0C,54,
4308567553,00000140,false,Rx,0,8,FF,FF,01,6C,20,00,0C,3C,
4308577324,00000130,false,Rx,0,8,0A,80,14,7D,00,01,0D,E0,
4308577558,00000140,false,Rx,0,8,FF,FF,01,6C,20,00,0D,21,
4308587192,00000500,false,Rx,0,1,0C,00,00,00,00,00,00,00,
13633594,000007DC,false,Tx,1,8,02,11,02,00,00,00,00,00,
4308587425,00000130,false,Rx,0,8,07,80,09,7D,00,01,0E,67,
4308587665,00000140,false,Rx,0,8,FF,FF,01,6C,20,00,0E,06,
4308587903,00000495,false,Rx,0,8,00,00,12,8A,21,69,2C,64,
4308597330,00000130,false,Rx,0,8,06,80,03,7D,00,01,0F,84,
4308597564,00000140,false,Rx,0,8,FF,FF,01,6C,20,00,0F,1B,
4308607324,00000130,false,Rx,0,8,0B,80,02,7D,00,01,00,B3,
4308607568,00000140,false,Rx,0,8,FF,FF,01,6C,20,00,00,A0,
4308617319,00000130,false,Rx,0,8,0D,80,F1,7C,00,01,01,CD,
4308617553,00000140,false,Rx,0,8,FF,FF,01,6C,20,00,01,BD,
4308627313,00000130,false,Rx,0,8,13,80,E1,7C,00,01,02,BC,
4308627558,00000140,false,Rx,0,8,FF,FF,01,6C,20,00,02,9A,
4308637330,00000130,false,Rx,0,8,14,80,EA,7C,00,01,03,E6,
4308637574,00000140,false,Rx,0,8,FF,FF,01,6C,20,00,03,87,
4308647324,00000130,false,Rx,0,8,1F,80,F0,7C,00,01,04,CD,
4308647568,00000140,false,Rx,0,8,FF,FF,01,6C,20,00,04,D4,
4308657319,00000130,false,Rx,0,8,18,80,04,7D,00,01,05,E5,
4308657564,00000140,false,Rx,0,8,FF,FF,01,6C,20,00,05,C9,
4308667345,00000130,false,Rx,0,8,0D,80,10,7D,00,01,06,14,
4308667579,00000140,false,Rx,0,8,FF,FF,01,6C,20,00,06,EE,
4308677330,00000130,false,Rx,0,8,10,80,0E,7D,00,01,07,AE,
4308677564,00000140,false,Rx,0,8,FF,FF,01,6C,20,00,07,F3,
4308687200,00000500,false,Rx,0,1,0C,00,00,00,00,00,00,00,
4308687442,00000130,false,Rx,0,8,12,80,18,7D,00,01,08,20,
4308687681,00000140,false,Rx,0,8,FF,FF,01,6C,20,00,08,48,
4308687910,00000495,false,Rx,0,8,00,00,12,8A,21,69,2C,64,
4308697334,00000130,false,Rx,0,8,0F,80,12,7D,00,01,09,C1,
13744539,000007DC,false,Tx,1,8,02,11,03,00,00,00,00,00,
4308697568,00000140,false,Rx,0,8,FF,FF,01,6C,20,00,09,55,
4308707318,00000130,false,Rx,0,8,0A,80,FB,7C,00,01,0A,2F,
4308707562,00000140,false,Rx,0,8,FF,FF,01,6C,20,00,0A,72,
4308717322,00000130,false,Rx,0,8,FF,7F,02,7D,00,01,0B,B5,
4308717567,00000140,false,Rx,0,8,FF,FF,01,6C,20,00,0B,6F,
4308727326,00000130,false,Rx,0,8,F4,7F,FC,7C,00,01,0C,CB,
4308727560,00000140,false,Rx,0,8,FF,FF,01,6C,20,00,0C,3C,
4308737330,00000130,false,Rx,0,8,F2,7F,F5,7C,00,01,0D,18,
4308737574,00000140,false,Rx,0,8,FF,FF,01,6C,20,00,0D,21,
4308747335,00000130,false,Rx,0,8,FA,7F,FB,7C,00,01,0E,FB,
4308747579,00000140,false,Rx,0,8,FF,FF,01,6C,20,00,0E,06,
4308757475,00000130,false,Rx,0,8,04,80,0E,7D,00,01,0F,96,
4308757720,00000140,false,Rx,0,8,FF,FF,01,6C,20,00,0F,1B,
4308767324,00000130,false,Rx,0,8,0A,80,0B,7D,00,01,00,F3,
4308767568,00000140,false,Rx,0,8,FF,FF,01,6C,20,00,00,A0,
4308777328,00000130,false,Rx,0,8,0D,80,12,7D,00,01,01,93,
4308777562,00000140,false,Rx,0,8,FF,FF,01,6C,20,00,01,BD,
4308787187,00000500,false,Rx,0,1,0C,00,00,00,00,00,00,00,
4308787429,00000130,false,Rx,0,8,0F,80,17,7D,00,01,02,D1,
4308787669,00000140,false,Rx,0,8,FF,FF,01,6C,20,00,02,9A,
4308787908,00000495,false,Rx,0,8,00,00,12,8A,21,69,2C,64,
4308797320,00000130,false,Rx,0,8,09,80,16,7D,00,01,03,75,
4308797564,00000140,false,Rx,0,8,FF,FF,01,6C,20,00,03,87,
4308807324,00000130,false,Rx,0,8,08,80,19,7D,00,01,04,07,
4308807569,00000140,false,Rx,0,8,FF,FF,01,6C,20,00,04,D4,
13856245,000007DD,false,Tx,1,8,02,11,01,00,00,00,00,00,
4308817318,00000130,false,Rx,0,8,0F,80,0E,7D,00,01,05,71,
4308817562,00000140,false,Rx,0,8,FF,FF,01,6C,20,00,05,C9,
4308827322,00000130,false,Rx,0,8,12,80,07,7D,00,01,06,14,
4308827556,00000140,false,Rx,0,8,FF,FF,01,6C,20,00,06,EE,
4308837335,00000130,false,Rx,0,8,07,80,0E,7D,00,01,07,99,
4308837569,00000140,false,Rx,0,8,FF,FF,01,6C,20,00,07,F3,
4308847318,00000130,false,Rx,0,8,FA,7F,10,7D,00,01,08,9C,
4308847563,00000140,false,Rx,0,8,FF,FF,01,6C,20,00,08,48,
4308857313,00000130,false,Rx,0,8,F8,7F,0F,7D,00,01,09,A9,
4308857558,00000140,false,Rx,0,8,FF,FF,01,6C,20,00,09,55,
4308867339,00000130,false,Rx,0,8,FD,7F,0A,7D,00,01,0A,65,
4308867573,00000140,false,Rx,0,8,FF,FF,01,6C,20,00,0A,72,
4308877323,00000130,false,Rx,0,8,03,80,FF,7C,00,01,0B,08,
4308877557,00000140,false,Rx,0,8,FF,FF,01,6C,20,00,0B,6F,
4308887194,00000500,false,Rx,0,1,0C,00,00,00,00,00,00,00,
4308887426,00000130,false,Rx,0,8,0D,80,F9,7C,00,01,0C,3B,
4308887677,00000140,false,Rx,0,8,FF,FF,01,6C,20,00,0C,3C,
4308887905,00000495,false,Rx,0,8,00,00,12,8A,21,69,2C,64,
4308897328,00000130,false,Rx,0,8,0A,80,03,7D,00,01,0D,05,
4308897562,00000140,false,Rx,0,8,FF,FF,01,6C,20,00,0D,21,
4308907314,00000130,false,Rx,0,8,11,80,1E,7D,00,01,0E,E8,
4308907559,00000140,false,Rx,0,8,FF,FF,01,6C,20,00,0E,06,
4308917318,00000130,false,Rx,0,8,0F,80,24,7D,00,01,0F,C1,
4308917553,00000140,false,Rx,0,8,FF,FF,01,6C,20,00,0F,1B,
4308927310,00000130,false,Rx,0,8,0C,80,14,7D,00,01,00,B2,
4308927556,00000140,false,Rx,0,8,FF,FF,01,6C,20,00,00,A0,
4308937324,00000130,false,Rx,0,8,09,80,0D,7D,00,01,01,68,
4308937570,00000140,false,Rx,0,8,FF,FF,01,6C,20,00,01,BD,
4308947339,00000130,false,Rx,0,8,00,80,05,7D,00,01,02,B7,
13993718,000007DD,false,Tx,1,8,02,11,02,00,00,00,00,00,
4308947575,00000140,false,Rx,0,8,FF,FF,01,6C,20,00,02,9A,
4308957468,00000130,false,Rx,0,8,F9,7F,0C,7D,00,01,03,98,
4308957705,00000140,false,Rx,0,8,FF,FF,01,6C,20,00,03,87,
4308967318,00000130,false,Rx,0,8,FD,7F,0E,7D,00,01,04,76,
4308967553,00000140,false,Rx,0,8,FF,FF,01,6C,20,00,04,D4,
4308977344,00000130,false,Rx,0,8,09,80,12,7D,00,01,05,8E,
4308977579,00000140,false,Rx,0,8,FF,FF,01,6C,20,00,05,C9,
4308987194,00000500,false,Rx,0,1,0C,00,00,00,00,00,00,00,
4308987437,00000130,false,Rx,0,8,0C,80,0D,7D,00,01,06,0F,
4308987677,00000140,false,Rx,0,8,FF,FF,01,6C,20,00,06,EE,
4308987904,00000495,false,Rx,0,8,00,00,12,8A,21,69,2C,64,
4308997329,00000130,false,Rx,0,8,05,80,13,7D,00,01,07,65,
4308997564,00000140,false,Rx,0,8,FF,FF,01,6C,20,00,07,F3,
4309007324,00000130,false,Rx,0,8,01,80,13,7D,00,01,08,B7,
4309007559,00000140,false,Rx,0,8,FF,FF,01,6C,20,00,08,48,
4309017318,00000130,false,Rx,0,8,07,80,14,7D,00,01,09,72,
4309017554,00000140,false,Rx,0,8,FF,FF,01,6C,20,00,09,55,
4309027324,00000130,false,Rx,0,8,12,80,17,7D,00,01,0A,66,
4309027559,00000140,false,Rx,0,8,FF,FF,01,6C,20,00,0A,72,
4309037339,00000130,false,Rx,0,8,13,80,0C,7D,00,01,0B,01,
4309037574,00000140,false,Rx,0,8,FF,FF,01,6C,20,00,0B,6F,
4309047325,00000130,false,Rx,0,8,06,80,FE,7C,00,01,0C,05,
4309047570,00000140,false,Rx,0,8,FF,FF,01,6C,20,00,0C,3C,
4309057320,00000130,false,Rx,0,8,02,80,FD,7C,00,01,0D,CF,
4309057564,00000140,false,Rx,0,8,FF,FF,01,6C,20,00,0D,21,
14105980,000007DD,false,Tx,1,8,02,11,03,00,00,00,00,00,
4309067335,00000130,false,Rx,0,8,00,80,06,7D,00,01,0E,95,
4309067579,00000140,false,Rx,0,8,FF,FF,01,6C,20,00,0E,06,
4309077330,00000130,false,Rx,0,8,FA,7F,16,7D,00,01,0F,AE,
4309077564,00000140,false,Rx,0,8,FF,FF,01,6C,20,00,0F,1B,
4309087189,00000500,false,Rx,0,1,0C,00,00,00,00,00,00,00,
4309087443,00000130,false,Rx,0,8,01,80,17,7D,00,01,00,EA,
4309087682,00000140,false,Rx,0,8,FF,FF,01,6C,20,00,00,A0,
4309087920,00000495,false,Rx,0,8,00,00,12,8A,21,69,2C,64,
4309097324,00000130,false,Rx,0,8,00,80,19,7D,00,01,01,BC,
4309097569,00000140,false,Rx,0,8,FF,FF,01,6C,20,00,01,BD,
4309107320,00000130,false,Rx,0,8,FB,7F,15,7D,00,01,02,CC,
4309107554,00000140,false,Rx,0,8,FF,FF,01,6C,20,00,02,9A,
4309117313,00000130,false,Rx,0,8,FB,7F,16,7D,00,01,03,6F,
4309117558,00000140,false,Rx,0,8,FF,FF,01,6C,20,00,03,87,
4309127319,00000130,false,Rx,0,8,06,80,09,7D,00,01,04,E8,
4309127553,00000140,false,Rx,0,8,FF,FF,01,6C,20,00,04,D4,
4309137323,00000130,false,Rx,0,8,FF,7F,11,7D,00,01,05,43,
4309137568,00000140,false,Rx,0,8,FF,FF,01,6C,20,00,05,C9,
4309147339,00000130,false,Rx,0,8,FE,7F,20,7D,00,01,06,7C,
4309147573,00000140,false,Rx,0,8,FF,FF,01,6C,20,00,06,EE,
4309157469,00000130,false,Rx,0,8,10,80,28,7D,00,01,07,0E,
4309157714,00000140,false,Rx,0,8,FF,FF,01,6C,20,00,07,F3,
4309167318,00000130,false,Rx,0,8,1C,80,28,7D,00,01,08,0E,
4309167552,00000140,false,Rx,0,8,FF,FF,01,6C,20,00,08,48,
4309177313,00000130,false,Rx,0,8,17,80,1A,7D,00,01,09,DD,
4309177558,00000140,false,Rx,0,8,FF,FF,01,6C,20,00,09,55,
4309187185,00000500,false,Rx,0,1,0C,00,00,00,00,00,00,00,
4309187427,00000130,false,Rx,0,8,0A,80,26,7D,00,01,0A,48,
4309187666,00000140,false,Rx,0,8,FF,FF,01,6C,20,00,0A,72,
4309187895,00000495,false,Rx,0,8,00,00,12,8A,21,69,2C,64,
4309197321,00000130,false,Rx,0,8,0C,80,1D,7D,00,01,0B,60,
14243599,000007DE,false,Tx,1,8,02,11,01,00,00,00,00,00,
4309197565,00000140,false,Rx,0,8,FF,FF,01,6C,20,00,0B,6F,
4309207314,00000130,false,Rx,0,8,12,80,18,7D,00,01,0C,54,
4309207559,00000140,false,Rx,0,8,FF,FF,01,6C,20,00,0C,3C,
4309217308,00000130,false,Rx,0,8,0B,80,0A,7D,00,01,0D,45,
4309217553,00000140,false,Rx,0,8,FF,FF,01,6C,20,00,0D,21,
4309227313,00000130,false,Rx,0,8,06,80,00,7D,00,01,0E,27,
4309227557,00000140,false,Rx,0,8,FF,FF,01,6C,20,00,0E,06,
4309237327,00000130,false,Rx,0,8,09,80,0A,7D,00,01,0F,C5,
4309237571,00000140,false,Rx,0,8,FF,FF,01,6C,20,00,0F,1B,
4309247320,00000130,false,Rx,0,8,11,80,16,7D,00,01,00,39,
4309247565,00000140,false,Rx,0,8,FF,FF,01,6C,20,00,00,A0,
4309257324,00000130,false,Rx,0,8,1C,80,28,7D,00,01,01,FB,
4309257558,00000140,false,Rx,0,8,FF,FF,01,6C,20,00,01,BD,
4309267339,00000130,false,Rx,0,8,1E,80,1D,7D,00,01,02,96,
4309267584,00000140,false,Rx,0,8,FF,FF,01,6C,20,00,02,9A,
4309277324,00000130,false,Rx,0,8,09,80,11,7D,00,01,03,7E,
4309277568,00000140,false,Rx,0,8,FF,FF,01,6C,20,00,03,87,
4309287194,00000500,false,Rx,0,1,0C,00,00,00,00,00,00,00,
4309287436,00000130,false,Rx,0,8,0A,80,05,7D,00,01,04,91,
4309287676,00000140,false,Rx,0,8,FF,FF,01,6C,20,00,04,D4,
4309287905,00000495,false,Rx,0,8,00,00,12,8A,21,69,2C,64,
4309297328,00000130,false,Rx,0,8,0E,80,09,7D,00,01,05,27,
4309297562,00000140,false,Rx,0,8,FF,FF,01,6C,20,00,05,C9,
4309307323,00000130,false,Rx,0,8,FF,7F,1F,7D,00,01,06,72,
14352839,000007DE,false,Tx,1,8,02,11,02,00,00,00,00,00,
4309307557,00000140,false,Rx,0,8,FF,FF,01,6C,20,00,06,EE,
4309317319,00000130,false,Rx,0,8,F5,7F,1A,7D,00,01,07,D8,
4309317563,00000140,false,Rx,0,8,FF,FF,01,6C,20,00,07,F3,
4309327323,00000130,false,Rx,0,8,FE,7F,0D,7D,00,01,08,B3,
4309327557,00000140,false,Rx,0,8,FF,FF,01,6C,20,00,08,48,
4309337339,00000130,false,Rx,0,8,04,80,0F,7D,00,01,09,B2,
4309337573,00000140,false,Rx,0,8,FF,FF,01,6C,20,00,09,55,
4309347334,00000130,false,Rx,0,8,03,80,21,7D,00,01,0A,CC,
4309347578,00000140,false,Rx,0,8,FF,FF,01,6C,20,00,0A,72,
4309357475,00000130,false,Rx,0,8,FF,7F,22,7D,00,01,0B,74,
4309357712,00000140,false,Rx,0,8,FF,FF,01,6C,20,00,0B,6F,
4309367314,00000130,false,Rx,0,8,0A,80,0F,7D,00,01,0C,DA,
4309367558,00000140,false,Rx,0,8,FF,FF,01,6C,20,00,0C,3C,
4309377318,00000130,false,Rx,0,8,0A,80,09,7D,00,01,0D,A6,
4309377563,00000140,false,Rx,0,8,FF,FF,01,6C,20,00,0D,21,
4309387189,00000500,false,Rx,0,1,0C,00,00,00,00,00,00,00,
4309387431,00000130,false,Rx,0,8,03,80,04,7D,00,01,0E,A6,
4309387671,00000140,false,Rx,0,8,FF,FF,01,6C,20,00,0E,06,
4309387899,00000495,false,Rx,0,8,00,00,12,8A,21,69,2C,64,
4309397323,00000130,false,Rx,0,8,00,80,FF,7C,00,01,0F,9B,
4309397558,00000140,false,Rx,0,8,FF,FF,01,6C,20,00,0F,1B,
4309407319,00000130,false,Rx,0,8,0C,80,F7,7C,00,01,00,EC,
4309407564,00000140,false,Rx,0,8,FF,FF,01,6C,20,00,00,A0,
4309417313,00000130,false,Rx,0,8,10,80,EC,7C,00,01,01,D4,
4309417559,00000140,false,Rx,0,8,FF,FF,01,6C,20,00,01,BD,
4309427308,00000130,false,Rx,0,8,0A,80,ED,7C,00,01,02,48,
4309427554,00000140,false,Rx,0,8,FF,FF,01,6C,20,00,02,9A,
4309437323,00000130,false,Rx,0,8,09,80,06,7D,00,01,03,9B,
4309437569,00000140,false,Rx,0,8,FF,FF,01,6C,20,00,03,87,
14486532,000007DE,false,Tx,1,8,02,11,03,00,00,00,00,00,
4309447318,00000130,false,Rx,0,8,07,80,23,7D,00,01,04,D7,
4309447563,00000140,false,Rx,0,8,FF,FF,01,6C,20,00,04,D4,
4309457313,00000130,false,Rx,0,8,0A,80,22,7D,00,01,05,46,
4309457558,00000140,false,Rx,0,8,FF,FF,01,6C,20,00,05,C9,
4309467337,00000130,false,Rx,0,8,0D,80,15,7D,00,01,06,CB,
4309467572,00000140,false,Rx,0,8,FF,FF,01,6C,20,00,06,EE,
4309477351,00000130,false,Rx,0,8,04,80,0B,7D,00,01,07,A1,
4309477586,00000140,false,Rx,0,8,FF,FF,01,6C,20,00,07,F3,
4309487190,00000500,false,Rx,0,1,0C,00,00,00,00,00,00,00,
4309487423,00000130,false,Rx,0,8,FB,7F,FB,7C,00,01,08,E8,
4309487467,000005A0,false,Rx,1,8,00,00,00,C0,20,73,94,0C,
4309487664,00000140,false,Rx,0,8,FF,FF,01,6C,20,00,08,48,
4309487902,00000495,false,Rx,0,8,00,00,12,8A,21,69,2C,64,
4309497328,00000130,false,Rx,0,8,FB,7F,F0,7C,00,01,09,3C,
4309497563,00000140,false,Rx,0,8,FF,FF,01,6C,20,00,09,55,
4309507312,00000130,false,Rx,0,8,06,80,FC,7C,00,01,0A,9F,
4309507548,00000140,false,Rx,0,8,FF,FF,01,6C,20,00,0A,72,
4309517316,00000130,false,Rx,0,8,0F,80,04,7D,00,01,0B,74,
4309517551,00000140,false,Rx,0,8,FF,FF,01,6C,20,00,0B,6F,
4309527310,00000130,false,Rx,0,8,0B,80,05,7D,00,01,0C,24,
4309527555,00000140,false,Rx,0,8,FF,FF,01,6C,20,00,0C,3C,
4309537325,00000130,false,Rx,0,8,0A,80,0A,7D,00,01,0D,18,
4309537570,00000140,false,Rx,0,8,FF,FF,01,6C,20,00,0D,21,
14587250,000007DF,false,Tx,1,8,02,11,01,00,00,00,00,00,
4309547329,00000130,false,Rx,0,8,05,80,14,7D,00,01,0E,9B,
4309547563,00000140,false,Rx,0,8,FF,FF,01,6C,20,00,0E,06,
4309557469,00000130,false,Rx,0,8,FF,7F,0B,7D,00,01,0F,DC,
4309557704,00000140,false,Rx,0,8,FF,FF,01,6C,20,00,0F,1B,
4309567318,00000130,false,Rx,0,8,07,80,05,7D,00,01,00,03,
4309567563,00000140,false,Rx,0,8,FF,FF,01,6C,20,00,00,A0,
4309577322,00000130,false,Rx,0,8,08,80,1D,7D,00,01,01,DB,
4309577566,00000140,false,Rx,0,8,FF,FF,01,6C,20,00,01,BD,
4309587190,00000500,false,Rx,0,1,0C,00,00,00,00,00,00,00,
4309587433,00000130,false,Rx,0,8,FF,7F,13,7D,00,01,02,C4,
4309587672,00000140,false,Rx,0,8,FF,FF,01,6C,20,00,02,9A,
4309587901,00000495,false,Rx,0,8,00,00,12,8A,21,69,2C,64,
4309597325,00000130,false,Rx,0,8,FD,7F,FC,7C,00,01,03,FF,
4309597570,00000140,false,Rx,0,8,FF,FF,01,6C,20,00,03,87,
4309607320,00000130,false,Rx,0,8,0D,80,19,7D,00,01,04,33,
4309607564,00000140,false,Rx,0,8,FF,FF,01,6C,20,00,04,D4,
4309617324,00000130,false,Rx,0,8,10,80,32,7D,00,01,05,79,
4309617559,00000140,false,Rx,0,8,FF,FF,01,6C,20,00,05,C9,
4309627320,00000130,false,Rx,0,8,0D,80,27,7D,00,01,06,30,
4309627564,00000140,false,Rx,0,8,FF,FF,01,6C,20,00,06,EE,
4309637334,00000130,false,Rx,0,8,0A,80,12,7D,00,01,07,53,
4309637568,00000140,false,Rx,0,8,FF,FF,01,6C,20,00,07,F3,
4309647318,00000130,false,Rx,0,8,08,80,05,7D,00,01,08,B7,
4309647563,00000140,false,Rx,0,8,FF,FF,01,6C,20,00,08,48,
14695172,000007DF,false,Tx,1,8,02,11,02,00,00,00,00,00,
4309657318,00000130,false,Rx,0,8,0C,80,FE,7C,00,01,09,04,
4309657563,00000140,false,Rx,0,8,FF,FF,01,6C,20,00,09,55,
4309667332,00000130,false,Rx,0,8,06,80,FD,7C,00,01,0A,F5,
4309667577,00000140,false,Rx,0,8,FF,FF,01,6C,20,00,0A,72,
4309677325,00000130,false,Rx,0,8,04,80,FE,7C,00,01,0B,EC,
4309677570,00000140,false,Rx,0,8,FF,FF,01,6C,20,00,0B,6F,
4309687185,00000500,false,Rx,0,1,0C,00,00,00,00,00,00,00,
4309687427,00000130,false,Rx,0,8,03,80,F4,7C,00,01,0C,92,
4309687667,00000140,false,Rx,0,8,FF,FF,01,6C,20,00,0C,3C,
4309687906,00000495,false,Rx,0,8,00,00,12,8A,21,69,2C,64,
4309697320,00000130,false,Rx,0,8,FB,7F,04,7D,00,01,0D,F3,
4309697554,00000140,false,Rx,0,8,FF,FF,01,6C,20,00,0D,21,
4309707314,00000130,false,Rx,0,8,05,80,0D,7D,00,01,0E,68,
4309707548,00000140,false,Rx,0,8,FF,FF,01,6C,20,00,0E,06,
4309717309,00000130,false,Rx,0,8,0A,80,F6,7C,00,01,0F,EE,
4309717543,00000140,false,Rx,0,8,FF,FF,01,6C,20,00,0F,1B,
4309727314,00000130,false,Rx,0,8,0B,80,01,7D,00,01,00,0D,
4309727559,00000140,false,Rx,0,8,FF,FF,01,6C,20,00,00,A0,
4309737329,00000130,false,Rx,0,8,14,80,1A,7D,00,01,01,D2,
4309737574,00000140,false,Rx,0,8,FF,FF,01,6C,20,00,01,BD,
4309747324,00000130,false,Rx,0,8,13,80,16,7D,00,01,02,B9,
4309747568,00000140,false,Rx,0,8,FF,FF,01,6C,20,00,02,9A,
4309757473,00000130,false,Rx,0,8,0B,80,08,7D,00,01,03,37,
4309757709,00000140,false,Rx,0,8,FF,FF,01,6C,20,00,03,87,
14805004,000007DF,false,Tx,1,8,02,11,03,00,00,00,00,00,
4309767313,00000130,false,Rx,0,8,0D,80,FC,7C,00,01,04,0C,
4309767557,00000140,false,Rx,0,8,FF,FF,01,6C,20,00,04,D4,
4309777318,00000130,false,Rx,0,8,10,80,02,7D,00,01,05,56,
4309777552,00000140,false,Rx,0,8,FF,FF,01,6C,20,00,05,C9,
4309787187,00000500,false,Rx,0,1,0C,00,00,00,00,00,00,00,
4309787419,00000130,false,Rx,0,8,0A,80,09,7D,00,01,06,69,
4309787659,00000140,false,Rx,0,8,FF,FF,01,6C,20,00,06,EE,
4309787898,00000495,false,Rx,0,8,00,00,12,8A,21,69,2C,64,
4309797321,00000130,false,Rx,0,8,FC,7F,19,7D,00,01,07,E9,
4309797566,00000140,false,Rx,0,8,FF,FF,01,6C,20,00,07,F3,
4309807315,00000130,false,Rx,0,8,01,80,1C,7D,00,01,08,CB,
4309807559,00000140,false,Rx,0,8,FF,FF,01,6C,20,00,08,48,
4309817308,00000130,false,Rx,0,8,05,80,0B,7D,00,01,09,5A,
4309817552,00000140,false,Rx,0,8,FF,FF,01,6C,20,00,09,55,
4309827313,00000130,false,Rx,0,8,00,80,FE,7C,00,01,0A,98,
4309827557,00000140,false,Rx,0,8,FF,FF,01,6C,20,00,0A,72,
4309837318,00000130,false,Rx,0,8,F7,7F,0D,7D,00,01,0B,1B,
4309837562,00000140,false,Rx,0,8,FF,FF,01,6C,20,00,0B,6F,
4309847312,00000130,false,Rx,0,8,FE,7F,1E,7D,00,01,0C,97,
4309847557,00000140,false,Rx,0,8,FF,FF,01,6C,20,00,0C,3C,
4309857318,00000130,false,Rx,0,8,06,80,25,7D,00,01,0D,1E,
4309857552,00000140,false,Rx,0,8,FF,FF,01,6C,20,00,0D,21,
4309867333,00000130,false,Rx,0,8,09,80,27,7D,00,01,0E,B1,
14913767,000007E0,false,Tx,1,8,02,11,01,00,00,00,00,00,
4309867569,00000140,false,Rx,0,8,FF,FF,01,6C,20,00,0E,06,
4309877318,00000130,false,Rx,0,8,0D,80,23,7D,00,01,0F,70,
4309877553,00000140,false,Rx,0,8,FF,FF,01,6C,20,00,0F,1B,
4309887199,00000500,false,Rx,0,1,0C,00,00,00,00,00,00,00,
4309887441,00000130,false,Rx,0,8,FC,7F,20,7D,00,01,00,88,
4309887682,00000140,false,Rx,0,8,FF,FF,01,6C,20,00,00,A0,
4309887920,00000495,false,Rx,0,8,00,00,12,8A,21,69,2C,64,
4309897323,00000130,false,Rx,0,8,FC,7F,0F,7D,00,01,01,28,
4309897558,00000140,false,Rx,0,8,FF,FF,01,6C,20,00,01,BD,
4309907318,00000130,false,Rx,0,8,08,80,07,7D,00,01,02,B1,
4309907553,00000140,false,Rx,0,8,FF,FF,01,6C,20,00,02,9A,
4309917323,00000130,false,Rx,0,8,06,80,FB,7C,00,01,03,61,
4309917559,00000140,false,Rx,0,8,FF,FF,01,6C,20,00,03,87,
4309927319,00000130,false,Rx,0,8,FE,7F,F8,7C,00,01,04,FE,
4309927565,00000140,false,Rx,0,8,FF,FF,01,6C,20,00,04,D4,
4309937334,00000130,false,Rx,0,8,04,80,1E,7D,00,01,05,AA,
4309937569,00000140,false,Rx,0,8,FF,FF,01,6C,20,00,05,C9,
4309947328,00000130,false,Rx,0,8,11,80,30,7D,00,01,06,D7,
4309947574,00000140,false,Rx,0,8,FF,FF,01,6C,20,00,06,EE,
4309957469,00000130,false,Rx,0,8,17,80,0E,7D,00,01,07,20,
4309957715,00000140,false,Rx,0,8,FF,FF,01,6C,20,00,07,F3,
4309967307,00000130,false,Rx,0,8,1D,80,07,7D,00,01,08,EE,
4309967553,00000140,false,Rx,0,8,FF,FF,01,6C,20,00,08,48,
4309977343,00000130,false,Rx,0,8,13,80,12,7D,00,01,09,C3,
15024529,000007E0,false,Tx,1,8,02,11,02,00,00,00,00,00,
4309977579,00000140,false,Rx,0,8,FF,FF,01,6C,20,00,09,55,
4309987183,00000500,false,Rx,0,1,0C,00,00,00,00,00,00,00,
4309987426,00000130,false,Rx,0,8,08,80,1A,7D,00,01,0A,1F,
4309987666,00000140,false,Rx,0,8,FF,FF,01,6C,20,00,0A,72,
4309987893,00000495,false,Rx,0,8,00,00,12,8A,21,69,2C,64,
4309997317,00000130,false,Rx,0,8,11,80,0F,7D,00,01,0B,05,
4309997563,00000140,false,Rx,0,8,FF,FF,01,6C,20,00,0B,6F,
4310007310,00000130,false,Rx,0,8,07,80,09,7D,00,01,0C,5D,
4310007556,00000140,false,Rx,0,8,FF,FF,01,6C,20,00,0C,3C,
4310017304,00000130,false,Rx,0,8,F6,7F,03,7D,00,01,0D,1E,
4310017550,00000140,false,Rx,0,8,FF,FF,01,6C,20,00,0D,21,
4310027309,00000130,false,Rx,0,8,FB,7F,F4,7C,00,01,0E,DA,
4310027554,00000140,false,Rx,0,8,FF,FF,01,6C,20,00,0E,06,
4310037324,00000130,false,Rx,0,8,02,80,F2,7C,00,01,0F,89,
4310037558,00000140,false,Rx,0,8,FF,FF,01,6C,20,00,0F,1B,
4310047318,00000130,false,Rx,0,8,FE,7F,09,7D,00,01,00,EE,
4310047563,00000140,false,Rx,0,8,FF,FF,01,6C,20,00,00,A0,
4310057311,00000130,false,Rx,0,8,FA,7F,18,7D,00,01,01,1E,
4310057556,00000140,false,Rx,0,8,FF,FF,01,6C,20,00,01,BD,
4310067336,00000130,false,Rx,0,8,FA,7F,23,7D,00,01,02,DF,
4310067570,00000140,false,Rx,0,8,FF,FF,01,6C,20,00,02,9A,
4310077319,00000130,false,Rx,0,8,04,80,1A,7D,00,01,03,51,
4310077563,00000140,false,Rx,0,8,FF,FF,01,6C,20,00,03,87,
4310087188,00000500,false,Rx,0,1,0C,00,00,00,00,00,00,00,
4310087431,00000130,false,Rx,0,8,09,80,FC,7C,00,01,04,65,
4310087671,00000140,false,Rx,0,8,FF,FF,01,6C,20,00,04,D4,
4310087898,00000495,false,Rx,0,8,00,00,12,8A,21,69,2C,64,
15136830,000007E0,false,Tx,1,8,02,11,03,00,00,00,00,00,
4310097323,00000130,false,Rx,0,8,08,80,F5,7C,00,01,05,38,
4310097558,00000140,false,Rx,0,8,FF,FF,01,6C,20,00,05,C9,
4310107308,00000130,false,Rx,0,8,19,80,04,7D,00,01,06,9F,
4310107553,00000140,false,Rx,0,8,FF,FF,01,6C,20,00,06,EE,
4310117314,00000130,false,Rx,0,8,1D,80,01,7D,00,01,07,34,
4310117548,00000140,false,Rx,0,8,FF,FF,01,6C,20,00,07,F3,
4310127308,00000130,false,Rx,0,8,1B,80,07,7D,00,01,08,3D,
4310127552,00000140,false,Rx,0,8,FF,FF,01,6C,20,00,08,48,
4310137322,00000130,false,Rx,0,8,0D,80,07,7D,00,01,09,4A,
4310137556,00000140,false,Rx,0,8,FF,FF,01,6C,20,00,09,55,
4310147326,00000130,false,Rx,0,8,00,80,16,7D,00,01,0A,0F,
4310147570,00000140,false,Rx,0,8,FF,FF,01,6C,20,00,0A,72,
4310157476,00000130,false,Rx,0,8,FD,7F,1A,7D,00,01,0B,96,
4310157712,00000140,false,Rx,0,8,FF,FF,01,6C,20,00,0B,6F,
4310167315,00000130,false,Rx,0,8,02,80,0B,7D,00,01,0C,BD,
4310167559,00000140,false,Rx,0,8,FF,FF,01,6C,20,00,0C,3C,
4310177319,00000130,false,Rx,0,8,08,80,0A,7D,00,01,0D,A2,
4310177554,00000140,false,Rx,0,8,FF,FF,01,6C,20,00,0D,21,
4310187190,00000500,false,Rx,0,1,0C,00,00,00,00,00,00,00,
4310187422,00000130,false,Rx,0,8,10,80,17,7D,00,01,0E,A8,
4310187661,00000140,false,Rx,0,8,FF,FF,01,6C,20,00,0E,06,
4310187901,00000495,false,Rx,0,8,00,00,12,8A,21,69,2C,64,
4310197315,00000130,false,Rx,0,8,14,80,1B,7D,00,01,0F,1E,
15244137,000007E1,false,Tx,1,8,02,11,01,00,00,00,00,00,
4310197560,00000140,false,Rx,0,8,FF,FF,01,6C,20,00,0F,1B,
4310207320,00000130,false,Rx,0,8,12,80,0F,7D,00,01,00,2D,
4310207564,00000140,false,Rx,0,8,FF,FF,01,6C,20,00,00,A0,
4310217314,00000130,false,Rx,0,8,0A,80,06,7D,00,01,01,46,
4310217559,00000140,false,Rx,0,8,FF,FF,01,6C,20,00,01,BD,
4310227320,00000130,false,Rx,0,8,0E,80,16,7D,00,01,02,E6,
4310227554,00000140,false,Rx,0,8,FF,FF,01,6C,20,00,02,9A,
4310237325,00000130,false,Rx,0,8,09,80,1C,7D,00,01,03,D6,
4310237569,00000140,false,Rx,0,8,FF,FF,01,6C,20,00,03,87,
4310247319,00000130,false,Rx,0,8,07,80,1C,7D,00,01,04,84,
4310247563,00000140,false,Rx,0,8,FF,FF,01,6C,20,00,04,D4,
4310257324,00000130,false,Rx,0,8,11,80,0F,7D,00,01,05,A3,
4310257558,00000140,false,Rx,0,8,FF,FF,01,6C,20,00,05,C9,
4310267330,00000130,false,Rx,0,8,0D,80,0A,7D,00,01,06,59,
4310267574,00000140,false,Rx,0,8,FF,FF,01,6C,20,00,06,EE,
4310277324,00000130,false,Rx,0,8,0B,80,00,7D,00,01,07,34,
4310277559,00000140,false,Rx,0,8,FF,FF,01,6C,20,00,07,F3,
4310287184,00000500,false,Rx,0,1,0C,00,00,00,00,00,00,00,
4310287426,00000130,false,Rx,0,8,04,80,FD,7C,00,01,08,75,
4310287667,00000140,false,Rx,0,8,FF,FF,01,6C,20,00,08,48,
4310287905,00000495,false,Rx,0,8,00,00,12,8A,21,69,2C,64,
4310297318,00000130,false,Rx,0,8,02,80,04,7D,00,01,09,A8,
4310297552,00000140,false,Rx,0,8,FF,FF,01,6C,20,00,09,55,
4310307311,00000130,false,Rx,0,8,0B,80,F9,7C,00,01,0A,A6,
4310307545,00000140,false,Rx,0,8,FF,FF,01,6C,20,00,0A,72,
15362294,000007E1,false,Tx,1,8,02,11,02,00,00,00,00,00,
4310317305,00000130,false,Rx,0,8,14,80,EF,7C,00,01,0B,D1,
4310317546,00000140,false,Rx,0,8,FF,FF,01,6C,20,00,0B,6F,
4310327309,00000130,false,Rx,0,8,17,80,0D,7D,00,01,0C,51,
4310327554,00000140,false,Rx,0,8,FF,FF,01,6C,20,00,0C,3C,
4310337324,00000130,false,Rx,0,8,11,80,2C,7D,00,01,0D,34,
4310337558,00000140,false,Rx,0,8,FF,FF,01,6C,20,00,0D,21,
4310347328,00000130,false,Rx,0,8,0E,80,23,7D,00,01,0E,8A,
4310347563,00000140,false,Rx,0,8,FF,FF,01,6C,20,00,0E,06,
4310357466,00000130,false,Rx,0,8,0C,80,17,7D,00,01,0F,B7,
4310357702,00000140,false,Rx,0,8,FF,FF,01,6C,20,00,0F,1B,
4310367315,00000130,false,Rx,0,8,02,80,16,7D,00,01,00,67,
4310367560,00000140,false,Rx,0,8,FF,FF,01,6C,20,00,00,A0,
4310377318,00000130,false,Rx,0,8,F7,7F,FE,7C,00,01,01,79,
4310377553,00000140,false,Rx,0,8,FF,FF,01,6C,20,00,01,BD,
4310387178,00000500,false,Rx,0,1,0C,00,00,00,00,00,00,00,
4310387420,00000130,false,Rx,0,8,F5,7F,F0,7C,00,01,02,F2,
