Time Stamp,ID,Extended,Dir,Bus,LEN,D1,D2,D3,D4,D5,D6,D7,D8
4295724687,00000130,false,Rx,0,8,0C,80,19,7D,00,01,09,EF,
4295724921,00000140,false,Rx,0,8,FF,FF,01,6C,20,00,09,55,
4295734713,00000130,false,Rx,0,8,1E,80,0E,7D,00,01,0A,2E,
4295734947,00000140,false,Rx,0,8,FF,FF,01,6C,20,00,0A,72,
4295744708,00000130,false,Rx,0,8,24,80,1D,7D,00,01,0B,DD,
4295744942,00000140,false,Rx,0,8,FF,FF,01,6C,20,00,0B,6F,
4295754567,00000500,false,Rx,0,1,0C,00,00,00,00,00,00,00,
4295754801,00000130,false,Rx,0,8,1C,80,12,7D,00,01,0C,F6,
4295754845,000005A0,false,Rx,1,8,00,00,00,C0,20,77,94,0C,
4295755051,00000140,false,Rx,0,8,FF,FF,01,6C,20,00,0C,3C,
4295755279,00000495,false,Rx,0,8,00,00,12,8A,21,69,2C,64,
4295764687,00000130,false,Rx,0,8,1E,80,04,7D,00,01,0D,DE,
4295764921,00000140,false,Rx,0,8,FF,FF,01,6C,20,00,0D,21,
4295774682,00000130,false,Rx,0,8,1D,80,0E,7D,00,01,0E,BD,
4295774926,00000140,false,Rx,0,8,FF,FF,01,6C,20,00,0E,06,
4295784687,00000130,false,Rx,0,8,15,80,07,7D,00,01,0F,6F,
4295784921,00000140,false,Rx,0,8,FF,FF,01,6C,20,00,0F,1B,
4295794692,00000130,false,Rx,0,8,04,80,09,7D,00,01,00,26,
4295794936,00000140,false,Rx,0,8,FF,FF,01,6C,20,00,00,A0,
4295804695,00000130,false,Rx,0,8,FF,7F,22,7D,00,01,01,A6,
4295804929,00000140,false,Rx,0,8,FF,FF,01,6C,20,00,01,BD,
4295814833,00000130,false,Rx,0,8,0A,80,25,7D,00,01,02,1E,
4295815067,00000140,false,Rx,0,8,FF,FF,01,6C,20,00,02,9A,
4295824692,00000130,false,Rx,0,8,12,80,1D,7D,00,01,03,30,
4295824937,00000140,false,Rx,0,8,FF,FF,01,6C,20,00,03,87,
4295834698,00000130,false,Rx,0,8,09,80,01,7D,00,01,04,C3,
4295834942,00000140,false,Rx,0,8,FF,FF,01,6C,20,00,04,D4,
4295844702,00000130,false,Rx,0,8,0D,80,00,7D,00,01,05,DD,
4295844936,00000140,false,Rx,0,8,FF,FF,01,6C,20,00,05,C9,
4295854562,00000500,false,Rx,0,1,0C,00,00,00,00,00,00,00,
4295854806,00000130,false,Rx,0,8,0C,80,0A,7D,00,01,06,04,
4295855044,00000140,false,Rx,0,8,FF,FF,01,6C,20,00,06,EE,
4295855273,00000495,false,Rx,0,8,00,00,12,8A,21,69,2C,64,
4295864698,00000130,false,Rx,0,8,11,80,1D,7D,00,01,07,A3,
4295864932,00000140,false,Rx,0,8,FF,FF,01,6C,20,00,07,F3,
4295874682,00000130,false,Rx,0,8,12,80,2E,7D,00,01,08,6E,
4295874926,00000140,false,Rx,0,8,FF,FF,01,6C,20,00,08,48,
4295884687,00000130,false,Rx,0,8,11,80,36,7D,00,01,09,0D,
4295884921,00000140,false,Rx,0,8,FF,FF,01,6C,20,00,09,55,
4295894682,00000130,false,Rx,0,8,10,80,31,7D,00,01,0A,7C,
4295894926,00000140,false,Rx,0,8,FF,FF,01,6C,20,00,0A,72,
4295904697,00000130,false,Rx,0,8,0F,80,28,7D,00,01,0B,77,
4295904931,00000140,false,Rx,0,8,FF,FF,01,6C,20,00,0B,6F,
4295914692,00000130,false,Rx,0,8,10,80,1D,7D,00,01,0C,31,
4295914937,00000140,false,Rx,0,8,FF,FF,01,6C,20,00,0C,3C,
4295924687,00000130,false,Rx,0,8,10,80,1C,7D,00,01,0D,46,
4295924921,00000140,false,Rx,0,8,FF,FF,01,6C,20,00,0D,21,
4295934713,00000130,false,Rx,0,8,14,80,11,7D,00,01,0E,A0,
4295934947,00000140,false,Rx,0,8,FF,FF,01,6C,20,00,0E,06,
4295944687,00000130,false,Rx,0,8,15,80,1A,7D,00,01,0F,29,
4295944931,00000140,false,Rx,0,8,FF,FF,01,6C,20,00,0F,1B,
4295954555,00000500,false,Rx,0,1,0C,00,00,00,00,00,00,00,
4295954799,00000130,false,Rx,0,8,09,80,12,7D,00,01,00,E7,
4295955048,00000140,false,Rx,0,8,FF,FF,01,6C,20,00,00,A0,
4295955276,00000495,false,Rx,0,8,00,00,12,8A,21,69,2C,64,
4295964692,00000130,false,Rx,0,8,06,80,0A,7D,00,01,01,3F,
4295964937,00000140,false,Rx,0,8,FF,FF,01,6C,20,00,01,BD,
4295974686,00000130,false,Rx,0,8,07,80,02,7D,00,01,02,32,
4295974920,00000140,false,Rx,0,8,FF,FF,01,6C,20,00,02,9A,
4295984692,00000130,false,Rx,0,8,0A,80,0C,7D,00,01,03,DF,
4295984926,00000140,false,Rx,0,8,FF,FF,01,6C,20,00,03,87,
4295994687,00000130,false,Rx,0,8,06,80,12,7D,00,01,04,CF,
4295994921,00000140,false,Rx,0,8,FF,FF,01,6C,20,00,04,D4,
4296004692,00000130,false,Rx,0,8,0B,80,0A,7D,00,01,05,AD,
4296004926,00000140,false,Rx,0,8,FF,FF,01,6C,20,00,05,C9,
4296014759,00000130,false,Rx,0,8,13,80,1E,7D,00,01,06,BA,
4296014994,00000140,false,Rx,0,8,FF,FF,01,6C,20,00,06,EE,
4296024692,00000130,false,Rx,0,8,0E,80,31,7D,00,01,07,45,
4296024937,00000140,false,Rx,0,8,FF,FF,01,6C,20,00,07,F3,
4296034686,00000130,false,Rx,0,8,0A,80,23,7D,00,01,08,AD,
4296034932,00000140,false,Rx,0,8,FF,FF,01,6C,20,00,08,48,
4296044681,00000130,false,Rx,0,8,10,80,19,7D,00,01,09,ED,
4296044927,00000140,false,Rx,0,8,FF,FF,01,6C,20,00,09,55,
4296054550,00000500,false,Rx,0,1,0C,00,00,00,00,00,00,00,
4296054794,00000130,false,Rx,0,8,09,80,22,7D,00,01,0A,1A,
4296055033,00000140,false,Rx,0,8,FF,FF,01,6C,20,00,0A,72,
4296055261,00000495,false,Rx,0,8,00,00,12,8A,21,69,2C,64,
4296064686,00000130,false,Rx,0,8,04,80,2A,7D,00,01,0B,96,
4296064921,00000140,false,Rx,0,8,FF,FF,01,6C,20,00,0B,6F,
4296074681,00000130,false,Rx,0,8,01,80,23,7D,00,01,0C,EC,
4296074927,00000140,false,Rx,0,8,FF,FF,01,6C,20,00,0C,3C,
4296084687,00000130,false,Rx,0,8,0F,80,1E,7D,00,01,0D,77,
4296084923,00000140,false,Rx,0,8,FF,FF,01,6C,20,00,0D,21,
4296094681,00000130,false,Rx,0,8,12,80,0F,7D,00,01,0E,8B,
4296094927,00000140,false,Rx,0,8,FF,FF,01,6C,20,00,0E,06,
4296104697,00000130,false,Rx,0,8,0A,80,01,7D,00,01,0F,EB,
4296104932,00000140,false,Rx,0,8,FF,FF,01,6C,20,00,0F,1B,
4296114691,00000130,false,Rx,0,8,FB,7F,09,7D,00,01,00,DA,
4296114937,00000140,false,Rx,0,8,FF,FF,01,6C,20,00,00,A0,
4296124686,00000130,false,Rx,0,8,FE,7F,1C,7D,00,01,01,C2,
4296124932,00000140,false,Rx,0,8,FF,FF,01,6C,20,00,01,BD,
4296134723,00000130,false,Rx,0,8,06,80,1E,7D,00,01,02,43,
4296134958,00000140,false,Rx,0,8,FF,FF,01,6C,20,00,02,9A,
4296144697,00000130,false,Rx,0,8,0C,80,16,7D,00,01,03,41,
4296144932,00000140,false,Rx,0,8,FF,FF,01,6C,20,00,03,87,
4296154567,00000500,false,Rx,0,1,0C,00,00,00,00,00,00,00,
4296154811,00000130,false,Rx,0,8,14,80,09,7D,00,01,04,EB,
4296155049,00000140,false,Rx,0,8,FF,FF,01,6C,20,00,04,D4,
4296155287,00000495,false,Rx,0,8,00,00,12,8A,21,69,2C,64,
4296164692,00000130,false,Rx,0,8,13,80,F4,7C,00,01,05,DE,
4296164927,00000140,false,Rx,0,8,FF,FF,01,6C,20,00,05,C9,
4296174686,00000130,false,Rx,0,8,07,80,00,7D,00,01,06,92,
4296174931,00000140,false,Rx,0,8,FF,FF,01,6C,20,00,06,EE,
4296184693,00000130,false,Rx,0,8,0A,80,11,7D,00,01,07,ED,
4296184927,00000140,false,Rx,0,8,FF,FF,01,6C,20,00,07,F3,
4296194687,00000130,false,Rx,0,8,14,80,17,7D,00,01,08,8F,
4296194921,00000140,false,Rx,0,8,FF,FF,01,6C,20,00,08,48,
4296204692,00000130,false,Rx,0,8,19,80,1C,7D,00,01,09,BD,
4296204926,00000140,false,Rx,0,8,FF,FF,01,6C,20,00,09,55,
4296214832,00000130,false,Rx,0,8,17,80,0D,7D,00,01,0A,1F,
4296215076,00000140,false,Rx,0,8,FF,FF,01,6C,20,00,0A,72,
4296224682,00000130,false,Rx,0,8,11,80,06,7D,00,01,0B,18,
4296224927,00000140,false,Rx,0,8,FF,FF,01,6C,20,00,0B,6F,
4296234687,00000130,false,Rx,0,8,0A,80,08,7D,00,01,0C,D1,
4296234931,00000140,false,Rx,0,8,FF,FF,01,6C,20,00,0C,3C,
4296244702,00000130,false,Rx,0,8,0A,80,0B,7D,00,01,0D,72,
4296244936,00000140,false,Rx,0,8,FF,FF,01,6C,20,00,0D,21,
4296254550,00000500,false,Rx,0,1,0C,00,00,00,00,00,00,00,
4296254795,00000130,false,Rx,0,8,06,80,13,7D,00,01,0E,77,
4296255033,00000140,false,Rx,0,8,FF,FF,01,6C,20,00,0E,06,
4296255261,00000495,false,Rx,0,8,00,00,12,8A,21,69,2C,64,
4296264687,00000130,false,Rx,0,8,0A,80,0F,7D,00,01,0F,FD,
4296264931,00000140,false,Rx,0,8,FF,FF,01,6C,20,00,0F,1B,
4296274692,00000130,false,Rx,0,8,13,80,07,7D,00,01,00,07,
4296274937,00000140,false,Rx,0,8,FF,FF,01,6C,20,00,00,A0,
4296284687,00000130,false,Rx,0,8,0F,80,FF,7C,00,01,01,61,
4296284931,00000140,false,Rx,0,8,FF,FF,01,6C,20,00,01,BD,
4296294692,00000130,false,Rx,0,8,0D,80,FA,7C,00,01,02,23,
4296294926,00000140,false,Rx,0,8,FF,FF,01,6C,20,00,02,9A,
4296304687,00000130,false,Rx,0,8,14,80,EC,7C,00,01,03,87,
4296304932,00000140,false,Rx,0,8,FF,FF,01,6C,20,00,03,87,
4296314692,00000130,false,Rx,0,8,10,80,F2,7C,00,01,04,45,
4296314926,00000140,false,Rx,0,8,FF,FF,01,6C,20,00,04,D4,
4296324687,00000130,false,Rx,0,8,05,80,FA,7C,00,01,05,A2,
4296324921,00000140,false,Rx,0,8,FF,FF,01,6C,20,00,05,C9,
4296334712,00000130,false,Rx,0,8,FD,7F,0A,7D,00,01,06,F9,
4296334947,00000140,false,Rx,0,8,FF,FF,01,6C,20,00,06,EE,
4296344688,00000130,false,Rx,0,8,03,80,13,7D,00,01,07,B6,
4296344922,00000140,false,Rx,0,8,FF,FF,01,6C,20,00,07,F3,
4296354556,00000500,false,Rx,0,1,0C,00,00,00,00,00,00,00,
4296354800,00000130,false,Rx,0,8,04,80,25,7D,00,01,08,CD,
4296355038,00000140,false,Rx,0,8,FF,FF,01,6C,20,00,08,48,
4296355267,00000495,false,Rx,0,8,00,00,12,8A,21,69,2C,64,
4296364682,00000130,false,Rx,0,8,0D,80,28,7D,00,01,09,F7,
4296364926,00000140,false,Rx,0,8,FF,FF,01,6C,20,00,09,55,
4296374687,00000130,false,Rx,0,8,0F,80,20,7D,00,01,0A,1D,
4296374922,00000140,false,Rx,0,8,FF,FF,01,6C,20,00,0A,72,
4296384681,00000130,false,Rx,0,8,0A,80,26,7D,00,01,0B,55,
4296384926,00000140,false,Rx,0,8,FF,FF,01,6C,20,00,0B,6F,
4296394686,00000130,false,Rx,0,8,08,80,27,7D,00,01,0C,D6,
4296394921,00000140,false,Rx,0,8,FF,FF,01,6C,20,00,0C,3C,
4296404692,00000130,false,Rx,0,8,05,80,11,7D,00,01,0D,63,
4296404926,00000140,false,Rx,0,8,FF,FF,01,6C,20,00,0D,21,
4296414831,00000130,false,Rx,0,8,FE,7F,0B,7D,00,01,0E,9C,
4296415065,00000140,false,Rx,0,8,FF,FF,01,6C,20,00,0E,06,
4296424692,00000130,false,Rx,0,8,FA,7F,06,7D,00,01,0F,40,
4296424927,00000140,false,Rx,0,8,FF,FF,01,6C,20,00,0F,1B,
4296434697,00000130,false,Rx,0,8,05,80,10,7D,00,01,00,88,
4296434941,00000140,false,Rx,0,8,FF,FF,01,6C,20,00,00,A0,
4296444692,00000130,false,Rx,0,8,0E,80,13,7D,00,01,01,1E,
4296444936,00000140,false,Rx,0,8,FF,FF,01,6C,20,00,01,BD,
4296454561,00000500,false,Rx,0,1,0C,00,00,00,00,00,00,00,
4296454805,00000130,false,Rx,0,8,0F,80,0B,7D,00,01,02,FD,
4296455044,00000140,false,Rx,0,8,FF,FF,01,6C,20,00,02,9A,
4296455283,00000495,false,Rx,0,8,00,00,12,8A,21,69,2C,64,
4296464697,00000130,false,Rx,0,8,16,80,1A,7D,00,01,03,52,
4296464931,00000140,false,Rx,0,8,FF,FF,01,6C,20,00,03,87,
4296474692,00000130,false,Rx,0,8,10,80,2A,7D,00,01,04,FD,
4296474926,00000140,false,Rx,0,8,FF,FF,01,6C,20,00,04,D4,
4296484687,00000130,false,Rx,0,8,04,80,19,7D,00,01,05,A1,
4296484931,00000140,false,Rx,0,8,FF,FF,01,6C,20,00,05,C9,
4296494692,00000130,false,Rx,0,8,05,80,08,7D,00,01,06,5F,
4296494926,00000140,false,Rx,0,8,FF,FF,01,6C,20,00,06,EE,
4296504697,00000130,false,Rx,0,8,05,80,06,7D,00,01,07,54,
4296504932,00000140,false,Rx,0,8,FF,FF,01,6C,20,00,07,F3,
4296514681,00000130,false,Rx,0,8,06,80,11,7D,00,01,08,ED,
4296514927,00000140,false,Rx,0,8,FF,FF,01,6C,20,00,08,48,
4296524686,00000130,false,Rx,0,8,0E,80,19,7D,00,01,09,55,
4296524921,00000140,false,Rx,0,8,FF,FF,01,6C,20,00,09,55,
4296534702,00000130,false,Rx,0,8,18,80,22,7D,00,01,0A,FE,
4296534948,00000140,false,Rx,0,8,FF,FF,01,6C,20,00,0A,72,
4296544686,00000130,false,Rx,0,8,1C,80,15,7D,00,01,0B,AE,
4296544921,00000140,false,Rx,0,8,FF,FF,01,6C,20,00,0B,6F,
4296554556,00000500,false,Rx,0,1,0C,00,00,00,00,00,00,00,
4296554799,00000130,false,Rx,0,8,16,80,13,7D,00,01,0C,F4,
4296555039,00000140,false,Rx,0,8,FF,FF,01,6C,20,00,0C,3C,
4296555267,00000495,false,Rx,0,8,00,00,12,8A,21,69,2C,64,
4296564692,00000130,false,Rx,0,8,0D,80,22,7D,00,01,0D,20,
4296564927,00000140,false,Rx,0,8,FF,FF,01,6C,20,00,0D,21,
4296574676,00000130,false,Rx,0,8,07,80,28,7D,00,01,0E,CC,
4296574921,00000140,false,Rx,0,8,FF,FF,01,6C,20,00,0E,06,
4296584681,00000130,false,Rx,0,8,03,80,11,7D,00,01,0F,8A,
4296584916,00000140,false,Rx,0,8,FF,FF,01,6C,20,00,0F,1B,
4296594686,00000130,false,Rx,0,8,09,80,0E,7D,00,01,00,CB,
4296594932,00000140,false,Rx,0,8,FF,FF,01,6C,20,00,00,A0,
4296604692,00000130,false,Rx,0,8,15,80,1F,7D,00,01,01,50,
4296604927,00000140,false,Rx,0,8,FF,FF,01,6C,20,00,01,BD,
4296614761,00000130,false,Rx,0,8,11,80,1A,7D,00,01,02,C1,
4296614995,00000140,false,Rx,0,8,FF,FF,01,6C,20,00,02,9A,
4296624692,00000130,false,Rx,0,8,0A,80,06,7D,00,01,03,7C,
4296624927,00000140,false,Rx,0,8,FF,FF,01,6C,20,00,03,87,
4296634696,00000130,false,Rx,0,8,0A,80,10,7D,00,01,04,A0,
4296634932,00000140,false,Rx,0,8,FF,FF,01,6C,20,00,04,D4,
4296644691,00000130,false,Rx,0,8,0A,80,FD,7C,00,01,05,F5,
4296644927,00000140,false,Rx,0,8,FF,FF,01,6C,20,00,05,C9,
4296654551,00000500,false,Rx,0,1,0C,00,00,00,00,00,00,00,
4296654785,00000130,false,Rx,0,8,0B,80,F2,7C,00,01,06,F3,
4296655023,00000140,false,Rx,0,8,FF,FF,01,6C,20,00,06,EE,
4296655261,00000495,false,Rx,0,8,00,00,12,8A,21,69,2C,64,
4296664687,00000130,false,Rx,0,8,0B,80,0D,7D,00,01,07,9C,
4296664921,00000140,false,Rx,0,8,FF,FF,01,6C,20,00,07,F3,
4296674682,00000130,false,Rx,0,8,0E,80,19,7D,00,01,08,48,
4296674927,00000140,false,Rx,0,8,FF,FF,01,6C,20,00,08,48,
4296684688,00000130,false,Rx,0,8,0D,80,1C,7D,00,01,09,6D,
4296684922,00000140,false,Rx,0,8,FF,FF,01,6C,20,00,09,55,
4296694682,00000130,false,Rx,0,8,0E,80,26,7D,00,01,0A,21,
4296694916,00000140,false,Rx,0,8,FF,FF,01,6C,20,00,0A,72,
4296704687,00000130,false,Rx,0,8,16,80,13,7D,00,01,0B,A7,
4296704932,00000140,false,Rx,0,8,FF,FF,01,6C,20,00,0B,6F,
4296714693,00000130,false,Rx,0,8,19,80,0B,7D,00,01,0C,31,
4296714927,00000140,false,Rx,0,8,FF,FF,01,6C,20,00,0C,3C,
4296724687,00000130,false,Rx,0,8,0D,80,12,7D,00,01,0D,0F,
4296724921,00000140,false,Rx,0,8,FF,FF,01,6C,20,00,0D,21,
4296734703,00000130,false,Rx,0,8,04,80,2E,7D,00,01,0E,4A,
4296734948,00000140,false,Rx,0,8,FF,FF,01,6C,20,00,0E,06,
4296744708,00000130,false,Rx,0,8,08,80,2D,7D,00,01,0F,52,
4296744942,00000140,false,Rx,0,8,FF,FF,01,6C,20,00,0F,1B,
4296754567,00000500,false,Rx,0,1,0C,00,00,00,00,00,00,00,
4296754811,00000130,false,Rx,0,8,0C,80,2E,7D,00,01,00,3E,
4296754845,000005A0,false,Rx,1,8,00,00,00,C0,24,02,91,0C,
4296755050,00000140,false,Rx,0,8,FF,FF,01,6C,20,00,00,A0,
4296755289,00000495,false,Rx,0,8,00,00,12,8A,21,69,2C,64,
4296764688,00000130,false,Rx,0,8,0A,80,33,7D,00,01,01,B6,
4296764932,00000140,false,Rx,0,8,FF,FF,01,6C,20,00,01,BD,
4296774682,00000130,false,Rx,0,8,0C,80,32,7D,00,01,02,28,
4296774926,00000140,false,Rx,0,8,FF,FF,01,6C,20,00,02,9A,
4296784687,00000130,false,Rx,0,8,0A,80,21,7D,00,01,03,B6,
4296784922,00000140,false,Rx,0,8,FF,FF,01,6C,20,00,03,87,
4296794682,00000130,false,Rx,0,8,05,80,12,7D,00,01,04,28,
4296794926,00000140,false,Rx,0,8,FF,FF,01,6C,20,00,04,D4,
4296804687,00000130,false,Rx,0,8,06,80,22,7D,00,01,05,FD,
4296804931,00000140,false,Rx,0,8,FF,FF,01,6C,20,00,05,C9,
4296814826,00000130,false,Rx,0,8,08,80,2F,7D,00,01,06,73,
4296815060,00000140,false,Rx,0,8,FF,FF,01,6C,20,00,06,EE,
4296824688,00000130,false,Rx,0,8,04,80,2C,7D,00,01,07,6B,
4296824922,00000140,false,Rx,0,8,FF,FF,01,6C,20,00,07,F3,
4296834693,00000130,false,Rx,0,8,06,80,1E,7D,00,01,08,91,
4296834938,00000140,false,Rx,0,8,FF,FF,01,6C,20,00,08,48,
4296844687,00000130,false,Rx,0,8,09,80,26,7D,00,01,09,88,
4296844921,00000140,false,Rx,0,8,FF,FF,01,6C,20,00,09,55,
4296854555,00000500,false,Rx,0,1,0C,00,00,00,00,00,00,00,
4296854789,00000130,false,Rx,0,8,0A,80,26,7D,00,01,0A,48,
4296855027,00000140,false,Rx,0,8,FF,FF,01,6C,20,00,0A,72,
4296855266,00000495,false,Rx,0,8,00,00,12,8A,21,69,2C,64,
4296864682,00000130,false,Rx,0,8,FE,7F,19,7D,00,01,0B,CF,
4296864926,00000140,false,Rx,0,8,FF,FF,01,6C,20,00,0B,6F,
4296874676,00000130,false,Rx,0,8,FD,7F,13,7D,00,01,0C,D8,
4296874920,00000140,false,Rx,0,8,FF,FF,01,6C,20,00,0C,3C,
4296884682,00000130,false,Rx,0,8,FF,7F,FB,7C,00,01,0D,E8,
4296884916,00000140,false,Rx,0,8,FF,FF,01,6C,20,00,0D,21,
4296894676,00000130,false,Rx,0,8,09,80,FD,7C,00,01,0E,DD,
4296894920,00000140,false,Rx,0,8,FF,FF,01,6C,20,00,0E,06,
4296904692,00000130,false,Rx,0,8,14,80,13,7D,00,01,0F,69,
4296904926,00000140,false,Rx,0,8,FF,FF,01,6C,20,00,0F,1B,
4296914687,00000130,false,Rx,0,8,1C,80,12,7D,00,01,00,6A,
4296914931,00000140,false,Rx,0,8,FF,FF,01,6C,20,00,00,A0,
4296924692,00000130,false,Rx,0,8,0C,80,10,7D,00,01,01,1A,
4296924926,00000140,false,Rx,0,8,FF,FF,01,6C,20,00,01,BD,
4296934707,00000130,false,Rx,0,8,FE,7F,0A,7D,00,01,02,6A,
4296934941,00000140,false,Rx,0,8,FF,FF,01,6C,20,00,02,9A,
4296944692,00000130,false,Rx,0,8,00,80,01,7D,00,01,03,1F,
4296944926,00000140,false,Rx,0,8,FF,FF,01,6C,20,00,03,87,
4296954551,00000500,false,Rx,0,1,0C,00,00,00,00,00,00,00,
4296954794,00000130,false,Rx,0,8,00,80,07,7D,00,01,04,2D,
4296955034,00000140,false,Rx,0,8,FF,FF,01,6C,20,00,04,D4,
4296955272,00000495,false,Rx,0,8,00,00,12,8A,21,69,2C,64,
4296964676,00000130,false,Rx,0,8,FF,7F,0D,7D,00,01,05,6F,
4296964920,00000140,false,Rx,0,8,FF,FF,01,6C,20,00,05,C9,
4296974681,00000130,false,Rx,0,8,05,80,0C,7D,00,01,06,EA,
4296974915,00000140,false,Rx,0,8,FF,FF,01,6C,20,00,06,EE,
4296984676,00000130,false,Rx,0,8,0C,80,05,7D,00,01,07,65,
4296984921,00000140,false,Rx,0,8,FF,FF,01,6C,20,00,07,F3,
4296994682,00000130,false,Rx,0,8,0F,80,02,7D,00,01,08,32,
4296994927,00000140,false,Rx,0,8,FF,FF,01,6C,20,00,08,48,
4297004686,00000130,false,Rx,0,8,10,80,0D,7D,00,01,09,B6,
4297004922,00000140,false,Rx,0,8,FF,FF,01,6C,20,00,09,55,
4297014836,00000130,false,Rx,0,8,0F,80,04,7D,00,01,0A,69,
4297015071,00000140,false,Rx,0,8,FF,FF,01,6C,20,00,0A,72,
4297024697,00000130,false,Rx,0,8,0A,80,FE,7C,00,01,0B,ED,
4297024932,00000140,false,Rx,0,8,FF,FF,01,6C,20,00,0B,6F,
4297034692,00000130,false,Rx,0,8,0B,80,FF,7C,00,01,0C,89,
4297034927,00000140,false,Rx,0,8,FF,FF,01,6C,20,00,0C,3C,
4297044687,00000130,false,Rx,0,8,05,80,0E,7D,00,01,0D,F1,
4297044932,00000140,false,Rx,0,8,FF,FF,01,6C,20,00,0D,21,
4297054556,00000500,false,Rx,0,1,0C,00,00,00,00,00,00,00,
4297054789,00000130,false,Rx,0,8,05,80,1B,7D,00,01,0E,E7,
4297055029,00000140,false,Rx,0,8,FF,FF,01,6C,20,00,0E,06,
4297055267,00000495,false,Rx,0,8,00,00,12,8A,21,69,2C,64,
4297064692,00000130,false,Rx,0,8,04,80,13,7D,00,01,0F,D0,
4297064927,00000140,false,Rx,0,8,FF,FF,01,6C,20,00,0F,1B,
4297074687,00000130,false,Rx,0,8,08,80,0C,7D,00,01,00,42,
4297074923,00000140,false,Rx,0,8,FF,FF,01,6C,20,00,00,A0,
4297084693,00000130,false,Rx,0,8,10,80,18,7D,00,01,01,6F,
4297084928,00000140,false,Rx,0,8,FF,FF,01,6C,20,00,01,BD,
4297094676,00000130,false,Rx,0,8,17,80,37,7D,00,01,02,7B,
4297094922,00000140,false,Rx,0,8,FF,FF,01,6C,20,00,02,9A,
4297104692,00000130,false,Rx,0,8,16,80,34,7D,00,01,03,85,
4297104937,00000140,false,Rx,0,8,FF,FF,01,6C,20,00,03,87,
4297114687,00000130,false,Rx,0,8,0C,80,16,7D,00,01,04,12,
4297114933,00000140,false,Rx,0,8,FF,FF,01,6C,20,00,04,D4,
4297124681,00000130,false,Rx,0,8,09,80,20,7D,00,01,05,75,
4297124927,00000140,false,Rx,0,8,FF,FF,01,6C,20,00,05,C9,
4297134708,00000130,false,Rx,0,8,10,80,20,7D,00,01,06,64,
4297134942,00000140,false,Rx,0,8,FF,FF,01,6C,20,00,06,EE,
4297144683,00000130,false,Rx,0,8,0E,80,04,7D,00,01,07,B5,
4297144927,00000140,false,Rx,0,8,FF,FF,01,6C,20,00,07,F3,
4297154551,00000500,false,Rx,0,1,0C,00,00,00,00,00,00,00,
4297154795,00000130,false,Rx,0,8,0C,80,F0,7C,00,01,08,0F,
4297155033,00000140,false,Rx,0,8,FF,FF,01,6C,20,00,08,48,
4297155271,00000495,false,Rx,0,8,00,00,12,8A,21,69,2C,64,
4297164677,00000130,false,Rx,0,8,0A,80,07,7D,00,01,09,C4,
4297164921,00000140,false,Rx,0,8,FF,FF,01,6C,20,00,09,55,
4297174682,00000130,false,Rx,0,8,05,80,FC,7C,00,01,0A,78,
4297174916,00000140,false,Rx,0,8,FF,FF,01,6C,20,00,0A,72,
4297184677,00000130,false,Rx,0,8,FC,7F,06,7D,00,01,0B,E7,
4297184921,00000140,false,Rx,0,8,FF,FF,01,6C,20,00,0B,6F,
4297194672,00000130,false,Rx,0,8,F5,7F,1F,7D,00,01,0C,C8,
4297194917,00000140,false,Rx,0,8,FF,FF,01,6C,20,00,0C,3C,
4297204687,00000130,false,Rx,0,8,01,80,1C,7D,00,01,0D,A2,
4297204922,00000140,false,Rx,0,8,FF,FF,01,6C,20,00,0D,21,
4297214745,00000130,false,Rx,0,8,0B,80,22,7D,00,01,0E,D4,
4297214989,00000140,false,Rx,0,8,FF,FF,01,6C,20,00,0E,06,
4297224688,00000130,false,Rx,0,8,01,80,22,7D,00,01,0F,A1,
4297224922,00000140,false,Rx,0,8,FF,FF,01,6C,20,00,0F,1B,
4297234682,00000130,false,Rx,0,8,FD,7F,26,7D,00,01,00,B4,
4297234927,00000140,false,Rx,0,8,FF,FF,01,6C,20,00,00,A0,
4297244697,00000130,false,Rx,0,8,09,80,29,7D,00,01,01,1C,
4297244941,00000140,false,Rx,0,8,FF,FF,01,6C,20,00,01,BD,
4297254546,00000500,false,Rx,0,1,0C,00,00,00,00,00,00,00,
4297254790,00000130,false,Rx,0,8,19,80,22,7D,00,01,02,4B,
4297255028,00000140,false,Rx,0,8,FF,FF,01,6C,20,00,02,9A,
4297255256,00000495,false,Rx,0,8,00,00,12,8A,21,69,2C,64,
4297264681,00000130,false,Rx,0,8,16,80,12,7D,00,01,03,25,
4297264926,00000140,false,Rx,0,8,FF,FF,01,6C,20,00,03,87,
4297274677,00000130,false,Rx,0,8,0E,80,05,7D,00,01,04,F8,
4297274921,00000140,false,Rx,0,8,FF,FF,01,6C,20,00,04,D4,
4297284682,00000130,false,Rx,0,8,06,80,05,7D,00,01,05,37,
4297284916,00000140,false,Rx,0,8,FF,FF,01,6C,20,00,05,C9,
4297294687,00000130,false,Rx,0,8,0A,80,17,7D,00,01,06,91,
4297294921,00000140,false,Rx,0,8,FF,FF,01,6C,20,00,06,EE,
4297304692,00000130,false,Rx,0,8,0D,80,22,7D,00,01,07,F2,
4297304926,00000140,false,Rx,0,8,FF,FF,01,6C,20,00,07,F3,
4297314687,00000130,false,Rx,0,8,0B,80,1A,7D,00,01,08,C2,
4297314921,00000140,false,Rx,0,8,FF,FF,01,6C,20,00,08,48,
4297324682,00000130,false,Rx,0,8,03,80,14,7D,00,01,09,1B,
4297324926,00000140,false,Rx,0,8,FF,FF,01,6C,20,00,09,55,
4297334708,00000130,false,Rx,0,8,01,80,18,7D,00,01,0A,44,
4297334952,00000140,false,Rx,0,8,FF,FF,01,6C,20,00,0A,72,
4297344682,00000130,false,Rx,0,8,FA,7F,25,7D,00,01,0B,4B,
4297344926,00000140,false,Rx,0,8,FF,FF,01,6C,20,00,0B,6F,
4297354561,00000500,false,Rx,0,1,0C,00,00,00,00,00,00,00,
4297354794,00000130,false,Rx,0,8,FB,7F,16,7D,00,01,0C,D4,
4297355033,00000140,false,Rx,0,8,FF,FF,01,6C,20,00,0C,3C,
4297355272,00000495,false,Rx,0,8,00,00,12,8A,21,69,2C,64,
4297364688,00000130,false,Rx,0,8,09,80,13,7D,00,01,0D,0C,
4297364922,00000140,false,Rx,0,8,FF,FF,01,6C,20,00,0D,21,
4297374681,00000130,false,Rx,0,8,0D,80,26,7D,00,01,0E,B2,
4297374926,00000140,false,Rx,0,8,FF,FF,01,6C,20,00,0E,06,
4297384687,00000130,false,Rx,0,8,0C,80,34,7D,00,01,0F,C8,
4297384921,00000140,false,Rx,0,8,FF,FF,01,6C,20,00,0F,1B,
4297394681,00000130,false,Rx,0,8,FE,7F,2C,7D,00,01,00,F0,
4297394926,00000140,false,Rx,0,8,FF,FF,01,6C,20,00,00,A0,
4297404686,00000130,false,Rx,0,8,04,80,04,7D,00,01,01,93,
4297404931,00000140,false,Rx,0,8,FF,FF,01,6C,20,00,01,BD,
4297414826,00000130,false,Rx,0,8,11,80,E4,7C,00,01,02,D9,
4297415061,00000140,false,Rx,0,8,FF,FF,01,6C,20,00,02,9A,
4297424687,00000130,false,Rx,0,8,01,80,F0,7C,00,01,03,26,
4297424921,00000140,false,Rx,0,8,FF,FF,01,6C,20,00,03,87,
4297434692,00000130,false,Rx,0,8,00,80,07,7D,00,01,04,2D,
4297434926,00000140,false,Rx,0,8,FF,FF,01,6C,20,00,04,D4,
4297444686,00000130,false,Rx,0,8,0C,80,04,7D,00,01,05,35,
4297444920,00000140,false,Rx,0,8,FF,FF,01,6C,20,00,05,C9,
4297454545,00000500,false,Rx,0,1,0C,00,00,00,00,00,00,00,
4297454789,00000130,false,Rx,0,8,10,80,F9,7C,00,01,06,B6,
4297455028,00000140,false,Rx,0,8,FF,FF,01,6C,20,00,06,EE,
4297455266,00000495,false,Rx,0,8,00,00,12,8A,21,69,2C,64,
4297464682,00000130,false,Rx,0,8,18,80,08,7D,00,01,07,1D,
4297464916,00000140,false,Rx,0,8,FF,FF,01,6C,20,00,07,F3,
4297474676,00000130,false,Rx,0,8,19,80,20,7D,00,01,08,4D,
4297474922,00000140,false,Rx,0,8,FF,FF,01,6C,20,00,08,48,
4297484682,00000130,false,Rx,0,8,17,80,1F,7D,00,01,09,02,
4297484917,00000140,false,Rx,0,8,FF,FF,01,6C,20,00,09,55,
4297494676,00000130,false,Rx,0,8,1A,80,0D,7D,00,01,0A,F9,
4297494911,00000140,false,Rx,0,8,FF,FF,01,6C,20,00,0A,72,
4297504682,00000130,false,Rx,0,8,0A,80,07,7D,00,01,0B,FE,
4297504927,00000140,false,Rx,0,8,FF,FF,01,6C,20,00,0B,6F,
4297514686,00000130,false,Rx,0,8,0A,80,0D,7D,00,01,0C,0E,
4297514921,00000140,false,Rx,0,8,FF,FF,01,6C,20,00,0C,3C,
4297524682,00000130,false,Rx,0,8,0F,80,0A,7D,00,01,0D,2C,
4297524917,00000140,false,Rx,0,8,FF,FF,01,6C,20,00,0D,21,
4297534707,00000130,false,Rx,0,8,0D,80,18,7D,00,01,0E,8B,
4297534942,00000140,false,Rx,0,8,FF,FF,01,6C,20,00,0E,06,
4297544681,00000130,false,Rx,0,8,10,80,03,7D,00,01,0F,EE,
4297544917,00000140,false,Rx,0,8,FF,FF,01,6C,20,00,0F,1B,
4297554551,00000500,false,Rx,0,1,0C,00,00,00,00,00,00,00,
4297554795,00000130,false,Rx,0,8,0E,80,F9,7C,00,01,00,40,
4297555033,00000140,false,Rx,0,8,FF,FF,01,6C,20,00,00,A0,
4297555271,00000495,false,Rx,0,8,00,00,12,8A,21,69,2C,64,
4297564687,00000130,false,Rx,0,8,0B,80,F9,7C,00,01,01,69,
4297564922,00000140,false,Rx,0,8,FF,FF,01,6C,20,00,01,BD,
4297574681,00000130,false,Rx,0,8,09,80,02,7D,00,01,02,33,
4297574917,00000140,false,Rx,0,8,FF,FF,01,6C,20,00,02,9A,
4297584676,00000130,false,Rx,0,8,0E,80,04,7D,00,01,03,C1,
4297584921,00000140,false,Rx,0,8,FF,FF,01,6C,20,00,03,87,
4297594682,00000130,false,Rx,0,8,15,80,FC,7C,00,01,04,67,
4297594917,00000140,false,Rx,0,8,FF,FF,01,6C,20,00,04,D4,
4297604686,00000130,false,Rx,0,8,17,80,FC,7C,00,01,05,C0,
4297604931,00000140,false,Rx,0,8,FF,FF,01,6C,20,00,05,C9,
4297614827,00000130,false,Rx,0,8,16,80,18,7D,00,01,06,EF,
4297615061,00000140,false,Rx,0,8,FF,FF,01,6C,20,00,06,EE,
4297624687,00000130,false,Rx,0,8,09,80,1F,7D,00,01,07,1C,
4297624932,00000140,false,Rx,0,8,FF,FF,01,6C,20,00,07,F3,
4297634693,00000130,false,Rx,0,8,04,80,1D,7D,00,01,08,95,
4297634927,00000140,false,Rx,0,8,FF,FF,01,6C,20,00,08,48,
4297644698,00000130,false,Rx,0,8,04,80,17,7D,00,01,09,2B,
4297644932,00000140,false,Rx,0,8,FF,FF,01,6C,20,00,09,55,
4297654555,00000500,false,Rx,0,1,0C,00,00,00,00,00,00,00,
4297654800,00000130,false,Rx,0,8,10,80,1E,7D,00,01,0A,C1,
4297655038,00000140,false,Rx,0,8,FF,FF,01,6C,20,00,0A,72,
4297655266,00000495,false,Rx,0,8,00,00,12,8A,21,69,2C,64,
4297664683,00000130,false,Rx,0,8,0B,80,FC,7C,00,01,0B,64,
4297664927,00000140,false,Rx,0,8,FF,FF,01,6C,20,00,0B,6F,
4297674677,00000130,false,Rx,0,8,0C,80,EB,7C,00,01,0C,5C,
4297674921,00000140,false,Rx,0,8,FF,FF,01,6C,20,00,0C,3C,
4297684671,00000130,false,Rx,0,8,11,80,EC,7C,00,01,0D,15,
4297684916,00000140,false,Rx,0,8,FF,FF,01,6C,20,00,0D,21,
4297694677,00000130,false,Rx,0,8,12,80,F3,7C,00,01,0E,47,
4297694922,00000140,false,Rx,0,8,FF,FF,01,6C,20,00,0E,06,
4297704692,00000130,false,Rx,0,8,0E,80,FE,7C,00,01,0F,F0,
4297704926,00000140,false,Rx,0,8,FF,FF,01,6C,20,00,0F,1B,
4297714687,00000130,false,Rx,0,8,0E,80,0C,7D,00,01,00,91,
4297714932,00000140,false,Rx,0,8,FF,FF,01,6C,20,00,00,A0,
4297724682,00000130,false,Rx,0,8,0C,80,1E,7D,00,01,01,0C,
4297724926,00000140,false,Rx,0,8,FF,FF,01,6C,20,00,01,BD,
4297734697,00000130,false,Rx,0,8,11,80,2B,7D,00,01,02,84,
4297734942,00000140,false,Rx,0,8,FF,FF,01,6C,20,00,02,9A,
4297744692,00000130,false,Rx,0,8,11,80,2B,7D,00,01,03,99,
4297744936,00000140,false,Rx,0,8,FF,FF,01,6C,20,00,03,87,
4297754552,00000500,false,Rx,0,1,0C,00,00,00,00,00,00,00,
4297754795,00000130,false,Rx,0,8,07,80,16,7D,00,01,04,27,
4297754829,000005A0,false,Rx,1,8,00,00,00,C0,20,50,96,0C,
4297755035,00000140,false,Rx,0,8,FF,FF,01,6C,20,00,04,D4,
4297755264,00000495,false,Rx,0,8,00,00,12,8A,21,69,2C,64,
4297764680,00000130,false,Rx,0,8,07,80,FA,7C,00,01,05,18,
4297764914,00000140,false,Rx,0,8,FF,FF,01,6C,20,00,05,C9,
4297774673,00000130,false,Rx,0,8,11,80,04,7D,00,01,06,4D,
4297774917,00000140,false,Rx,0,8,FF,FF,01,6C,20,00,06,EE,
4297784677,00000130,false,Rx,0,8,17,80,0F,7D,00,01,07,4A,
4297784921,00000140,false,Rx,0,8,FF,FF,01,6C,20,00,07,F3,
4297794671,00000130,false,Rx,0,8,16,80,15,7D,00,01,08,E1,
4297794915,00000140,false,Rx,0,8,FF,FF,01,6C,20,00,08,48,
4297804685,00000130,false,Rx,0,8,16,80,10,7D,00,01,09,23,
4297804919,00000140,false,Rx,0,8,FF,FF,01,6C,20,00,09,55,
4297814740,00000130,false,Rx,0,8,18,80,08,7D,00,01,0A,9C,
4297814984,00000140,false,Rx,0,8,FF,FF,01,6C,20,00,0A,72,
4297824681,00000130,false,Rx,0,8,1B,80,15,7D,00,01,0B,20,
4297824915,00000140,false,Rx,0,8,FF,FF,01,6C,20,00,0B,6F,
4297834688,00000130,false,Rx,0,8,1B,80,1C,7D,00,01,0C,6E,
4297834932,00000140,false,Rx,0,8,FF,FF,01,6C,20,00,0C,3C,
4297844682,00000130,false,Rx,0,8,0E,80,0C,7D,00,01,0D,10,
4297844916,00000140,false,Rx,0,8,FF,FF,01,6C,20,00,0D,21,
4297854551,00000500,false,Rx,0,1,0C,00,00,00,00,00,00,00,
4297854784,00000130,false,Rx,0,8,0A,80,08,7D,00,01,0E,EB,
4297855022,00000140,false,Rx,0,8,FF,FF,01,6C,20,00,0E,06,
4297855262,00000495,false,Rx,0,8,00,00,12,8A,21,69,2C,64,
4297864677,00000130,false,Rx,0,8,0A,80,0F,7D,00,01,0F,FD,
4297864921,00000140,false,Rx,0,8,FF,FF,01,6C,20,00,0F,1B,
4297874671,00000130,false,Rx,0,8,FF,7F,1D,7D,00,01,00,E8,
4297874915,00000140,false,Rx,0,8,FF,FF,01,6C,20,00,00,A0,
4297884676,00000130,false,Rx,0,8,04,80,27,7D,00,01,01,EC,
4297884920,00000140,false,Rx,0,8,FF,FF,01,6C,20,00,01,BD,
4297894682,00000130,false,Rx,0,8,05,80,2A,7D,00,01,02,3E,
4297894916,00000140,false,Rx,0,8,FF,FF,01,6C,20,00,02,9A,
4297904687,00000130,false,Rx,0,8,06,80,14,7D,00,01,03,FD,
4297904931,00000140,false,Rx,0,8,FF,FF,01,6C,20,00,03,87,
4297914692,00000130,false,Rx,0,8,03,80,18,7D,00,01,04,58,
4297914936,00000140,false,Rx,0,8,FF,FF,01,6C,20,00,04,D4,
4297924686,00000130,false,Rx,0,8,07,80,22,7D,00,01,05,A0,
4297924920,00000140,false,Rx,0,8,FF,FF,01,6C,20,00,05,C9,
4297934712,00000130,false,Rx,0,8,12,80,15,7D,00,01,06,2E,
4297934948,00000140,false,Rx,0,8,FF,FF,01,6C,20,00,06,EE,
4297944687,00000130,false,Rx,0,8,15,80,F7,7C,00,01,07,89,
4297944921,00000140,false,Rx,0,8,FF,FF,01,6C,20,00,07,F3,
4297954556,00000500,false,Rx,0,1,0C,00,00,00,00,00,00,00,
4297954800,00000130,false,Rx,0,8,10,80,EF,7C,00,01,08,9F,
4297955039,00000140,false,Rx,0,8,FF,FF,01,6C,20,00,08,48,
4297955267,00000495,false,Rx,0,8,00,00,12,8A,21,69,2C,64,
4297964682,00000130,false,Rx,0,8,14,80,00,7D,00,01,09,77,
4297964927,00000140,false,Rx,0,8,FF,FF,01,6C,20,00,09,55,
4297974676,00000130,false,Rx,0,8,1D,80,01,7D,00,01,0A,B5,
4297974911,00000140,false,Rx,0,8,FF,FF,01,6C,20,00,0A,72,
4297984682,00000130,false,Rx,0,8,16,80,05,7D,00,01,0B,28,
4297984917,00000140,false,Rx,0,8,FF,FF,01,6C,20,00,0B,6F,
4297994676,00000130,false,Rx,0,8,0D,80,10,7D,00,01,0C,C6,
4297994921,00000140,false,Rx,0,8,FF,FF,01,6C,20,00,0C,3C,
4298004689,00000130,false,Rx,0,8,07,80,07,7D,00,01,0D,56,
4298004925,00000140,false,Rx,0,8,FF,FF,01,6C,20,00,0D,21,
4298014829,00000130,false,Rx,0,8,00,80,09,7D,00,01,0E,E9,
4298015063,00000140,false,Rx,0,8,FF,FF,01,6C,20,00,0E,06,
4298024676,00000130,false,Rx,0,8,FC,7F,04,7D,00,01,0F,47,
4298024911,00000140,false,Rx,0,8,FF,FF,01,6C,20,00,0F,1B,
4298034681,00000130,false,Rx,0,8,08,80,FF,7C,00,01,00,F2,
4298034927,00000140,false,Rx,0,8,FF,FF,01,6C,20,00,00,A0,
4298044676,00000130,false,Rx,0,8,07,80,FE,7C,00,01,01,D9,
4298044922,00000140,false,Rx,0,8,FF,FF,01,6C,20,00,01,BD,
4298054546,00000500,false,Rx,0,1,0C,00,00,00,00,00,00,00,
4298054790,00000130,false,Rx,0,8,06,80,EF,7C,00,01,02,27,
4298055028,00000140,false,Rx,0,8,FF,FF,01,6C,20,00,02,9A,
4298055256,00000495,false,Rx,0,8,00,00,12,8A,21,69,2C,64,
4298064682,00000130,false,Rx,0,8,07,80,EF,7C,00,01,03,67,
4298064917,00000140,false,Rx,0,8,FF,FF,01,6C,20,00,03,87,
4298074676,00000130,false,Rx,0,8,06,80,F8,7C,00,01,04,8C,
4298074921,00000140,false,Rx,0,8,FF,FF,01,6C,20,00,04,D4,
4298084681,00000130,false,Rx,0,8,0D,80,05,7D,00,01,05,02,
4298084916,00000140,false,Rx,0,8,FF,FF,01,6C,20,00,05,C9,
4298094676,00000130,false,Rx,0,8,0A,80,03,7D,00,01,06,CA,
4298094911,00000140,false,Rx,0,8,FF,FF,01,6C,20,00,06,EE,
4298104683,00000130,false,Rx,0,8,08,80,0D,7D,00,01,07,7B,
4298104927,00000140,false,Rx,0,8,FF,FF,01,6C,20,00,07,F3,
4298114687,00000130,false,Rx,0,8,07,80,1E,7D,00,01,08,CC,
4298114921,00000140,false,Rx,0,8,FF,FF,01,6C,20,00,08,48,
4298124671,00000130,false,Rx,0,8,09,80,1A,7D,00,01,09,65,
4298124916,00000140,false,Rx,0,8,FF,FF,01,6C,20,00,09,55,
4298134708,00000130,false,Rx,0,8,0F,80,06,7D,00,01,0A,BD,
4298134942,00000140,false,Rx,0,8,FF,FF,01,6C,20,00,0A,72,
4298144682,00000130,false,Rx,0,8,0A,80,0A,7D,00,01,0B,56,
4298144916,00000140,false,Rx,0,8,FF,FF,01,6C,20,00,0B,6F,
4298154551,00000500,false,Rx,0,1,0C,00,00,00,00,00,00,00,
4298154785,00000130,false,Rx,0,8,FF,7F,1B,7D,00,01,0C,15,
4298155034,00000140,false,Rx,0,8,FF,FF,01,6C,20,00,0C,3C,
4298155261,00000495,false,Rx,0,8,00,00,12,8A,21,69,2C,64,
3207527,00000700,false,Tx,1,8,02,3E,00,00,00,00,00,00,
4298164714,00000130,false,Rx,0,8,F9,7F,1E,7D,00,01,0D,04,
4298164917,00000140,false,Rx,0,8,FF,FF,01,6C,20,00,0D,21,
4298174682,00000130,false,Rx,0,8,00,80,1E,7D,00,01,0E,0C,
4298174926,00000140,false,Rx,0,8,FF,FF,01,6C,20,00,0E,06,
4298184677,00000130,false,Rx,0,8,FB,7F,28,7D,00,01,0F,CA,
4298184921,00000140,false,Rx,0,8,FF,FF,01,6C,20,00,0F,1B,
4298194671,00000130,false,Rx,0,8,FD,7F,28,7D,00,01,00,A2,
4298194915,00000140,false,Rx,0,8,FF,FF,01,6C,20,00,00,A0,
4298204684,00000130,false,Rx,0,8,04,80,0F,7D,00,01,01,5A,
4298204929,00000140,false,Rx,0,8,FF,FF,01,6C,20,00,01,BD,
4298214822,00000130,false,Rx,0,8,07,80,0F,7D,00,01,02,9A,
4298215067,00000140,false,Rx,0,8,FF,FF,01,6C,20,00,02,9A,
4298224682,00000130,false,Rx,0,8,09,80,18,7D,00,01,03,63,
4298224926,00000140,false,Rx,0,8,FF,FF,01,6C,20,00,03,87,
4298234687,00000130,false,Rx,0,8,05,80,0E,7D,00,01,04,04,
4298234932,00000140,false,Rx,0,8,FF,FF,01,6C,20,00,04,D4,
4298244702,00000130,false,Rx,0,8,F6,7F,0D,7D,00,01,05,E0,
4298244936,00000140,false,Rx,0,8,FF,FF,01,6C,20,00,05,C9,
4298254551,00000500,false,Rx,0,1,0C,00,00,00,00,00,00,00,
4298254795,00000130,false,Rx,0,8,FB,7F,1E,7D,00,01,06,71,
4298255033,00000140,false,Rx,0,8,FF,FF,01,6C,20,00,06,EE,
4298255262,00000495,false,Rx,0,8,00,00,12,8A,21,69,2C,64,
4298264677,00000130,false,Rx,0,8,05,80,22,7D,00,01,07,20,
4298264922,00000140,false,Rx,0,8,FF,FF,01,6C,20,00,07,F3,
4298274682,00000130,false,Rx,0,8,09,80,12,7D,00,01,08,0F,
4298274916,00000140,false,Rx,0,8,FF,FF,01,6C,20,00,08,48,
3322960,00000701,false,Tx,1,8,02,3E,00,00,00,00,00,00,
4298284676,00000130,false,Rx,0,8,0B,80,0E,7D,00,01,09,84,
4298284911,00000140,false,Rx,0,8,FF,FF,01,6C,20,00,09,55,
4298294680,00000130,false,Rx,0,8,07,80,15,7D,00,01,0A,3F,
4298294914,00000140,false,Rx,0,8,FF,FF,01,6C,20,00,0A,72,
4298304684,00000130,false,Rx,0,8,0F,80,0E,7D,00,01,0B,D7,
4298304928,00000140,false,Rx,0,8,FF,FF,01,6C,20,00,0B,6F,
4298314687,00000130,false,Rx,0,8,14,80,00,7D,00,01,0C,1E,
4298314922,00000140,false,Rx,0,8,FF,FF,01,6C,20,00,0C,3C,
4298324671,00000130,false,Rx,0,8,12,80,04,7D,00,01,0D,65,
4298324916,00000140,false,Rx,0,8,FF,FF,01,6C,20,00,0D,21,
4298334698,00000130,false,Rx,0,8,0C,80,06,7D,00,01,0E,2E,
4298334942,00000140,false,Rx,0,8,FF,FF,01,6C,20,00,0E,06,
4298344672,00000130,false,Rx,0,8,0A,80,FC,7C,00,01,0F,4D,
4298344916,00000140,false,Rx,0,8,FF,FF,01,6C,20,00,0F,1B,
4298354551,00000500,false,Rx,0,1,0C,00,00,00,00,00,00,00,
4298354784,00000130,false,Rx,0,8,07,80,FA,7C,00,01,00,71,
4298355033,00000140,false,Rx,0,8,FF,FF,01,6C,20,00,00,A0,
4298355262,00000495,false,Rx,0,8,00,00,12,8A,21,69,2C,64,
4298364677,00000130,false,Rx,0,8,10,80,01,7D,00,01,01,9C,
4298364921,00000140,false,Rx,0,8,FF,FF,01,6C,20,00,01,BD,
4298374682,00000130,false,Rx,0,8,1B,80,13,7D,00,01,02,B4,
4298374916,00000140,false,Rx,0,8,FF,FF,01,6C,20,00,02,9A,
4298384676,00000130,false,Rx,0,8,12,80,10,7D,00,01,03,98,
4298384910,00000140,false,Rx,0,8,FF,FF,01,6C,20,00,03,87,
3432222,00000702,false,Tx,1,8,02,3E,00,00,00,00,00,00,
4298394671,00000130,false,Rx,0,8,05,80,12,7D,00,01,04,28,
4298394915,00000140,false,Rx,0,8,FF,FF,01,6C,20,00,04,D4,
4298404676,00000130,false,Rx,0,8,08,80,2A,7D,00,01,05,8B,
4298404910,00000140,false,Rx,0,8,FF,FF,01,6C,20,00,05,C9,
4298414743,00000130,false,Rx,0,8,08,80,2D,7D,00,01,06,A7,
4298414978,00000140,false,Rx,0,8,FF,FF,01,6C,20,00,06,EE,
4298424686,00000130,false,Rx,0,8,06,80,0E,7D,00,01,07,C4,
4298424920,00000140,false,Rx,0,8,FF,FF,01,6C,20,00,07,F3,
4298434682,00000130,false,Rx,0,8,05,80,FB,7C,00,01,08,49,
4298434917,00000140,false,Rx,0,8,FF,FF,01,6C,20,00,08,48,
4298444676,00000130,false,Rx,0,8,02,80,F6,7C,00,01,09,72,
4298444911,00000140,false,Rx,0,8,FF,FF,01,6C,20,00,09,55,
4298454546,00000500,false,Rx,0,1,0C,00,00,00,00,00,00,00,
4298454789,00000130,false,Rx,0,8,0C,80,F9,7C,00,01,0A,28,
4298455029,00000140,false,Rx,0,8,FF,FF,01,6C,20,00,0A,72,
4298455257,00000495,false,Rx,0,8,00,00,12,8A,21,69,2C,64,
4298464672,00000130,false,Rx,0,8,17,80,FC,7C,00,01,0B,66,
4298464917,00000140,false,Rx,0,8,FF,FF,01,6C,20,00,0B,6F,
4298474676,00000130,false,Rx,0,8,19,80,0A,7D,00,01,0C,5B,
4298474912,00000140,false,Rx,0,8,FF,FF,01,6C,20,00,0C,3C,
4298484671,00000130,false,Rx,0,8,0E,80,09,7D,00,01,0D,CF,
4298484906,00000140,false,Rx,0,8,FF,FF,01,6C,20,00,0D,21,
3531047,00000703,false,Tx,1,8,02,3E,00,00,00,00,00,00,
4298494676,00000130,false,Rx,0,8,07,80,04,7D,00,01,0E,CF,
4298494912,00000140,false,Rx,0,8,FF,FF,01,6C,20,00,0E,06,
4298504681,00000130,false,Rx,0,8,0F,80,0D,7D,00,01,0F,1D,
4298504917,00000140,false,Rx,0,8,FF,FF,01,6C,20,00,0F,1B,
4298514686,00000130,false,Rx,0,8,15,80,12,7D,00,01,00,E5,
4298514921,00000140,false,Rx,0,8,FF,FF,01,6C,20,00,00,A0,
4298524681,00000130,false,Rx,0,8,0D,80,11,7D,00,01,01,2D,
4298524927,00000140,false,Rx,0,8,FF,FF,01,6C,20,00,01,BD,
4298534706,00000130,false,Rx,0,8,05,80,09,7D,00,01,02,41,
4298534942,00000140,false,Rx,0,8,FF,FF,01,6C,20,00,02,9A,
4298544692,00000130,false,Rx,0,8,05,80,0D,7D,00,01,03,E9,
4298544927,00000140,false,Rx,0,8,FF,FF,01,6C,20,00,03,87,
4298554552,00000500,false,Rx,0,1,0C,00,00,00,00,00,00,00,
4298554796,00000130,false,Rx,0,8,13,80,19,7D,00,01,04,8B,
4298555034,00000140,false,Rx,0,8,FF,FF,01,6C,20,00,04,D4,
4298555273,00000495,false,Rx,0,8,00,00,12,8A,21,69,2C,64,
4298564686,00000130,false,Rx,0,8,14,80,19,7D,00,01,05,18,
4298564921,00000140,false,Rx,0,8,FF,FF,01,6C,20,00,05,C9,
4298574679,00000130,false,Rx,0,8,0C,80,06,7D,00,01,06,C6,
4298574914,00000140,false,Rx,0,8,FF,FF,01,6C,20,00,06,EE,
4298584685,00000130,false,Rx,0,8,08,80,00,7D,00,01,07,D3,
4298584919,00000140,false,Rx,0,8,FF,FF,01,6C,20,00,07,F3,
4298594678,00000130,false,Rx,0,8,0B,80,11,7D,00,01,08,0B,
4298594912,00000140,false,Rx,0,8,FF,FF,01,6C,20,00,08,48,
4298604682,00000130,false,Rx,0,8,01,80,20,7D,00,01,09,3B,
4298604916,00000140,false,Rx,0,8,FF,FF,01,6C,20,00,09,55,
4298614811,00000130,false,Rx,0,8,0A,80,29,7D,00,01,0A,34,
4298615055,00000140,false,Rx,0,8,FF,FF,01,6C,20,00,0A,72,
3661780,00000704,false,Tx,1,8,02,3E,00,00,00,00,00,00,
4298624682,00000130,false,Rx,0,8,20,80,1C,7D,00,01,0B,DE,
4298624916,00000140,false,Rx,0,8,FF,FF,01,6C,20,00,0B,6F,
4298634677,00000130,false,Rx,0,8,20,80,18,7D,00,01,0C,38,
4298634921,00000140,false,Rx,0,8,FF,FF,01,6C,20,00,0C,3C,
4298644682,00000130,false,Rx,0,8,10,80,15,7D,00,01,0D,5B,
4298644916,00000140,false,Rx,0,8,FF,FF,01,6C,20,00,0D,21,
4298654540,00000500,false,Rx,0,1,0C,00,00,00,00,00,00,00,
4298654785,00000130,false,Rx,0,8,10,80,24,7D,00,01,0E,39,
4298655023,00000140,false,Rx,0,8,FF,FF,01,6C,20,00,0E,06,
4298655251,00000495,false,Rx,0,8,00,00,12,8A,21,69,2C,64,
4298664666,00000130,false,Rx,0,8,22,80,25,7D,00,01,0F,22,
4298664911,00000140,false,Rx,0,8,FF,FF,01,6C,20,00,0F,1B,
4298674671,00000130,false,Rx,0,8,19,80,28,7D,00,01,00,D2,
4298674916,00000140,false,Rx,0,8,FF,FF,01,6C,20,00,00,A0,
4298684667,00000130,false,Rx,0,8,0D,80,29,7D,00,01,01,75,
4298684911,00000140,false,Rx,0,8,FF,FF,01,6C,20,00,01,BD,
4298694672,00000130,false,Rx,0,8,05,80,21,7D,00,01,02,F7,
4298694917,00000140,false,Rx,0,8,FF,FF,01,6C,20,00,02,9A,
4298704687,00000130,false,Rx,0,8,00,80,19,7D,00,01,03,86,
4298704921,00000140,false,Rx,0,8,FF,FF,01,6C,20,00,03,87,
4298714671,00000130,false,Rx,0,8,10,80,0D,7D,00,01,04,37,
4298714916,00000140,false,Rx,0,8,FF,FF,01,6C,20,00,04,D4,
4298724687,00000130,false,Rx,0,8,18,80,F9,7C,00,01,05,43,
4298724921,00000140,false,Rx,0,8,FF,FF,01,6C,20,00,05,C9,
3771389,00000705,false,Tx,1,8,02,3E,00,00,00,00,00,00,
4298734702,00000130,false,Rx,0,8,15,80,F8,7C,00,01,06,E8,
4298734936,00000140,false,Rx,0,8,FF,FF,01,6C,20,00,06,EE,
4298744698,00000130,false,Rx,0,8,18,80,07,7D,00,01,07,61,
4298744942,00000140,false,Rx,0,8,FF,FF,01,6C,20,00,07,F3,
4298754546,00000500,false,Rx,0,1,0C,00,00,00,00,00,00,00,
4298754789,00000130,false,Rx,0,8,11,80,16,7D,00,01,08,D1,
4298754813,000005A0,false,Rx,1,8,00,00,00,C0,20,29,93,0C,
4298755029,00000140,false,Rx,0,8,FF,FF,01,6C,20,00,08,48,
4298755258,00000495,false,Rx,0,8,00,00,12,8A,21,69,2C,64,
4298764674,00000130,false,Rx,0,8,0D,80,1A,7D,00,01,09,0C,
4298764908,00000140,false,Rx,0,8,FF,FF,01,6C,20,00,09,55,
4298774667,00000130,false,Rx,0,8,13,80,1D,7D,00,01,0A,98,
4298774912,00000140,false,Rx,0,8,FF,FF,01,6C,20,00,0A,72,
4298784671,00000130,false,Rx,0,8,0C,80,11,7D,00,01,0B,A2,
4298784905,00000140,false,Rx,0,8,FF,FF,01,6C,20,00,0B,6F,
4298794676,00000130,false,Rx,0,8,04,80,FC,7C,00,01,0C,6B,
4298794910,00000140,false,Rx,0,8,FF,FF,01,6C,20,00,0C,3C,
4298804682,00000130,false,Rx,0,8,0A,80,FC,7C,00,01,0D,77,
4298804916,00000140,false,Rx,0,8,FF,FF,01,6C,20,00,0D,21,
4298814821,00000130,false,Rx,0,8,16,80,0A,7D,00,01,0E,3D,
4298815055,00000140,false,Rx,0,8,FF,FF,01,6C,20,00,0E,06,
4298824682,00000130,false,Rx,0,8,17,80,0F,7D,00,01,0F,A2,
4298824916,00000140,false,Rx,0,8,FF,FF,01,6C,20,00,0F,1B,
4298834687,00000130,false,Rx,0,8,0E,80,12,7D,00,01,00,69,
4298834931,00000140,false,Rx,0,8,FF,FF,01,6C,20,00,00,A0,
3883217,00000706,false,Tx,1,8,02,3E,00,00,00,00,00,00,
4298844681,00000130,false,Rx,0,8,0E,80,19,7D,00,01,01,BD,
4298844926,00000140,false,Rx,0,8,FF,FF,01,6C,20,00,01,BD,
4298854551,00000500,false,Rx,0,1,0C,00,00,00,00,00,00,00,
4298854795,00000130,false,Rx,0,8,0A,80,1B,7D,00,01,02,27,
4298855034,00000140,false,Rx,0,8,FF,FF,01,6C,20,00,02,9A,
4298855262,00000495,false,Rx,0,8,00,00,12,8A,21,69,2C,64,
4298864687,00000130,false,Rx,0,8,FE,7F,11,7D,00,01,03,50,
4298864921,00000140,false,Rx,0,8,FF,FF,01,6C,20,00,03,87,
4298874671,00000130,false,Rx,0,8,F9,7F,0D,7D,00,01,04,A1,
4298874915,00000140,false,Rx,0,8,FF,FF,01,6C,20,00,04,D4,
4298884676,00000130,false,Rx,0,8,00,80,0F,7D,00,01,05,47,
4298884910,00000140,false,Rx,0,8,FF,FF,01,6C,20,00,05,C9,
4298894681,00000130,false,Rx,0,8,0A,80,04,7D,00,01,06,C1,
4298894915,00000140,false,Rx,0,8,FF,FF,01,6C,20,00,06,EE,
4298904676,00000130,false,Rx,0,8,04,80,06,7D,00,01,07,09,
4298904921,00000140,false,Rx,0,8,FF,FF,01,6C,20,00,07,F3,
4298914681,00000130,false,Rx,0,8,07,80,09,7D,00,01,08,29,
4298914917,00000140,false,Rx,0,8,FF,FF,01,6C,20,00,08,48,
4298924676,00000130,false,Rx,0,8,0E,80,13,7D,00,01,09,F6,
4298924911,00000140,false,Rx,0,8,FF,FF,01,6C,20,00,09,55,
4298934692,00000130,false,Rx,0,8,06,80,20,7D,00,01,0A,92,
4298934937,00000140,false,Rx,0,8,FF,FF,01,6C,20,00,0A,72,
4298944676,00000130,false,Rx,0,8,08,80,1A,7D,00,01,0B,02,
4298944912,00000140,false,Rx,0,8,FF,FF,01,6C,20,00,0B,6F,
3994757,00000707,false,Tx,1,8,02,3E,00,00,00,00,00,00,
4298954546,00000500,false,Rx,0,1,0C,00,00,00,00,00,00,00,
4298954779,00000130,false,Rx,0,8,11,80,F7,7C,00,01,0C,2F,
4298955018,00000140,false,Rx,0,8,FF,FF,01,6C,20,00,0C,3C,
4298955256,00000495,false,Rx,0,8,00,00,12,8A,21,69,2C,64,
4298964671,00000130,false,Rx,0,8,19,80,FC,7C,00,01,0D,29,
4298964906,00000140,false,Rx,0,8,FF,FF,01,6C,20,00,0D,21,
4298974666,00000130,false,Rx,0,8,1B,80,15,7D,00,01,0E,49,
4298974911,00000140,false,Rx,0,8,FF,FF,01,6C,20,00,0E,06,
4298984671,00000130,false,Rx,0,8,1A,80,18,7D,00,01,0F,A1,
4298984906,00000140,false,Rx,0,8,FF,FF,01,6C,20,00,0F,1B,
4298994676,00000130,false,Rx,0,8,12,80,27,7D,00,01,00,9B,
4298994922,00000140,false,Rx,0,8,FF,FF,01,6C,20,00,00,A0,
4299004681,00000130,false,Rx,0,8,0B,80,3E,7D,00,01,01,43,
4299004927,00000140,false,Rx,0,8,FF,FF,01,6C,20,00,01,BD,
4299014739,00000130,false,Rx,0,8,07,80,30,7D,00,01,02,C9,
4299014974,00000140,false,Rx,0,8,FF,FF,01,6C,20,00,02,9A,
4299024671,00000130,false,Rx,0,8,0A,80,1A,7D,00,01,03,50,
4299024916,00000140,false,Rx,0,8,FF,FF,01,6C,20,00,03,87,
4299034687,00000130,false,Rx,0,8,03,80,0B,7D,00,01,04,08,
4299034922,00000140,false,Rx,0,8,FF,FF,01,6C,20,00,04,D4,
4299044681,00000130,false,Rx,0,8,04,80,02,7D,00,01,05,86,
4299044916,00000140,false,Rx,0,8,FF,FF,01,6C,20,00,05,C9,
4299054540,00000500,false,Rx,0,1,0C,00,00,00,00,00,00,00,
4299054785,00000130,false,Rx,0,8,0C,80,06,7D,00,01,06,C6,
4299055023,00000140,false,Rx,0,8,FF,FF,01,6C,20,00,06,EE,
4299055251,00000495,false,Rx,0,8,00,00,12,8A,21,69,2C,64,
4106887,00000708,false,Tx,1,8,02,3E,00,00,00,00,00,00,
4299064677,00000130,false,Rx,0,8,0E,80,0B,7D,00,01,07,C9,
4299064921,00000140,false,Rx,0,8,FF,FF,01,6C,20,00,07,F3,
4299074672,00000130,false,Rx,0,8,FF,7F,12,7D,00,01,08,7C,
4299074906,00000140,false,Rx,0,8,FF,FF,01,6C,20,00,08,48,
4299084668,00000130,false,Rx,0,8,F8,7F,15,7D,00,01,09,E4,
4299084902,00000140,false,Rx,0,8,FF,FF,01,6C,20,00,09,55,
4299094672,00000130,false,Rx,0,8,02,80,FF,7C,00,01,0A,48,
4299094906,00000140,false,Rx,0,8,FF,FF,01,6C,20,00,0A,72,
4299104677,00000130,false,Rx,0,8,01,80,FD,7C,00,01,0B,66,
4299104921,00000140,false,Rx,0,8,FF,FF,01,6C,20,00,0B,6F,
4299114683,00000130,false,Rx,0,8,FE,7F,06,7D,00,01,0C,0E,
4299114927,00000140,false,Rx,0,8,FF,FF,01,6C,20,00,0C,3C,
4299124677,00000130,false,Rx,0,8,04,80,15,7D,00,01,0D,8B,
4299124911,00000140,false,Rx,0,8,FF,FF,01,6C,20,00,0D,21,
4299134693,00000130,false,Rx,0,8,08,80,23,7D,00,01,0E,59,
4299134937,00000140,false,Rx,0,8,FF,FF,01,6C,20,00,0E,06,
4299144677,00000130,false,Rx,0,8,0E,80,21,7D,00,01,0F,43,
4299144911,00000140,false,Rx,0,8,FF,FF,01,6C,20,00,0F,1B,
4299154556,00000500,false,Rx,0,1,0C,00,00,00,00,00,00,00,
4299154799,00000130,false,Rx,0,8,08,80,1E,7D,00,01,00,78,
4299155038,00000140,false,Rx,0,8,FF,FF,01,6C,20,00,00,A0,
4299155276,00000495,false,Rx,0,8,00,00,12,8A,21,69,2C,64,
4202670,00000709,false,Tx,1,8,02,3E,00,00,00,00,00,00,
4299164682,00000130,false,Rx,0,8,05,80,23,7D,00,01,01,04,
4299164916,00000140,false,Rx,0,8,FF,FF,01,6C,20,00,01,BD,
4299174677,00000130,false,Rx,0,8,06,80,36,7D,00,01,02,F5,
4299174911,00000140,false,Rx,0,8,FF,FF,01,6C,20,00,02,9A,
4299184671,00000130,false,Rx,0,8,0C,80,21,7D,00,01,03,65,
4299184915,00000140,false,Rx,0,8,FF,FF,01,6C,20,00,03,87,
4299194677,00000130,false,Rx,0,8,02,80,0C,7D,00,01,04,5E,
4299194911,00000140,false,Rx,0,8,FF,FF,01,6C,20,00,04,D4,
4299204682,00000130,false,Rx,0,8,F8,7F,12,7D,00,01,05,73,
4299204916,00000140,false,Rx,0,8,FF,FF,01,6C,20,00,05,C9,
4299214821,00000130,false,Rx,0,8,01,80,13,7D,00,01,06,11,
4299215055,00000140,false,Rx,0,8,FF,FF,01,6C,20,00,06,EE,
4299224671,00000130,false,Rx,0,8,07,80,10,7D,00,01,07,61,
4299224916,00000140,false,Rx,0,8,FF,FF,01,6C,20,00,07,F3,
4299234677,00000130,false,Rx,0,8,02,80,1B,7D,00,01,08,27,
4299234921,00000140,false,Rx,0,8,FF,FF,01,6C,20,00,08,48,
4299244692,00000130,false,Rx,0,8,04,80,1E,7D,00,01,09,36,
4299244926,00000140,false,Rx,0,8,FF,FF,01,6C,20,00,09,55,
4299254542,00000500,false,Rx,0,1,0C,00,00,00,00,00,00,00,
4299254775,00000130,false,Rx,0,8,0D,80,1C,7D,00,01,0A,4A,
4299255013,00000140,false,Rx,0,8,FF,FF,01,6C,20,00,0A,72,
4299255252,00000495,false,Rx,0,8,00,00,12,8A,21,69,2C,64,
4299264676,00000130,false,Rx,0,8,09,80,15,7D,00,01,0B,23,
4299264921,00000140,false,Rx,0,8,FF,FF,01,6C,20,00,0B,6F,
4315160,0000070A,false,Tx,1,8,02,3E,00,00,00,00,00,00,
4299274671,00000130,false,Rx,0,8,04,80,25,7D,00,01,0C,B9,
4299274915,00000140,false,Rx,0,8,FF,FF,01,6C,20,00,0C,3C,
4299284667,00000130,false,Rx,0,8,FE,7F,24,7D,00,01,0D,06,
4299284911,00000140,false,Rx,0,8,FF,FF,01,6C,20,00,0D,21,
4299294671,00000130,false,Rx,0,8,07,80,11,7D,00,01,0E,FE,
4299294905,00000140,false,Rx,0,8,FF,FF,01,6C,20,00,0E,06,
4299304676,00000130,false,Rx,0,8,0F,80,21,7D,00,01,0F,1E,
4299304910,00000140,false,Rx,0,8,FF,FF,01,6C,20,00,0F,1B,
4299314672,00000130,false,Rx,0,8,0B,80,29,7D,00,01,00,BB,
4299314916,00000140,false,Rx,0,8,FF,FF,01,6C,20,00,00,A0,
4299324667,00000130,false,Rx,0,8,03,80,2A,7D,00,01,01,CA,
4299324911,00000140,false,Rx,0,8,FF,FF,01,6C,20,00,01,BD,
4299334692,00000130,false,Rx,0,8,0A,80,34,7D,00,01,02,9A,
4299334937,00000140,false,Rx,0,8,FF,FF,01,6C,20,00,02,9A,
4299344666,00000130,false,Rx,0,8,0B,80,31,7D,00,01,03,05,
4299344911,00000140,false,Rx,0,8,FF,FF,01,6C,20,00,03,87,
4299354546,00000500,false,Rx,0,1,0C,00,00,00,00,00,00,00,
4299354779,00000130,false,Rx,0,8,10,80,24,7D,00,01,04,EB,
4299355019,00000140,false,Rx,0,8,FF,FF,01,6C,20,00,04,D4,
4299355257,00000495,false,Rx,0,8,00,00,12,8A,21,69,2C,64,
4299364672,00000130,false,Rx,0,8,16,80,2D,7D,00,01,05,38,
4299364906,00000140,false,Rx,0,8,FF,FF,01,6C,20,00,05,C9,
4299374666,00000130,false,Rx,0,8,1C,80,33,7D,00,01,06,8F,
4299374910,00000140,false,Rx,0,8,FF,FF,01,6C,20,00,06,EE,
4299384671,00000130,false,Rx,0,8,18,80,21,7D,00,01,07,C1,
4299384915,00000140,false,Rx,0,8,FF,FF,01,6C,20,00,07,F3,
4433483,0000070B,false,Tx,1,8,02,3E,00,00,00,00,00,00,
4299394665,00000130,false,Rx,0,8,15,80,0A,7D,00,01,08,94,
4299394910,00000140,false,Rx,0,8,FF,FF,01,6C,20,00,08,48,
4299404671,00000130,false,Rx,0,8,15,80,13,7D,00,01,09,7A,
4299404917,00000140,false,Rx,0,8,FF,FF,01,6C,20,00,09,55,
4299414821,00000130,false,Rx,0,8,0B,80,30,7D,00,01,0A,9A,
4299415057,00000140,false,Rx,0,8,FF,FF,01,6C,20,00,0A,72,
4299424671,00000130,false,Rx,0,8,04,80,38,7D,00,01,0B,AC,
4299424917,00000140,false,Rx,0,8,FF,FF,01,6C,20,00,0B,6F,
4299434677,00000130,false,Rx,0,8,09,80,3B,7D,00,01,0C,A7,
4299434922,00000140,false,Rx,0,8,FF,FF,01,6C,20,00,0C,3C,
4299444671,00000130,false,Rx,0,8,07,80,31,7D,00,01,0D,18,
4299444916,00000140,false,Rx,0,8,FF,FF,01,6C,20,00,0D,21,
4299454551,00000500,false,Rx,0,1,0C,00,00,00,00,00,00,00,
4299454784,00000130,false,Rx,0,8,05,80,21,7D,00,01,0E,6B,
4299455023,00000140,false,Rx,0,8,FF,FF,01,6C,20,00,0E,06,
4299455262,00000495,false,Rx,0,8,00,00,12,8A,21,69,2C,64,
4299464677,00000130,false,Rx,0,8,0C,80,16,7D,00,01,0F,DD,
4299464912,00000140,false,Rx,0,8,FF,FF,01,6C,20,00,0F,1B,
4299474671,00000130,false,Rx,0,8,0D,80,1D,7D,00,01,00,F2,
4299474916,00000140,false,Rx,0,8,FF,FF,01,6C,20,00,00,A0,
4299484676,00000130,false,Rx,0,8,09,80,16,7D,00,01,01,4F,
4299484911,00000140,false,Rx,0,8,FF,FF,01,6C,20,00,01,BD,
4299494671,00000130,false,Rx,0,8,0D,80,17,7D,00,01,02,6B,
4539062,0000070C,false,Tx,1,8,02,3E,00,00,00,00,00,00,
4299494906,00000140,false,Rx,0,8,FF,FF,01,6C,20,00,02,9A,
4299504676,00000130,false,Rx,0,8,13,80,04,7D,00,01,03,9E,
4299504921,00000140,false,Rx,0,8,FF,FF,01,6C,20,00,03,87,
4299514681,00000130,false,Rx,0,8,11,80,01,7D,00,01,04,A8,
4299514916,00000140,false,Rx,0,8,FF,FF,01,6C,20,00,04,D4,
4299524676,00000130,false,Rx,0,8,12,80,0B,7D,00,01,05,F1,
4299524911,00000140,false,Rx,0,8,FF,FF,01,6C,20,00,05,C9,
4299534703,00000130,false,Rx,0,8,0B,80,1D,7D,00,01,06,6F,
4299534937,00000140,false,Rx,0,8,FF,FF,01,6C,20,00,06,EE,
4299544677,00000130,false,Rx,0,8,06,80,16,7D,00,01,07,5D,
4299544911,00000140,false,Rx,0,8,FF,FF,01,6C,20,00,07,F3,
4299554545,00000500,false,Rx,0,1,0C,00,00,00,00,00,00,00,
4299554780,00000130,false,Rx,0,8,04,80,04,7D,00,01,08,66,
4299555028,00000140,false,Rx,0,8,FF,FF,01,6C,20,00,08,48,
4299555256,00000495,false,Rx,0,8,00,00,12,8A,21,69,2C,64,
4299564672,00000130,false,Rx,0,8,02,80,11,7D,00,01,09,99,
4299564906,00000140,false,Rx,0,8,FF,FF,01,6C,20,00,09,55,
4299574666,00000130,false,Rx,0,8,FB,7F,1D,7D,00,01,0A,53,
4299574900,00000140,false,Rx,0,8,FF,FF,01,6C,20,00,0A,72,
4299584670,00000130,false,Rx,0,8,FC,7F,20,7D,00,01,0B,47,
4299584904,00000140,false,Rx,0,8,FF,FF,01,6C,20,00,0B,6F,
4299594663,00000130,false,Rx,0,8,04,80,17,7D,00,01,0C,42,
4299594908,00000140,false,Rx,0,8,FF,FF,01,6C,20,00,0C,3C,
4299604677,00000130,false,Rx,0,8,10,80,15,7D,00,01,0D,5B,
4299604911,00000140,false,Rx,0,8,FF,FF,01,6C,20,00,0D,21,
4299614734,00000130,false,Rx,0,8,11,80,0C,7D,00,01,0E,D2,
4299614979,00000140,false,Rx,0,8,FF,FF,01,6C,20,00,0E,06,
4299624677,00000130,false,Rx,0,8,09,80,11,7D,00,01,0F,E2,
4299624911,00000140,false,Rx,0,8,FF,FF,01,6C,20,00,0F,1B,
4299634682,00000130,false,Rx,0,8,00,80,14,7D,00,01,00,09,
4299634927,00000140,false,Rx,0,8,FF,FF,01,6C,20,00,00,A0,
4683880,0000070D,false,Tx,1,8,02,3E,00,00,00,00,00,00,
4299644665,00000130,false,Rx,0,8,05,80,1A,7D,00,01,01,36,
4299644909,00000140,false,Rx,0,8,FF,FF,01,6C,20,00,01,BD,
4299654543,00000500,false,Rx,0,1,0C,00,00,00,00,00,00,00,
4299654776,00000130,false,Rx,0,8,08,80,26,7D,00,01,02,1A,
4299655014,00000140,false,Rx,0,8,FF,FF,01,6C,20,00,02,9A,
4299655252,00000495,false,Rx,0,8,00,00,12,8A,21,69,2C,64,
4299664667,00000130,false,Rx,0,8,04,80,1A,7D,00,01,03,51,
4299664911,00000140,false,Rx,0,8,FF,FF,01,6C,20,00,03,87,
4299674661,00000130,false,Rx,0,8,FE,7F,17,7D,00,01,04,62,
4299674905,00000140,false,Rx,0,8,FF,FF,01,6C,20,00,04,D4,
4299684666,00000130,false,Rx,0,8,FF,7F,23,7D,00,01,05,B8,
4299684900,00000140,false,Rx,0,8,FF,FF,01,6C,20,00,05,C9,
4299694671,00000130,false,Rx,0,8,04,80,2A,7D,00,01,06,17,
4299694906,00000140,false,Rx,0,8,FF,FF,01,6C,20,00,06,EE,
4299704677,00000130,false,Rx,0,8,0D,80,1C,7D,00,01,07,CB,
4299704921,00000140,false,Rx,0,8,FF,FF,01,6C,20,00,07,F3,
4299714682,00000130,false,Rx,0,8,0C,80,0F,7D,00,01,08,7D,
4299714916,00000140,false,Rx,0,8,FF,FF,01,6C,20,00,08,48,
4299724677,00000130,false,Rx,0,8,0F,80,FF,7C,00,01,09,89,
4299724921,00000140,false,Rx,0,8,FF,FF,01,6C,20,00,09,55,
4299734702,00000130,false,Rx,0,8,0D,80,FC,7C,00,01,0A,AA,
4299734936,00000140,false,Rx,0,8,FF,FF,01,6C,20,00,0A,72,
4299744697,00000130,false,Rx,0,8,09,80,FD,7C,00,01,0B,B4,
4299744931,00000140,false,Rx,0,8,FF,FF,01,6C,20,00,0B,6F,
4794943,0000070E,false,Tx,1,8,02,3E,00,00,00,00,00,00,
4299754546,00000500,false,Rx,0,1,0C,00,00,00,00,00,00,00,
4299754790,00000130,false,Rx,0,8,0A,80,FF,7C,00,01,0C,D4,
4299754824,000005A0,false,Rx,1,8,00,00,00,C0,20,09,94,0C,
4299755030,00000140,false,Rx,0,8,FF,FF,01,6C,20,00,0C,3C,
4299755259,00000495,false,Rx,0,8,00,00,12,8A,21,69,2C,64,
4299764674,00000130,false,Rx,0,8,0D,80,0A,7D,00,01,0D,96,
4299764908,00000140,false,Rx,0,8,FF,FF,01,6C,20,00,0D,21,
4299774667,00000130,false,Rx,0,8,18,80,06,7D,00,01,0E,FE,
4299774912,00000140,false,Rx,0,8,FF,FF,01,6C,20,00,0E,06,
4299784671,00000130,false,Rx,0,8,14,80,FD,7C,00,01,0F,9F,
4299784905,00000140,false,Rx,0,8,FF,FF,01,6C,20,00,0F,1B,
4299794676,00000130,false,Rx,0,8,18,80,FB,7C,00,01,00,FE,
4299794921,00000140,false,Rx,0,8,FF,FF,01,6C,20,00,00,A0,
4299804682,00000130,false,Rx,0,8,18,80,0A,7D,00,01,01,87,
4299804926,00000140,false,Rx,0,8,FF,FF,01,6C,20,00,01,BD,
4299814811,00000130,false,Rx,0,8,16,80,0B,7D,00,01,02,CB,
4299815046,00000140,false,Rx,0,8,FF,FF,01,6C,20,00,02,9A,
4299824671,00000130,false,Rx,0,8,15,80,03,7D,00,01,03,46,
4299824916,00000140,false,Rx,0,8,FF,FF,01,6C,20,00,03,87,
4299834677,00000130,false,Rx,0,8,10,80,04,7D,00,01,04,2A,
4299834921,00000140,false,Rx,0,8,FF,FF,01,6C,20,00,04,D4,
4299844671,00000130,false,Rx,0,8,12,80,10,7D,00,01,05,D6,
4299844915,00000140,false,Rx,0,8,FF,FF,01,6C,20,00,05,C9,
4299854540,00000500,false,Rx,0,1,0C,00,00,00,00,00,00,00,
4299854784,00000130,false,Rx,0,8,0E,80,09,7D,00,01,06,00,
4299855023,00000140,false,Rx,0,8,FF,FF,01,6C,20,00,06,EE,
4299855261,00000495,false,Rx,0,8,00,00,12,8A,21,69,2C,64,
4299864676,00000130,false,Rx,0,8,FF,7F,01,7D,00,01,07,97,
4299864910,00000140,false,Rx,0,8,FF,FF,01,6C,20,00,07,F3,
4299874671,00000130,false,Rx,0,8,04,80,0B,7D,00,01,08,1A,
4918101,0000070F,false,Tx,1,8,02,3E,00,00,00,00,00,00,
4299874905,00000140,false,Rx,0,8,FF,FF,01,6C,20,00,08,48,
4299884666,00000130,false,Rx,0,8,0A,80,11,7D,00,01,09,4B,
4299884902,00000140,false,Rx,0,8,FF,FF,01,6C,20,00,09,55,
4299894671,00000130,false,Rx,0,8,11,80,10,7D,00,01,0A,8A,
4299894906,00000140,false,Rx,0,8,FF,FF,01,6C,20,00,0A,72,
4299904676,00000130,false,Rx,0,8,15,80,19,7D,00,01,0B,E3,
4299904912,00000140,false,Rx,0,8,FF,FF,01,6C,20,00,0B,6F,
4299914671,00000130,false,Rx,0,8,11,80,FA,7C,00,01,0C,87,
4299914917,00000140,false,Rx,0,8,FF,FF,01,6C,20,00,0C,3C,
4299924667,00000130,false,Rx,0,8,0A,80,E7,7C,00,01,0D,50,
4299924902,00000140,false,Rx,0,8,FF,FF,01,6C,20,00,0D,21,
4299934691,00000130,false,Rx,0,8,14,80,F3,7C,00,01,0E,94,
4299934927,00000140,false,Rx,0,8,FF,FF,01,6C,20,00,0E,06,
4299944666,00000130,false,Rx,0,8,15,80,07,7D,00,01,0F,6F,
4299944901,00000140,false,Rx,0,8,FF,FF,01,6C,20,00,0F,1B,
4299954535,00000500,false,Rx,0,1,0C,00,00,00,00,00,00,00,
4299954779,00000130,false,Rx,0,8,0A,80,04,7D,00,01,00,8F,
4299955028,00000140,false,Rx,0,8,FF,FF,01,6C,20,00,00,A0,
4299955256,00000495,false,Rx,0,8,00,00,12,8A,21,69,2C,64,
4299964671,00000130,false,Rx,0,8,0F,80,F4,7C,00,01,01,A8,
4299964917,00000140,false,Rx,0,8,FF,FF,01,6C,20,00,01,BD,
5017584,00000710,false,Tx,1,8,02,3E,00,00,00,00,00,00,
4299974665,00000130,false,Rx,0,8,1D,80,FC,7C,00,01,02,FB,
4299974938,00000140,false,Rx,0,8,FF,FF,01,6C,20,00,02,9A,
4299984670,00000130,false,Rx,0,8,17,80,15,7D,00,01,03,73,
4299984905,00000140,false,Rx,0,8,FF,FF,01,6C,20,00,03,87,
4299994674,00000130,false,Rx,0,8,0A,80,15,7D,00,01,04,7F,
4299994909,00000140,false,Rx,0,8,FF,FF,01,6C,20,00,04,D4,
4300004677,00000130,false,Rx,0,8,0A,80,0B,7D,00,01,05,9A,
4300004913,00000140,false,Rx,0,8,FF,FF,01,6C,20,00,05,C9,
4300014817,00000130,false,Rx,0,8,0E,80,17,7D,00,01,06,F8,
4300015051,00000140,false,Rx,0,8,FF,FF,01,6C,20,00,06,EE,
4300024677,00000130,false,Rx,0,8,0F,80,0E,7D,00,01,07,4B,
4300024921,00000140,false,Rx,0,8,FF,FF,01,6C,20,00,07,F3,
4300034682,00000130,false,Rx,0,8,0A,80,F8,7C,00,01,08,AB,
4300034916,00000140,false,Rx,0,8,FF,FF,01,6C,20,00,08,48,
4300044678,00000130,false,Rx,0,8,10,80,05,7D,00,01,09,C1,
4300044912,00000140,false,Rx,0,8,FF,FF,01,6C,20,00,09,55,
4300054545,00000500,false,Rx,0,1,0C,00,00,00,00,00,00,00,
4300054789,00000130,false,Rx,0,8,20,80,17,7D,00,01,0A,0A,
4300055028,00000140,false,Rx,0,8,FF,FF,01,6C,20,00,0A,72,
4300055256,00000495,false,Rx,0,8,00,00,12,8A,21,69,2C,64,
4300064672,00000130,false,Rx,0,8,1F,80,25,7D,00,01,0B,66,
4300064917,00000140,false,Rx,0,8,FF,FF,01,6C,20,00,0B,6F,
4300074677,00000130,false,Rx,0,8,0B,80,23,7D,00,01,0C,84,
4300074911,00000140,false,Rx,0,8,FF,FF,01,6C,20,00,0C,3C,
5126416,00000711,false,Tx,1,8,02,3E,00,00,00,00,00,00,
4300084667,00000130,false,Rx,0,8,06,80,13,7D,00,01,0D,50,
4300084911,00000140,false,Rx,0,8,FF,FF,01,6C,20,00,0D,21,
4300094662,00000130,false,Rx,0,8,06,80,0A,7D,00,01,0E,84,
4300094906,00000140,false,Rx,0,8,FF,FF,01,6C,20,00,0E,06,
4300104677,00000130,false,Rx,0,8,08,80,0D,7D,00,01,0F,93,
4300104911,00000140,false,Rx,0,8,FF,FF,01,6C,20,00,0F,1B,
4300114672,00000130,false,Rx,0,8,06,80,17,7D,00,01,00,64,
4300114916,00000140,false,Rx,0,8,FF,FF,01,6C,20,00,00,A0,
4300124667,00000130,false,Rx,0,8,0C,80,2A,7D,00,01,01,96,
4300124911,00000140,false,Rx,0,8,FF,FF,01,6C,20,00,01,BD,
4300134693,00000130,false,Rx,0,8,0D,80,22,7D,00,01,02,9B,
4300134927,00000140,false,Rx,0,8,FF,FF,01,6C,20,00,02,9A,
4300144666,00000130,false,Rx,0,8,0A,80,12,7D,00,01,03,27,
4300144911,00000140,false,Rx,0,8,FF,FF,01,6C,20,00,03,87,
4300154536,00000500,false,Rx,0,1,0C,00,00,00,00,00,00,00,
4300154779,00000130,false,Rx,0,8,0B,80,18,7D,00,01,04,8A,
4300155018,00000140,false,Rx,0,8,FF,FF,01,6C,20,00,04,D4,
4300155257,00000495,false,Rx,0,8,00,00,12,8A,21,69,2C,64,
4300164671,00000130,false,Rx,0,8,09,80,14,7D,00,01,05,EF,
4300164905,00000140,false,Rx,0,8,FF,FF,01,6C,20,00,05,C9,
4300174666,00000130,false,Rx,0,8,0E,80,0A,7D,00,01,06,BE,
4300174911,00000140,false,Rx,0,8,FF,FF,01,6C,20,00,06,EE,
4300184671,00000130,false,Rx,0,8,0F,80,0F,7D,00,01,07,21,
4300184905,00000140,false,Rx,0,8,FF,FF,01,6C,20,00,07,F3,
5235994,00000712,false,Tx,1,8,02,3E,00,00,00,00,00,00,
4300194667,00000130,false,Rx,0,8,0C,80,FE,7C,00,01,08,19,
4300194901,00000140,false,Rx,0,8,FF,FF,01,6C,20,00,08,48,
4300204671,00000130,false,Rx,0,8,06,80,EF,7C,00,01,09,E8,
4300204906,00000140,false,Rx,0,8,FF,FF,01,6C,20,00,09,55,
4300214728,00000130,false,Rx,0,8,FF,7F,03,7D,00,01,0A,C2,
4300214973,00000140,false,Rx,0,8,FF,FF,01,6C,20,00,0A,72,
4300224671,00000130,false,Rx,0,8,01,80,06,7D,00,01,0B,A1,
4300224905,00000140,false,Rx,0,8,FF,FF,01,6C,20,00,0B,6F,
4300234676,00000130,false,Rx,0,8,0F,80,13,7D,00,01,0C,C2,
4300234910,00000140,false,Rx,0,8,FF,FF,01,6C,20,00,0C,3C,
4300244682,00000130,false,Rx,0,8,0A,80,0F,7D,00,01,0D,C7,
4300244926,00000140,false,Rx,0,8,FF,FF,01,6C,20,00,0D,21,
4300254530,00000500,false,Rx,0,1,0C,00,00,00,00,00,00,00,
4300254774,00000130,false,Rx,0,8,04,80,11,7D,00,01,0E,19,
4300255012,00000140,false,Rx,0,8,FF,FF,01,6C,20,00,0E,06,
4300255252,00000495,false,Rx,0,8,00,00,12,8A,21,69,2C,64,
4300264676,00000130,false,Rx,0,8,FF,7F,28,7D,00,01,0F,A3,
4300264910,00000140,false,Rx,0,8,FF,FF,01,6C,20,00,0F,1B,
4300274661,00000130,false,Rx,0,8,FB,7F,23,7D,00,01,00,B8,
4300274906,00000140,false,Rx,0,8,FF,FF,01,6C,20,00,00,A0,
4300284667,00000130,false,Rx,0,8,FC,7F,15,7D,00,01,01,65,
4300284901,00000140,false,Rx,0,8,FF,FF,01,6C,20,00,01,BD,
4300294671,00000130,false,Rx,0,8,04,80,1B,7D,00,01,02,26,
4300294906,00000140,false,Rx,0,8,FF,FF,01,6C,20,00,02,9A,
5345325,00000713,false,Tx,1,8,02,3E,00,00,00,00,00,00,
4300304676,00000130,false,Rx,0,8,0E,80,16,7D,00,01,03,FB,
4300304920,00000140,false,Rx,0,8,FF,FF,01,6C,20,00,03,87,
4300314671,00000130,false,Rx,0,8,1A,80,0A,7D,00,01,04,54,
4300314915,00000140,false,Rx,0,8,FF,FF,01,6C,20,00,04,D4,
4300324676,00000130,false,Rx,0,8,16,80,13,7D,00,01,05,01,
4300324910,00000140,false,Rx,0,8,FF,FF,01,6C,20,00,05,C9,
4300334693,00000130,false,Rx,0,8,16,80,17,7D,00,01,06,93,
4300334937,00000140,false,Rx,0,8,FF,FF,01,6C,20,00,06,EE,
4300344686,00000130,false,Rx,0,8,18,80,04,7D,00,01,07,DF,
4300344932,00000140,false,Rx,0,8,FF,FF,01,6C,20,00,07,F3,
4300354545,00000500,false,Rx,0,1,0C,00,00,00,00,00,00,00,
4300354789,00000130,false,Rx,0,8,11,80,10,7D,00,01,08,B0,
4300355028,00000140,false,Rx,0,8,FF,FF,01,6C,20,00,08,48,
4300355266,00000495,false,Rx,0,8,00,00,12,8A,21,69,2C,64,
4300364671,00000130,false,Rx,0,8,14,80,26,7D,00,01,09,D7,
4300364906,00000140,false,Rx,0,8,FF,FF,01,6C,20,00,09,55,
4300374665,00000130,false,Rx,0,8,1D,80,19,7D,00,01,0A,2C,
4300374901,00000140,false,Rx,0,8,FF,FF,01,6C,20,00,0A,72,
4300384671,00000130,false,Rx,0,8,14,80,17,7D,00,01,0B,A8,
4300384906,00000140,false,Rx,0,8,FF,FF,01,6C,20,00,0B,6F,
4300394666,00000130,false,Rx,0,8,0B,80,FA,7C,00,01,0C,56,
4300394912,00000140,false,Rx,0,8,FF,FF,01,6C,20,00,0C,3C,
4300404671,00000130,false,Rx,0,8,0F,80,F7,7C,00,01,0D,8A,
4300404906,00000140,false,Rx,0,8,FF,FF,01,6C,20,00,0D,21,
4300414810,00000130,false,Rx,0,8,09,80,06,7D,00,01,0E,1A,
4300415046,00000140,false,Rx,0,8,FF,FF,01,6C,20,00,0E,06,
4300424671,00000130,false,Rx,0,8,0B,80,0C,7D,00,01,0F,1E,
5469274,00000714,false,Tx,1,8,02,3E,00,00,00,00,00,00,
4300424906,00000140,false,Rx,0,8,FF,FF,01,6C,20,00,0F,1B,
4300434667,00000130,false,Rx,0,8,0C,80,F6,7C,00,01,00,86,
4300434912,00000140,false,Rx,0,8,FF,FF,01,6C,20,00,00,A0,
4300444671,00000130,false,Rx,0,8,08,80,F3,7C,00,01,01,2D,
4300444906,00000140,false,Rx,0,8,FF,FF,01,6C,20,00,01,BD,
4300454540,00000500,false,Rx,0,1,0C,00,00,00,00,00,00,00,
4300454775,00000130,false,Rx,0,8,06,80,FD,7C,00,01,02,1D,
4300455013,00000140,false,Rx,0,8,FF,FF,01,6C,20,00,02,9A,
4300455251,00000495,false,Rx,0,8,00,00,12,8A,21,69,2C,64,
4300464666,00000130,false,Rx,0,8,0C,80,1C,7D,00,01,03,E2,
4300464912,00000140,false,Rx,0,8,FF,FF,01,6C,20,00,03,87,
4300474671,00000130,false,Rx,0,8,08,80,27,7D,00,01,04,3E,
4300474906,00000140,false,Rx,0,8,FF,FF,01,6C,20,00,04,D4,
4300484666,00000130,false,Rx,0,8,0B,80,15,7D,00,01,05,3F,
4300484901,00000140,false,Rx,0,8,FF,FF,01,6C,20,00,05,C9,
4300494661,00000130,false,Rx,0,8,0B,80,01,7D,00,01,06,43,
4300494897,00000140,false,Rx,0,8,FF,FF,01,6C,20,00,06,EE,
4300504677,00000130,false,Rx,0,8,08,80,FD,7C,00,01,07,75,
4300504911,00000140,false,Rx,0,8,FF,FF,01,6C,20,00,07,F3,
4300514672,00000130,false,Rx,0,8,01,80,FA,7C,00,01,08,4A,
4300514906,00000140,false,Rx,0,8,FF,FF,01,6C,20,00,08,48,
4300524667,00000130,false,Rx,0,8,0A,80,08,7D,00,01,09,B8,
4300524901,00000140,false,Rx,0,8,FF,FF,01,6C,20,00,09,55,
4300534693,00000130,false,Rx,0,8,0E,80,1E,7D,00,01,0A,79,
5578952,00000715,false,Tx,1,8,02,3E,00,00,00,00,00,00,
4300534927,00000140,false,Rx,0,8,FF,FF,01,6C,20,00,0A,72,
4300544666,00000130,false,Rx,0,8,12,80,1F,7D,00,01,0B,0C,
4300544910,00000140,false,Rx,0,8,FF,FF,01,6C,20,00,0B,6F,
4300554535,00000500,false,Rx,0,1,0C,00,00,00,00,00,00,00,
4300554780,00000130,false,Rx,0,8,18,80,23,7D,00,01,0C,DA,
4300555018,00000140,false,Rx,0,8,FF,FF,01,6C,20,00,0C,3C,
4300555256,00000495,false,Rx,0,8,00,00,12,8A,21,69,2C,64,
4300564662,00000130,false,Rx,0,8,1C,80,27,7D,00,01,0D,1B,
4300564896,00000140,false,Rx,0,8,FF,FF,01,6C,20,00,0D,21,
4300574667,00000130,false,Rx,0,8,1C,80,30,7D,00,01,0E,D9,
4300574901,00000140,false,Rx,0,8,FF,FF,01,6C,20,00,0E,06,
4300584662,00000130,false,Rx,0,8,16,80,2C,7D,00,01,0F,80,
4300584907,00000140,false,Rx,0,8,FF,FF,01,6C,20,00,0F,1B,
4300594666,00000130,false,Rx,0,8,0E,80,12,7D,00,01,00,69,
4300594911,00000140,false,Rx,0,8,FF,FF,01,6C,20,00,00,A0,
4300604672,00000130,false,Rx,0,8,0F,80,0B,7D,00,01,01,DA,
4300604916,00000140,false,Rx,0,8,FF,FF,01,6C,20,00,01,BD,
4300614832,00000130,false,Rx,0,8,0F,80,FC,7C,00,01,02,F8,
4300615066,00000140,false,Rx,0,8,FF,FF,01,6C,20,00,02,9A,
4300624672,00000130,false,Rx,0,8,14,80,02,7D,00,01,03,71,
4300624916,00000140,false,Rx,0,8,FF,FF,01,6C,20,00,03,87,
4300634677,00000130,false,Rx,0,8,0D,80,11,7D,00,01,04,44,
4300634911,00000140,false,Rx,0,8,FF,FF,01,6C,20,00,04,D4,
4300644671,00000130,false,Rx,0,8,04,80,F9,7C,00,01,05,41,
4300644916,00000140,false,Rx,0,8,FF,FF,01,6C,20,00,05,C9,
4300654541,00000500,false,Rx,0,1,0C,00,00,00,00,00,00,00,
4300654785,00000130,false,Rx,0,8,FB,7F,F6,7C,00,01,06,E6,
4300655023,00000140,false,Rx,0,8,FF,FF,01,6C,20,00,06,EE,
4300655252,00000495,false,Rx,0,8,00,00,12,8A,21,69,2C,64,
5703441,00000716,false,Tx,1,8,02,3E,00,00,00,00,00,00,
4300664667,00000130,false,Rx,0,8,FE,7F,FC,7C,00,01,07,6C,
4300664911,00000140,false,Rx,0,8,FF,FF,01,6C,20,00,07,F3,
4300674671,00000130,false,Rx,0,8,F7,7F,FF,7C,00,01,08,E6,
4300674905,00000140,false,Rx,0,8,FF,FF,01,6C,20,00,08,48,
4300684664,00000130,false,Rx,0,8,F3,7F,07,7D,00,01,09,EB,
4300684898,00000140,false,Rx,0,8,FF,FF,01,6C,20,00,09,55,
4300694668,00000130,false,Rx,0,8,FD,7F,FE,7C,00,01,0A,DE,
4300694902,00000140,false,Rx,0,8,FF,FF,01,6C,20,00,0A,72,
4300704672,00000130,false,Rx,0,8,06,80,08,7D,00,01,0B,39,
4300704906,00000140,false,Rx,0,8,FF,FF,01,6C,20,00,0B,6F,
4300714667,00000130,false,Rx,0,8,03,80,11,7D,00,01,0C,AD,
4300714911,00000140,false,Rx,0,8,FF,FF,01,6C,20,00,0C,3C,
4300724661,00000130,false,Rx,0,8,05,80,08,7D,00,01,0D,90,
4300724895,00000140,false,Rx,0,8,FF,FF,01,6C,20,00,0D,21,
4300734687,00000130,false,Rx,0,8,13,80,0B,7D,00,01,0E,63,
4300734932,00000140,false,Rx,0,8,FF,FF,01,6C,20,00,0E,06,
4300744682,00000130,false,Rx,0,8,15,80,0F,7D,00,01,0F,18,
4300744926,00000140,false,Rx,0,8,FF,FF,01,6C,20,00,0F,1B,
4300754541,00000500,false,Rx,0,1,0C,00,00,00,00,00,00,00,
4300754784,00000130,false,Rx,0,8,10,80,0A,7D,00,01,00,48,
4300754808,000005A0,false,Rx,1,8,00,00,00,C0,20,42,97,0C,
4300755024,00000140,false,Rx,0,8,FF,FF,01,6C,20,00,00,A0,
4300755253,00000495,false,Rx,0,8,00,00,12,8A,21,69,2C,64,
4300764668,00000130,false,Rx,0,8,0A,80,FB,7C,00,01,01,E0,
4300764913,00000140,false,Rx,0,8,FF,FF,01,6C,20,00,01,BD,
4300774662,00000130,false,Rx,0,8,09,80,F0,7C,00,01,02,E9,
5818323,00000717,false,Tx,1,8,02,3E,00,00,00,00,00,00,
4300774906,00000140,false,Rx,0,8,FF,FF,01,6C,20,00,02,9A,
4300784667,00000130,false,Rx,0,8,0D,80,FF,7C,00,01,03,E1,
4300784911,00000140,false,Rx,0,8,FF,FF,01,6C,20,00,03,87,
4300794661,00000130,false,Rx,0,8,16,80,19,7D,00,01,04,BF,
4300794905,00000140,false,Rx,0,8,FF,FF,01,6C,20,00,04,D4,
4300804665,00000130,false,Rx,0,8,14,80,05,7D,00,01,05,34,
4300804910,00000140,false,Rx,0,8,FF,FF,01,6C,20,00,05,C9,
4300814733,00000130,false,Rx,0,8,16,80,FC,7C,00,01,06,BA,
4300814968,00000140,false,Rx,0,8,FF,FF,01,6C,20,00,06,EE,
4300824665,00000130,false,Rx,0,8,11,80,09,7D,00,01,07,F8,
4300824910,00000140,false,Rx,0,8,FF,FF,01,6C,20,00,07,F3,
4300834671,00000130,false,Rx,0,8,08,80,FB,7C,00,01,08,AF,
4300834905,00000140,false,Rx,0,8,FF,FF,01,6C,20,00,08,48,
4300844667,00000130,false,Rx,0,8,07,80,02,7D,00,01,09,FD,
4300844902,00000140,false,Rx,0,8,FF,FF,01,6C,20,00,09,55,
4300854536,00000500,false,Rx,0,1,0C,00,00,00,00,00,00,00,
4300854769,00000130,false,Rx,0,8,04,80,13,7D,00,01,0A,B9,
4300855008,00000140,false,Rx,0,8,FF,FF,01,6C,20,00,0A,72,
4300855247,00000495,false,Rx,0,8,00,00,12,8A,21,69,2C,64,
4300864671,00000130,false,Rx,0,8,01,80,19,7D,00,01,0B,33,
4300864906,00000140,false,Rx,0,8,FF,FF,01,6C,20,00,0B,6F,
4300874666,00000130,false,Rx,0,8,0A,80,18,7D,00,01,0C,3F,
4300874912,00000140,false,Rx,0,8,FF,FF,01,6C,20,00,0C,3C,
4300884671,00000130,false,Rx,0,8,10,80,17,7D,00,01,0D,8F,
4300884907,00000140,false,Rx,0,8,FF,FF,01,6C,20,00,0D,21,
5935838,00000718,false,Tx,1,8,02,3E,00,00,00,00,00,00,
4300894665,00000130,false,Rx,0,8,0D,80,19,7D,00,01,0E,E1,
4300894900,00000140,false,Rx,0,8,FF,FF,01,6C,20,00,0E,06,
4300904672,00000130,false,Rx,0,8,0C,80,1F,7D,00,01,0F,C0,
4300904917,00000140,false,Rx,0,8,FF,FF,01,6C,20,00,0F,1B,
4300914676,00000130,false,Rx,0,8,0F,80,27,7D,00,01,00,C4,
4300914921,00000140,false,Rx,0,8,FF,FF,01,6C,20,00,00,A0,
4300924671,00000130,false,Rx,0,8,10,80,1D,7D,00,01,01,B0,
4300924906,00000140,false,Rx,0,8,FF,FF,01,6C,20,00,01,BD,
4300934697,00000130,false,Rx,0,8,12,80,22,7D,00,01,02,7E,
4300934933,00000140,false,Rx,0,8,FF,FF,01,6C,20,00,02,9A,
4300944671,00000130,false,Rx,0,8,19,80,24,7D,00,01,03,37,
4300944907,00000140,false,Rx,0,8,FF,FF,01,6C,20,00,03,87,
4300954541,00000500,false,Rx,0,1,0C,00,00,00,00,00,00,00,
4300954786,00000130,false,Rx,0,8,15,80,08,7D,00,01,04,DC,
4300955024,00000140,false,Rx,0,8,FF,FF,01,6C,20,00,04,D4,
4300955252,00000495,false,Rx,0,8,00,00,12,8A,21,69,2C,64,
4300964676,00000130,false,Rx,0,8,0C,80,ED,7C,00,01,05,C8,
4300964911,00000140,false,Rx,0,8,FF,FF,01,6C,20,00,05,C9,
4300974670,00000130,false,Rx,0,8,0E,80,EF,7C,00,01,06,81,
4300974905,00000140,false,Rx,0,8,FF,FF,01,6C,20,00,06,EE,
4300984664,00000130,false,Rx,0,8,0A,80,01,7D,00,01,07,03,
4300984909,00000140,false,Rx,0,8,FF,FF,01,6C,20,00,07,F3,
6036153,00000719,false,Tx,1,8,02,3E,00,00,00,00,00,00,
4300994668,00000130,false,Rx,0,8,0F,80,F5,7C,00,01,08,37,
4300994902,00000140,false,Rx,0,8,FF,FF,01,6C,20,00,08,48,
4301004672,00000130,false,Rx,0,8,14,80,F5,7C,00,01,09,A6,
4301004906,00000140,false,Rx,0,8,FF,FF,01,6C,20,00,09,55,
4301014811,00000130,false,Rx,0,8,11,80,05,7D,00,01,0A,BB,
4301015045,00000140,false,Rx,0,8,FF,FF,01,6C,20,00,0A,72,
4301024662,00000130,false,Rx,0,8,07,80,FF,7C,00,01,0B,61,
4301024906,00000140,false,Rx,0,8,FF,FF,01,6C,20,00,0B,6F,
4301034666,00000130,false,Rx,0,8,0A,80,03,7D,00,01,0C,18,
4301034911,00000140,false,Rx,0,8,FF,FF,01,6C,20,00,0C,3C,
4301044661,00000130,false,Rx,0,8,11,80,16,7D,00,01,0D,B8,
4301044905,00000140,false,Rx,0,8,FF,FF,01,6C,20,00,0D,21,
4301054530,00000500,false,Rx,0,1,0C,00,00,00,00,00,00,00,
4301054775,00000130,false,Rx,0,8,18,80,1C,7D,00,01,0E,B3,
4301055013,00000140,false,Rx,0,8,FF,FF,01,6C,20,00,0E,06,
4301055241,00000495,false,Rx,0,8,00,00,12,8A,21,69,2C,64,
4301064666,00000130,false,Rx,0,8,11,80,16,7D,00,01,0F,82,
4301064900,00000140,false,Rx,0,8,FF,FF,01,6C,20,00,0F,1B,
4301074672,00000130,false,Rx,0,8,0B,80,01,7D,00,01,00,0D,
4301074916,00000140,false,Rx,0,8,FF,FF,01,6C,20,00,00,A0,
4301084667,00000130,false,Rx,0,8,01,80,F8,7C,00,01,01,6B,
4301084911,00000140,false,Rx,0,8,FF,FF,01,6C,20,00,01,BD,
4301094661,00000130,false,Rx,0,8,FC,7F,05,7D,00,01,02,AC,
4301094895,00000140,false,Rx,0,8,FF,FF,01,6C,20,00,02,9A,
4301104667,00000130,false,Rx,0,8,04,80,08,7D,00,01,03,6B,
4301104911,00000140,false,Rx,0,8,FF,FF,01,6C,20,00,03,87,
4301114671,00000130,false,Rx,0,8,06,80,03,7D,00,01,04,4B,
4301114905,00000140,false,Rx,0,8,FF,FF,01,6C,20,00,04,D4,
4301124667,00000130,false,Rx,0,8,0E,80,14,7D,00,01,05,61,
4301124901,00000140,false,Rx,0,8,FF,FF,01,6C,20,00,05,C9,
4301134692,00000130,false,Rx,0,8,1B,80,1A,7D,00,01,06,DD,
4301134926,00000140,false,Rx,0,8,FF,FF,01,6C,20,00,06,EE,
4301144667,00000130,false,Rx,0,8,1F,80,0D,7D,00,01,07,4C,
4301144911,00000140,false,Rx,0,8,FF,FF,01,6C,20,00,07,F3,
6191588,0000071A,false,Tx,1,8,02,3E,00,00,00,00,00,00,
4301154546,00000500,false,Rx,0,1,0C,00,00,00,00,00,00,00,
4301154779,00000130,false,Rx,0,8,14,80,11,7D,00,01,08,EE,
4301155017,00000140,false,Rx,0,8,FF,FF,01,6C,20,00,08,48,
4301155257,00000495,false,Rx,0,8,00,00,12,8A,21,69,2C,64,
4301164661,00000130,false,Rx,0,8,0D,80,0E,7D,00,01,09,57,
4301164905,00000140,false,Rx,0,8,FF,FF,01,6C,20,00,09,55,
4301174656,00000130,false,Rx,0,8,0C,80,FE,7C,00,01,0A,23,
4301174901,00000140,false,Rx,0,8,FF,FF,01,6C,20,00,0A,72,
4301184661,00000130,false,Rx,0,8,03,80,10,7D,00,01,0B,94,
4301184905,00000140,false,Rx,0,8,FF,FF,01,6C,20,00,0B,6F,
4301194667,00000130,false,Rx,0,8,01,80,0A,7D,00,01,0C,30,
4301194901,00000140,false,Rx,0,8,FF,FF,01,6C,20,00,0C,3C,
4301204671,00000130,false,Rx,0,8,04,80,05,7D,00,01,0D,65,
4301204906,00000140,false,Rx,0,8,FF,FF,01,6C,20,00,0D,21,
4301214811,00000130,false,Rx,0,8,0D,80,11,7D,00,01,0E,96,
4301215046,00000140,false,Rx,0,8,FF,FF,01,6C,20,00,0E,06,
4301224671,00000130,false,Rx,0,8,0D,80,1B,7D,00,01,0F,28,
4301224905,00000140,false,Rx,0,8,FF,FF,01,6C,20,00,0F,1B,
4301234676,00000130,false,Rx,0,8,06,80,0F,7D,00,01,00,FD,
4301234921,00000140,false,Rx,0,8,FF,FF,01,6C,20,00,00,A0,
4301244692,00000130,false,Rx,0,8,01,80,0B,7D,00,01,01,DB,
4301244926,00000140,false,Rx,0,8,FF,FF,01,6C,20,00,01,BD,
4301254541,00000500,false,Rx,0,1,0C,00,00,00,00,00,00,00,
6298973,0000071B,false,Tx,1,8,02,3E,00,00,00,00,00,00,
4301254774,00000130,false,Rx,0,8,08,80,09,7D,00,01,02,A7,
4301255014,00000140,false,Rx,0,8,FF,FF,01,6C,20,00,02,9A,
4301255252,00000495,false,Rx,0,8,00,00,12,8A,21,69,2C,64,
4301264666,00000130,false,Rx,0,8,11,80,14,7D,00,01,03,CA,
4301264910,00000140,false,Rx,0,8,FF,FF,01,6C,20,00,03,87,
4301274671,00000130,false,Rx,0,8,0F,80,1A,7D,00,01,04,37,
4301274906,00000140,false,Rx,0,8,FF,FF,01,6C,20,00,04,D4,
4301284666,00000130,false,Rx,0,8,07,80,13,7D,00,01,05,E5,
4301284900,00000140,false,Rx,0,8,FF,FF,01,6C,20,00,05,C9,
4301294661,00000130,false,Rx,0,8,0C,80,13,7D,00,01,06,F7,
4301294905,00000140,false,Rx,0,8,FF,FF,01,6C,20,00,06,EE,
4301304676,00000130,false,Rx,0,8,17,80,0A,7D,00,01,07,95,
4301304910,00000140,false,Rx,0,8,FF,FF,01,6C,20,00,07,F3,
4301314671,00000130,false,Rx,0,8,12,80,1A,7D,00,01,08,F4,
4301314905,00000140,false,Rx,0,8,FF,FF,01,6C,20,00,08,48,
4301324666,00000130,false,Rx,0,8,0A,80,13,7D,00,01,09,9F,
4301324901,00000140,false,Rx,0,8,FF,FF,01,6C,20,00,09,55,
4301334682,00000130,false,Rx,0,8,0C,80,0E,7D,00,01,0A,2D,
4301334917,00000140,false,Rx,0,8,FF,FF,01,6C,20,00,0A,72,
4301344667,00000130,false,Rx,0,8,0B,80,16,7D,00,01,0B,27,
4301344902,00000140,false,Rx,0,8,FF,FF,01,6C,20,00,0B,6F,
4301354536,00000500,false,Rx,0,1,0C,00,00,00,00,00,00,00,
4301354779,00000130,false,Rx,0,8,01,80,11,7D,00,01,0C,17,
4301355019,00000140,false,Rx,0,8,FF,FF,01,6C,20,00,0C,3C,
4301355246,00000495,false,Rx,0,8,00,00,12,8A,21,69,2C,64,
4301364661,00000130,false,Rx,0,8,02,80,14,7D,00,01,0D,32,
4301364896,00000140,false,Rx,0,8,FF,FF,01,6C,20,00,0D,21,
4301374656,00000130,false,Rx,0,8,04,80,19,7D,00,01,0E,6E,
4301374902,00000140,false,Rx,0,8,FF,FF,01,6C,20,00,0E,06,
4301384662,00000130,false,Rx,0,8,04,80,21,7D,00,01,0F,2B,
4301384897,00000140,false,Rx,0,8,FF,FF,01,6C,20,00,0F,1B,
4301394666,00000130,false,Rx,0,8,04,80,1D,7D,00,01,00,7D,
4301394901,00000140,false,Rx,0,8,FF,FF,01,6C,20,00,00,A0,
6440227,0000071C,false,Tx,1,8,02,3E,00,00,00,00,00,00,
4301404670,00000130,false,Rx,0,8,04,80,1A,7D,00,01,01,6B,
4301404906,00000140,false,Rx,0,8,FF,FF,01,6C,20,00,01,BD,
4301414728,00000130,false,Rx,0,8,07,80,22,7D,00,01,02,F3,
4301414963,00000140,false,Rx,0,8,FF,FF,01,6C,20,00,02,9A,
4301424671,00000130,false,Rx,0,8,0D,80,17,7D,00,01,03,76,
4301424917,00000140,false,Rx,0,8,FF,FF,01,6C,20,00,03,87,
4301434665,00000130,false,Rx,0,8,13,80,02,7D,00,01,04,AC,
4301434911,00000140,false,Rx,0,8,FF,FF,01,6C,20,00,04,D4,
4301444660,00000130,false,Rx,0,8,14,80,07,7D,00,01,05,E0,
4301444906,00000140,false,Rx,0,8,FF,FF,01,6C,20,00,05,C9,
4301454530,00000500,false,Rx,0,1,0C,00,00,00,00,00,00,00,
4301454775,00000130,false,Rx,0,8,12,80,1E,7D,00,01,06,E7,
4301455013,00000140,false,Rx,0,8,FF,FF,01,6C,20,00,06,EE,
4301455251,00000495,false,Rx,0,8,00,00,12,8A,21,69,2C,64,
4301464665,00000130,false,Rx,0,8,1E,80,12,7D,00,01,07,83,
4301464911,00000140,false,Rx,0,8,FF,FF,01,6C,20,00,07,F3,
4301474661,00000130,false,Rx,0,8,1D,80,02,7D,00,01,08,31,
4301474895,00000140,false,Rx,0,8,FF,FF,01,6C,20,00,08,48,
4301484666,00000130,false,Rx,0,8,0B,80,03,7D,00,01,09,2C,
4301484900,00000140,false,Rx,0,8,FF,FF,01,6C,20,00,09,55,
4301494661,00000130,false,Rx,0,8,06,80,0A,7D,00,01,0A,F0,
4301494895,00000140,false,Rx,0,8,FF,FF,01,6C,20,00,0A,72,
4301504666,00000130,false,Rx,0,8,08,80,01,7D,00,01,0B,25,
4301504900,00000140,false,Rx,0,8,FF,FF,01,6C,20,00,0B,6F,
6555058,0000071D,false,Tx,1,8,02,3E,00,00,00,00,00,00,
4301514661,00000130,false,Rx,0,8,07,80,E9,7C,00,01,0C,BD,
4301514906,00000140,false,Rx,0,8,FF,FF,01,6C,20,00,0C,3C,
4301524666,00000130,false,Rx,0,8,08,80,EE,7C,00,01,0D,F7,
4301524900,00000140,false,Rx,0,8,FF,FF,01,6C,20,00,0D,21,
4301534683,00000130,false,Rx,0,8,05,80,F4,7C,00,01,0E,7B,
4301534927,00000140,false,Rx,0,8,FF,FF,01,6C,20,00,0E,06,
4301544666,00000130,false,Rx,0,8,FE,7F,05,7D,00,01,0F,97,
4301544900,00000140,false,Rx,0,8,FF,FF,01,6C,20,00,0F,1B,
4301554536,00000500,false,Rx,0,1,0C,00,00,00,00,00,00,00,
4301554779,00000130,false,Rx,0,8,0B,80,22,7D,00,01,00,72,
4301555028,00000140,false,Rx,0,8,FF,FF,01,6C,20,00,00,A0,
4301555255,00000495,false,Rx,0,8,00,00,12,8A,21,69,2C,64,
4301564672,00000130,false,Rx,0,8,10,80,31,7D,00,01,01,B3,
4301564906,00000140,false,Rx,0,8,FF,FF,01,6C,20,00,01,BD,
4301574666,00000130,false,Rx,0,8,08,80,29,7D,00,01,02,66,
4301574900,00000140,false,Rx,0,8,FF,FF,01,6C,20,00,02,9A,
4301584661,00000130,false,Rx,0,8,09,80,12,7D,00,01,03,C0,
4301584905,00000140,false,Rx,0,8,FF,FF,01,6C,20,00,03,87,
4301594658,00000130,false,Rx,0,8,0C,80,FE,7C,00,01,04,85,
4301594903,00000140,false,Rx,0,8,FF,FF,01,6C,20,00,04,D4,
4301604663,00000130,false,Rx,0,8,15,80,E6,7C,00,01,05,37,
4301604907,00000140,false,Rx,0,8,FF,FF,01,6C,20,00,05,C9,
4301614811,00000130,false,Rx,0,8,11,80,F1,7C,00,01,06,9C,
4301615045,00000140,false,Rx,0,8,FF,FF,01,6C,20,00,06,EE,
4301624661,00000130,false,Rx,0,8,13,80,F2,7C,00,01,07,85,
4301624905,00000140,false,Rx,0,8,FF,FF,01,6C,20,00,07,F3,
4301634667,00000130,false,Rx,0,8,19,80,E6,7C,00,01,08,0D,
4301634901,00000140,false,Rx,0,8,FF,FF,01,6C,20,00,08,48,
4301644661,00000130,false,Rx,0,8,1C,80,F5,7C,00,01,09,74,
6688036,0000071E,false,Tx,1,8,02,3E,00,00,00,00,00,00,
4301644895,00000140,false,Rx,0,8,FF,FF,01,6C,20,00,09,55,
4301654531,00000500,false,Rx,0,1,0C,00,00,00,00,00,00,00,
4301654764,00000130,false,Rx,0,8,12,80,F7,7C,00,01,0A,86,
4301655002,00000140,false,Rx,0,8,FF,FF,01,6C,20,00,0A,72,
4301655241,00000495,false,Rx,0,8,00,00,12,8A,21,69,2C,64,
4301664666,00000130,false,Rx,0,8,0E,80,09,7D,00,01,0B,81,
4301664900,00000140,false,Rx,0,8,FF,FF,01,6C,20,00,0B,6F,
4301674661,00000130,false,Rx,0,8,14,80,0D,7D,00,01,0C,B6,
4301674895,00000140,false,Rx,0,8,FF,FF,01,6C,20,00,0C,3C,
4301684656,00000130,false,Rx,0,8,14,80,14,7D,00,01,0D,58,
4301684890,00000140,false,Rx,0,8,FF,FF,01,6C,20,00,0D,21,
4301694661,00000130,false,Rx,0,8,15,80,17,7D,00,01,0E,9C,
4301694905,00000140,false,Rx,0,8,FF,FF,01,6C,20,00,0E,06,
4301704665,00000130,false,Rx,0,8,12,80,13,7D,00,01,0F,BA,
4301704899,00000140,false,Rx,0,8,FF,FF,01,6C,20,00,0F,1B,
4301714669,00000130,false,Rx,0,8,11,80,12,7D,00,01,00,8C,
4301714913,00000140,false,Rx,0,8,FF,FF,01,6C,20,00,00,A0,
4301724662,00000130,false,Rx,0,8,0E,80,08,7D,00,01,01,39,
4301724906,00000140,false,Rx,0,8,FF,FF,01,6C,20,00,01,BD,
4301734686,00000130,false,Rx,0,8,0A,80,09,7D,00,01,02,1D,
4301734920,00000140,false,Rx,0,8,FF,FF,01,6C,20,00,02,9A,
4301744682,00000130,false,Rx,0,8,0B,80,03,7D,00,01,03,FE,
4301744926,00000140,false,Rx,0,8,FF,FF,01,6C,20,00,03,87,
4301754531,00000500,false,Rx,0,1,0C,00,00,00,00,00,00,00,
4301754774,00000130,false,Rx,0,8,11,80,F6,7C,00,01,04,AD,
4301754808,000005A0,false,Rx,1,8,00,00,00,C0,20,34,93,0C,
4301755015,00000140,false,Rx,0,8,FF,FF,01,6C,20,00,04,D4,
4301755243,00000495,false,Rx,0,8,00,00,12,8A,21,69,2C,64,
6806290,0000071F,false,Tx,1,8,02,3E,00,00,00,00,00,00,
4301764660,00000130,false,Rx,0,8,0F,80,FA,7C,00,01,05,CA,
4301764905,00000140,false,Rx,0,8,FF,FF,01,6C,20,00,05,C9,
4301774666,00000130,false,Rx,0,8,0A,80,0D,7D,00,01,06,DC,
4301774900,00000140,false,Rx,0,8,FF,FF,01,6C,20,00,06,EE,
4301784660,00000130,false,Rx,0,8,05,80,14,7D,00,01,07,6E,
4301784894,00000140,false,Rx,0,8,FF,FF,01,6C,20,00,07,F3,
4301794663,00000130,false,Rx,0,8,04,80,0B,7D,00,01,08,1A,
4301794897,00000140,false,Rx,0,8,FF,FF,01,6C,20,00,08,48,
4301804666,00000130,false,Rx,0,8,08,80,1C,7D,00,01,09,59,
4301804901,00000140,false,Rx,0,8,FF,FF,01,6C,20,00,09,55,
4301814806,00000130,false,Rx,0,8,0F,80,17,7D,00,01,0A,39,
4301815041,00000140,false,Rx,0,8,FF,FF,01,6C,20,00,0A,72,
4301824666,00000130,false,Rx,0,8,17,80,06,7D,00,01,0B,CB,
4301824901,00000140,false,Rx,0,8,FF,FF,01,6C,20,00,0B,6F,
4301834672,00000130,false,Rx,0,8,14,80,13,7D,00,01,0C,4E,
4301834908,00000140,false,Rx,0,8,FF,FF,01,6C,20,00,0C,3C,
4301844665,00000130,false,Rx,0,8,05,80,1A,7D,00,01,0D,AA,
4301844901,00000140,false,Rx,0,8,FF,FF,01,6C,20,00,0D,21,
4301854535,00000500,false,Rx,0,1,0C,00,00,00,00,00,00,00,
4301854779,00000130,false,Rx,0,8,08,80,1C,7D,00,01,0E,0A,
4301855018,00000140,false,Rx,0,8,FF,FF,01,6C,20,00,0E,06,
4301855246,00000495,false,Rx,0,8,00,00,12,8A,21,69,2C,64,
4301864661,00000130,false,Rx,0,8,17,80,13,7D,00,01,0F,8E,
4301864907,00000140,false,Rx,0,8,FF,FF,01,6C,20,00,0F,1B,
4301874665,00000130,false,Rx,0,8,0D,80,13,7D,00,01,00,E4,
4301874911,00000140,false,Rx,0,8,FF,FF,01,6C,20,00,00,A0,
6920363,00000720,false,Tx,1,8,02,3E,00,00,00,00,00,00,
4301884671,00000130,false,Rx,0,8,07,80,0D,7D,00,01,01,69,
4301884906,00000140,false,Rx,0,8,FF,FF,01,6C,20,00,01,BD,
4301894665,00000130,false,Rx,0,8,13,80,F0,7C,00,01,02,38,
4301894901,00000140,false,Rx,0,8,FF,FF,01,6C,20,00,02,9A,
4301904671,00000130,false,Rx,0,8,18,80,F4,7C,00,01,03,A5,
4301904906,00000140,false,Rx,0,8,FF,FF,01,6C,20,00,03,87,
4301914666,00000130,false,Rx,0,8,0B,80,FB,7C,00,01,04,D4,
4301914901,00000140,false,Rx,0,8,FF,FF,01,6C,20,00,04,D4,
4301924660,00000130,false,Rx,0,8,0B,80,FE,7C,00,01,05,16,
4301924895,00000140,false,Rx,0,8,FF,FF,01,6C,20,00,05,C9,
4301934686,00000130,false,Rx,0,8,0B,80,01,7D,00,01,06,43,
4301934921,00000140,false,Rx,0,8,FF,FF,01,6C,20,00,06,EE,
4301944660,00000130,false,Rx,0,8,08,80,11,7D,00,01,07,57,
4301944895,00000140,false,Rx,0,8,FF,FF,01,6C,20,00,07,F3,
4301954529,00000500,false,Rx,0,1,0C,00,00,00,00,00,00,00,
4301954775,00000130,false,Rx,0,8,0F,80,1D,7D,00,01,08,A0,
4301955013,00000140,false,Rx,0,8,FF,FF,01,6C,20,00,08,48,
4301955251,00000495,false,Rx,0,8,00,00,12,8A,21,69,2C,64,
4301964666,00000130,false,Rx,0,8,23,80,13,7D,00,01,09,7F,
4301964911,00000140,false,Rx,0,8,FF,FF,01,6C,20,00,09,55,
4301974662,00000130,false,Rx,0,8,23,80,0E,7D,00,01,0A,1E,
7019155,00000721,false,Tx,1,8,02,3E,00,00,00,00,00,00,
4301974896,00000140,false,Rx,0,8,FF,FF,01,6C,20,00,0A,72,
4301984656,00000130,false,Rx,0,8,0F,80,0F,7D,00,01,0B,BD,
4301984900,00000140,false,Rx,0,8,FF,FF,01,6C,20,00,0B,6F,
4301994651,00000130,false,Rx,0,8,FD,7F,1C,7D,00,01,0C,A4,
4301994895,00000140,false,Rx,0,8,FF,FF,01,6C,20,00,0C,3C,
4302004656,00000130,false,Rx,0,8,FD,7F,1C,7D,00,01,0D,B9,
4302004900,00000140,false,Rx,0,8,FF,FF,01,6C,20,00,0D,21,
4302014724,00000130,false,Rx,0,8,02,80,12,7D,00,01,0E,74,
4302014968,00000140,false,Rx,0,8,FF,FF,01,6C,20,00,0E,06,
4302024666,00000130,false,Rx,0,8,04,80,0D,7D,00,01,0F,28,
4302024900,00000140,false,Rx,0,8,FF,FF,01,6C,20,00,0F,1B,
4302034661,00000130,false,Rx,0,8,06,80,05,7D,00,01,00,5E,
4302034905,00000140,false,Rx,0,8,FF,FF,01,6C,20,00,00,A0,
4302044664,00000130,false,Rx,0,8,0E,80,08,7D,00,01,01,39,
4302044898,00000140,false,Rx,0,8,FF,FF,01,6C,20,00,01,BD,
4302054532,00000500,false,Rx,0,1,0C,00,00,00,00,00,00,00,
4302054765,00000130,false,Rx,0,8,17,80,19,7D,00,01,02,AC,
4302055003,00000140,false,Rx,0,8,FF,FF,01,6C,20,00,02,9A,
4302055241,00000495,false,Rx,0,8,00,00,12,8A,21,69,2C,64,
4302064666,00000130,false,Rx,0,8,16,80,26,7D,00,01,03,BF,
4302064900,00000140,false,Rx,0,8,FF,FF,01,6C,20,00,03,87,
4302074662,00000130,false,Rx,0,8,06,80,23,7D,00,01,04,8A,
4302074896,00000140,false,Rx,0,8,FF,FF,01,6C,20,00,04,D4,
4302084657,00000130,false,Rx,0,8,05,80,18,7D,00,01,05,96,
4302084901,00000140,false,Rx,0,8,FF,FF,01,6C,20,00,05,C9,
7131121,00000722,false,Tx,1,8,02,3E,00,00,00,00,00,00,
4302094663,00000130,false,Rx,0,8,0D,80,12,7D,00,01,06,C0,
4302094897,00000140,false,Rx,0,8,FF,FF,01,6C,20,00,06,EE,
4302104667,00000130,false,Rx,0,8,08,80,04,7D,00,01,07,66,
4302104901,00000140,false,Rx,0,8,FF,FF,01,6C,20,00,07,F3,
4302114661,00000130,false,Rx,0,8,0A,80,03,7D,00,01,08,6C,
4302114905,00000140,false,Rx,0,8,FF,FF,01,6C,20,00,08,48,
4302124666,00000130,false,Rx,0,8,08,80,06,7D,00,01,09,14,
4302124900,00000140,false,Rx,0,8,FF,FF,01,6C,20,00,09,55,
4302134689,00000130,false,Rx,0,8,FC,7F,FA,7C,00,01,0A,36,
4302134924,00000140,false,Rx,0,8,FF,FF,01,6C,20,00,0A,72,
4302144662,00000130,false,Rx,0,8,FD,7F,F5,7C,00,01,0B,0A,
4302144907,00000140,false,Rx,0,8,FF,FF,01,6C,20,00,0B,6F,
4302154541,00000500,false,Rx,0,1,0C,00,00,00,00,00,00,00,
4302154785,00000130,false,Rx,0,8,FD,7F,FF,7C,00,01,0C,FA,
4302155023,00000140,false,Rx,0,8,FF,FF,01,6C,20,00,0C,3C,
4302155262,00000495,false,Rx,0,8,00,00,12,8A,21,69,2C,64,
4302164666,00000130,false,Rx,0,8,FC,7F,13,7D,00,01,0D,98,
4302164900,00000140,false,Rx,0,8,FF,FF,01,6C,20,00,0D,21,
4302174662,00000130,false,Rx,0,8,01,80,31,7D,00,01,0E,EC,
4302174896,00000140,false,Rx,0,8,FF,FF,01,6C,20,00,0E,06,
4302184665,00000130,false,Rx,0,8,07,80,30,7D,00,01,0F,48,
4302184899,00000140,false,Rx,0,8,FF,FF,01,6C,20,00,0F,1B,
4302194658,00000130,false,Rx,0,8,0B,80,22,7D,00,01,00,72,
4302194903,00000140,false,Rx,0,8,FF,FF,01,6C,20,00,00,A0,
7242749,00000723,false,Tx,1,8,02,3E,00,00,00,00,00,00,
4302204672,00000130,false,Rx,0,8,13,80,12,7D,00,01,01,2B,
4302204906,00000140,false,Rx,0,8,FF,FF,01,6C,20,00,01,BD,
4302214800,00000130,false,Rx,0,8,0C,80,12,7D,00,01,02,E9,
4302215046,00000140,false,Rx,0,8,FF,FF,01,6C,20,00,02,9A,
4302224661,00000130,false,Rx,0,8,06,80,17,7D,00,01,03,43,
4302224905,00000140,false,Rx,0,8,FF,FF,01,6C,20,00,03,87,
4302234666,00000130,false,Rx,0,8,04,80,20,7D,00,01,04,8E,
4302234910,00000140,false,Rx,0,8,FF,FF,01,6C,20,00,04,D4,
4302244681,00000130,false,Rx,0,8,06,80,1F,7D,00,01,05,7A,
4302244916,00000140,false,Rx,0,8,FF,FF,01,6C,20,00,05,C9,
4302254530,00000500,false,Rx,0,1,0C,00,00,00,00,00,00,00,
4302254773,00000130,false,Rx,0,8,0B,80,15,7D,00,01,06,18,
4302255002,00000140,false,Rx,0,8,FF,FF,01,6C,20,00,06,EE,
4302255240,00000495,false,Rx,0,8,00,00,12,8A,21,69,2C,64,
4302264666,00000130,false,Rx,0,8,07,80,1D,7D,00,01,07,C9,
4302264900,00000140,false,Rx,0,8,FF,FF,01,6C,20,00,07,F3,
4302274651,00000130,false,Rx,0,8,04,80,14,7D,00,01,08,88,
4302274895,00000140,false,Rx,0,8,FF,FF,01,6C,20,00,08,48,
4302284656,00000130,false,Rx,0,8,03,80,00,7D,00,01,09,40,
4302284901,00000140,false,Rx,0,8,FF,FF,01,6C,20,00,09,55,
4302294650,00000130,false,Rx,0,8,05,80,01,7D,00,01,0A,DE,
4302294896,00000140,false,Rx,0,8,FF,FF,01,6C,20,00,0A,72,
4302304665,00000130,false,Rx,0,8,09,80,0E,7D,00,01,0B,04,
4302304901,00000140,false,Rx,0,8,FF,FF,01,6C,20,00,0B,6F,
7355011,00000724,false,Tx,1,8,02,3E,00,00,00,00,00,00,
4302314658,00000130,false,Rx,0,8,0A,80,11,7D,00,01,0C,22,
4302314904,00000140,false,Rx,0,8,FF,FF,01,6C,20,00,0C,3C,
4302324651,00000130,false,Rx,0,8,0C,80,13,7D,00,01,0D,38,
4302324897,00000140,false,Rx,0,8,FF,FF,01,6C,20,00,0D,21,
4302334686,00000130,false,Rx,0,8,0F,80,0B,7D,00,01,0E,61,
4302334922,00000140,false,Rx,0,8,FF,FF,01,6C,20,00,0E,06,
4302344661,00000130,false,Rx,0,8,12,80,F9,7C,00,01,0F,F9,
4302344897,00000140,false,Rx,0,8,FF,FF,01,6C,20,00,0F,1B,
4302354531,00000500,false,Rx,0,1,0C,00,00,00,00,00,00,00,
4302354764,00000130,false,Rx,0,8,0C,80,ED,7C,00,01,00,A1,
4302355014,00000140,false,Rx,0,8,FF,FF,01,6C,20,00,00,A0,
4302355242,00000495,false,Rx,0,8,00,00,12,8A,21,69,2C,64,
4302364665,00000130,false,Rx,0,8,0D,80,00,7D,00,01,01,A9,
4302364901,00000140,false,Rx,0,8,FF,FF,01,6C,20,00,01,BD,
4302374660,00000130,false,Rx,0,8,16,80,11,7D,00,01,02,86,
4302374896,00000140,false,Rx,0,8,FF,FF,01,6C,20,00,02,9A,
4302384656,00000130,false,Rx,0,8,13,80,19,7D,00,01,03,D8,
4302384891,00000140,false,Rx,0,8,FF,FF,01,6C,20,00,03,87,
4302394660,00000130,false,Rx,0,8,10,80,19,7D,00,01,04,6C,
4302394896,00000140,false,Rx,0,8,FF,FF,01,6C,20,00,04,D4,
4302404665,00000130,false,Rx,0,8,10,80,1F,7D,00,01,05,10,
4302404910,00000140,false,Rx,0,8,FF,FF,01,6C,20,00,05,C9,
4302414806,00000130,false,Rx,0,8,12,80,19,7D,00,01,06,EC,
4302415040,00000140,false,Rx,0,8,FF,FF,01,6C,20,00,06,EE,
7465144,00000725,false,Tx,1,8,02,3E,00,00,00,00,00,00,
4302424665,00000130,false,Rx,0,8,0C,80,0C,7D,00,01,07,78,
4302424911,00000140,false,Rx,0,8,FF,FF,01,6C,20,00,07,F3,
4302434671,00000130,false,Rx,0,8,07,80,F1,7C,00,01,08,50,
4302434905,00000140,false,Rx,0,8,FF,FF,01,6C,20,00,08,48,
4302444666,00000130,false,Rx,0,8,03,80,EF,7C,00,01,09,DC,
4302444900,00000140,false,Rx,0,8,FF,FF,01,6C,20,00,09,55,
4302454535,00000500,false,Rx,0,1,0C,00,00,00,00,00,00,00,
4302454769,00000130,false,Rx,0,8,07,80,03,7D,00,01,0A,B0,
4302455007,00000140,false,Rx,0,8,FF,FF,01,6C,20,00,0A,72,
4302455246,00000495,false,Rx,0,8,00,00,12,8A,21,69,2C,64,
4302464662,00000130,false,Rx,0,8,07,80,05,7D,00,01,0B,CC,
4302464907,00000140,false,Rx,0,8,FF,FF,01,6C,20,00,0B,6F,
4302474656,00000130,false,Rx,0,8,08,80,11,7D,00,01,0C,98,
4302474901,00000140,false,Rx,0,8,FF,FF,01,6C,20,00,0C,3C,
4302484662,00000130,false,Rx,0,8,07,80,0E,7D,00,01,0D,4B,
4302484896,00000140,false,Rx,0,8,FF,FF,01,6C,20,00,0D,21,
4302494666,00000130,false,Rx,0,8,0F,80,08,7D,00,01,0E,DF,
4302494900,00000140,false,Rx,0,8,FF,FF,01,6C,20,00,0E,06,
4302504672,00000130,false,Rx,0,8,0E,80,1F,7D,00,01,0F,7A,
4302504906,00000140,false,Rx,0,8,FF,FF,01,6C,20,00,0F,1B,
4302514665,00000130,false,Rx,0,8,0A,80,28,7D,00,01,00,8C,
4302514899,00000140,false,Rx,0,8,FF,FF,01,6C,20,00,00,A0,
7563086,00000726,false,Tx,1,8,02,3E,00,00,00,00,00,00,
4302524658,00000130,false,Rx,0,8,05,80,2D,7D,00,01,01,12,
4302524902,00000140,false,Rx,0,8,FF,FF,01,6C,20,00,01,BD,
4302534682,00000130,false,Rx,0,8,09,80,1C,7D,00,01,02,CB,
4302534916,00000140,false,Rx,0,8,FF,FF,01,6C,20,00,02,9A,
4302544657,00000130,false,Rx,0,8,11,80,0A,7D,00,01,03,32,
4302544901,00000140,false,Rx,0,8,FF,FF,01,6C,20,00,03,87,
4302554526,00000500,false,Rx,0,1,0C,00,00,00,00,00,00,00,
4302554769,00000130,false,Rx,0,8,09,80,0E,7D,00,01,04,BF,
4302555007,00000140,false,Rx,0,8,FF,FF,01,6C,20,00,04,D4,
4302555247,00000495,false,Rx,0,8,00,00,12,8A,21,69,2C,64,
4302564662,00000130,false,Rx,0,8,0B,80,18,7D,00,01,05,97,
4302564896,00000140,false,Rx,0,8,FF,FF,01,6C,20,00,05,C9,
4302574656,00000130,false,Rx,0,8,0E,80,10,7D,00,01,06,F3,
4302574900,00000140,false,Rx,0,8,FF,FF,01,6C,20,00,06,EE,
4302584662,00000130,false,Rx,0,8,02,80,04,7D,00,01,07,0E,
4302584896,00000140,false,Rx,0,8,FF,FF,01,6C,20,00,07,F3,
4302594656,00000130,false,Rx,0,8,06,80,0F,7D,00,01,08,15,
4302594890,00000140,false,Rx,0,8,FF,FF,01,6C,20,00,08,48,
4302604662,00000130,false,Rx,0,8,02,80,1B,7D,00,01,09,3A,
4302604896,00000140,false,Rx,0,8,FF,FF,01,6C,20,00,09,55,
4302614717,00000130,false,Rx,0,8,08,80,22,7D,00,01,0A,47,
4302614962,00000140,false,Rx,0,8,FF,FF,01,6C,20,00,0A,72,
4302624650,00000130,false,Rx,0,8,0D,80,2C,7D,00,01,0B,78,
4302624895,00000140,false,Rx,0,8,FF,FF,01,6C,20,00,0B,6F,
4302634666,00000130,false,Rx,0,8,0F,80,16,7D,00,01,0C,1D,
4302634911,00000140,false,Rx,0,8,FF,FF,01,6C,20,00,0C,3C,
4302644661,00000130,false,Rx,0,8,0C,80,16,7D,00,01,0D,E7,
4302644896,00000140,false,Rx,0,8,FF,FF,01,6C,20,00,0D,21,
4302654521,00000500,false,Rx,0,1,0C,00,00,00,00,00,00,00,
7699035,00000727,false,Tx,1,8,02,3E,00,00,00,00,00,00,
4302654764,00000130,false,Rx,0,8,09,80,13,7D,00,01,0E,2B,
4302655002,00000140,false,Rx,0,8,FF,FF,01,6C,20,00,0E,06,
4302655232,00000495,false,Rx,0,8,00,00,12,8A,21,69,2C,64,
4302664656,00000130,false,Rx,0,8,05,80,16,7D,00,01,0F,52,
4302664890,00000140,false,Rx,0,8,FF,FF,01,6C,20,00,0F,1B,
4302674651,00000130,false,Rx,0,8,07,80,11,7D,00,01,00,58,
4302674895,00000140,false,Rx,0,8,FF,FF,01,6C,20,00,00,A0,
4302684657,00000130,false,Rx,0,8,05,80,0D,7D,00,01,01,D3,
4302684901,00000140,false,Rx,0,8,FF,FF,01,6C,20,00,01,BD,
4302694661,00000130,false,Rx,0,8,02,80,FD,7C,00,01,02,74,
4302694895,00000140,false,Rx,0,8,FF,FF,01,6C,20,00,02,9A,
4302704666,00000130,false,Rx,0,8,06,80,F7,7C,00,01,03,A3,
4302704900,00000140,false,Rx,0,8,FF,FF,01,6C,20,00,03,87,
4302714671,00000130,false,Rx,0,8,0F,80,07,7D,00,01,04,71,
4302714905,00000140,false,Rx,0,8,FF,FF,01,6C,20,00,04,D4,
4302724665,00000130,false,Rx,0,8,13,80,17,7D,00,01,05,80,
4302724899,00000140,false,Rx,0,8,FF,FF,01,6C,20,00,05,C9,
4302734679,00000130,false,Rx,0,8,15,80,22,7D,00,01,06,84,
4302734924,00000140,false,Rx,0,8,FF,FF,01,6C,20,00,06,EE,
4302744683,00000130,false,Rx,0,8,13,80,14,7D,00,01,07,04,
4302744927,00000140,false,Rx,0,8,FF,FF,01,6C,20,00,07,F3,
4302754530,00000500,false,Rx,0,1,0C,00,00,00,00,00,00,00,
4302754774,00000130,false,Rx,0,8,1A,80,04,7D,00,01,08,DE,
4302754808,000005A0,false,Rx,1,8,00,00,00,C0,20,10,94,0C,
4302755015,00000140,false,Rx,0,8,FF,FF,01,6C,20,00,08,48,
4302755243,00000495,false,Rx,0,8,00,00,12,8A,21,69,2C,64,
7803566,00000728,false,Tx,1,8,02,3E,00,00,00,00,00,00,
4302764658,00000130,false,Rx,0,8,1E,80,08,7D,00,01,09,68,
4302764904,00000140,false,Rx,0,8,FF,FF,01,6C,20,00,09,55,
4302774662,00000130,false,Rx,0,8,1E,80,FF,7C,00,01,0A,4A,
4302774897,00000140,false,Rx,0,8,FF,FF,01,6C,20,00,0A,72,
4302784656,00000130,false,Rx,0,8,10,80,F6,7C,00,01,0B,4B,
4302784891,00000140,false,Rx,0,8,FF,FF,01,6C,20,00,0B,6F,
4302794650,00000130,false,Rx,0,8,0E,80,E8,7C,00,01,0C,58,
4302794896,00000140,false,Rx,0,8,FF,FF,01,6C,20,00,0C,3C,
4302804656,00000130,false,Rx,0,8,0E,80,E3,7C,00,01,0D,8C,
4302804891,00000140,false,Rx,0,8,FF,FF,01,6C,20,00,0D,21,
4302814795,00000130,false,Rx,0,8,0C,80,F8,7C,00,01,0E,36,
4302815040,00000140,false,Rx,0,8,FF,FF,01,6C,20,00,0E,06,
4302824656,00000130,false,Rx,0,8,0E,80,06,7D,00,01,0F,89,
4302824892,00000140,false,Rx,0,8,FF,FF,01,6C,20,00,0F,1B,
4302834660,00000130,false,Rx,0,8,0C,80,0A,7D,00,01,00,4A,
4302834906,00000140,false,Rx,0,8,FF,FF,01,6C,20,00,00,A0,
4302844657,00000130,false,Rx,0,8,0B,80,15,7D,00,01,01,4B,
4302844902,00000140,false,Rx,0,8,FF,FF,01,6C,20,00,01,BD,
4302854525,00000500,false,Rx,0,1,0C,00,00,00,00,00,00,00,
4302854759,00000130,false,Rx,0,8,09,80,23,7D,00,01,02,98,
4302854997,00000140,false,Rx,0,8,FF,FF,01,6C,20,00,02,9A,
4302855236,00000495,false,Rx,0,8,00,00,12,8A,21,69,2C,64,
4302864660,00000130,false,Rx,0,8,06,80,14,7D,00,01,03,FD,
4302864895,00000140,false,Rx,0,8,FF,FF,01,6C,20,00,03,87,
4302874656,00000130,false,Rx,0,8,FE,7F,00,7D,00,01,04,87,
4302874891,00000140,false,Rx,0,8,FF,FF,01,6C,20,00,04,D4,
4302884651,00000130,false,Rx,0,8,09,80,0F,7D,00,01,05,C8,
4302884896,00000140,false,Rx,0,8,FF,FF,01,6C,20,00,05,C9,
4302894656,00000130,false,Rx,0,8,04,80,11,7D,00,01,06,F1,
4302894891,00000140,false,Rx,0,8,FF,FF,01,6C,20,00,06,EE,
4302904671,00000130,false,Rx,0,8,03,80,14,7D,00,01,07,BD,
7948544,00000729,false,Tx,1,8,02,3E,00,00,00,00,00,00,
4302904906,00000140,false,Rx,0,8,FF,FF,01,6C,20,00,07,F3,
4302914655,00000130,false,Rx,0,8,0B,80,11,7D,00,01,08,0B,
4302914901,00000140,false,Rx,0,8,FF,FF,01,6C,20,00,08,48,
4302924651,00000130,false,Rx,0,8,09,80,0E,7D,00,01,09,3E,
4302924895,00000140,false,Rx,0,8,FF,FF,01,6C,20,00,09,55,
4302934687,00000130,false,Rx,0,8,00,80,00,7D,00,01,0A,80,
4302934921,00000140,false,Rx,0,8,FF,FF,01,6C,20,00,0A,72,
4302944651,00000130,false,Rx,0,8,09,80,06,7D,00,01,0B,73,
4302944896,00000140,false,Rx,0,8,FF,FF,01,6C,20,00,0B,6F,
4302954530,00000500,false,Rx,0,1,0C,00,00,00,00,00,00,00,
4302954764,00000130,false,Rx,0,8,0F,80,29,7D,00,01,0C,4E,
4302955003,00000140,false,Rx,0,8,FF,FF,01,6C,20,00,0C,3C,
4302955241,00000495,false,Rx,0,8,00,00,12,8A,21,69,2C,64,
4302964656,00000130,false,Rx,0,8,0D,80,2E,7D,00,01,0D,E2,
4302964890,00000140,false,Rx,0,8,FF,FF,01,6C,20,00,0D,21,
4302974650,00000130,false,Rx,0,8,0F,80,27,7D,00,01,0E,62,
4302974894,00000140,false,Rx,0,8,FF,FF,01,6C,20,00,0E,06,
4302984653,00000130,false,Rx,0,8,11,80,28,7D,00,01,0F,BB,
4302984887,00000140,false,Rx,0,8,FF,FF,01,6C,20,00,0F,1B,
4302994657,00000130,false,Rx,0,8,0D,80,24,7D,00,01,00,C0,
4302994901,00000140,false,Rx,0,8,FF,FF,01,6C,20,00,00,A0,
4303004661,00000130,false,Rx,0,8,0A,80,14,7D,00,01,01,7C,
4303004905,00000140,false,Rx,0,8,FF,FF,01,6C,20,00,01,BD,
8056341,0000072A,false,Tx,1,8,02,3E,00,00,00,00,00,00,
4303014801,00000130,false,Rx,0,8,11,80,F8,7C,00,01,02,F5,
4303015035,00000140,false,Rx,0,8,FF,FF,01,6C,20,00,02,9A,
4303024661,00000130,false,Rx,0,8,15,80,F9,7C,00,01,03,EB,
4303024905,00000140,false,Rx,0,8,FF,FF,01,6C,20,00,03,87,
4303034666,00000130,false,Rx,0,8,14,80,07,7D,00,01,04,FD,
4303034900,00000140,false,Rx,0,8,FF,FF,01,6C,20,00,04,D4,
4303044671,00000130,false,Rx,0,8,0F,80,FC,7C,00,01,05,AB,
4303044905,00000140,false,Rx,0,8,FF,FF,01,6C,20,00,05,C9,
4303054531,00000500,false,Rx,0,1,0C,00,00,00,00,00,00,00,
4303054774,00000130,false,Rx,0,8,0F,80,FD,7C,00,01,06,E6,
4303055012,00000140,false,Rx,0,8,FF,FF,01,6C,20,00,06,EE,
4303055242,00000495,false,Rx,0,8,00,00,12,8A,21,69,2C,64,
4303064667,00000130,false,Rx,0,8,16,80,13,7D,00,01,07,3B,
4303064901,00000140,false,Rx,0,8,FF,FF,01,6C,20,00,07,F3,
4303074651,00000130,false,Rx,0,8,12,80,19,7D,00,01,08,4A,
4303074895,00000140,false,Rx,0,8,FF,FF,01,6C,20,00,08,48,
4303084656,00000130,false,Rx,0,8,06,80,08,7D,00,01,09,03,
4303084890,00000140,false,Rx,0,8,FF,FF,01,6C,20,00,09,55,
4303094651,00000130,false,Rx,0,8,FA,7F,13,7D,00,01,0A,18,
4303094895,00000140,false,Rx,0,8,FF,FF,01,6C,20,00,0A,72,
4303104666,00000130,false,Rx,0,8,FD,7F,03,7D,00,01,0B,65,
4303104900,00000140,false,Rx,0,8,FF,FF,01,6C,20,00,0B,6F,
4303114661,00000130,false,Rx,0,8,FC,7F,FF,7C,00,01,0C,A7,
4303114905,00000140,false,Rx,0,8,FF,FF,01,6C,20,00,0C,3C,
8161782,0000072B,false,Tx,1,8,02,3E,00,00,00,00,00,00,
4303124656,00000130,false,Rx,0,8,FF,7F,F9,7C,00,01,0D,3C,
4303124890,00000140,false,Rx,0,8,FF,FF,01,6C,20,00,0D,21,
4303134672,00000130,false,Rx,0,8,0A,80,F1,7C,00,01,0E,F8,
4303134916,00000140,false,Rx,0,8,FF,FF,01,6C,20,00,0E,06,
4303144656,00000130,false,Rx,0,8,14,80,08,7D,00,01,0F,4E,
4303144890,00000140,false,Rx,0,8,FF,FF,01,6C,20,00,0F,1B,
4303154526,00000500,false,Rx,0,1,0C,00,00,00,00,00,00,00,
4303154759,00000130,false,Rx,0,8,11,80,25,7D,00,01,00,A8,
4303155008,00000140,false,Rx,0,8,FF,FF,01,6C,20,00,00,A0,
4303155237,00000495,false,Rx,0,8,00,00,12,8A,21,69,2C,64,
4303164662,00000130,false,Rx,0,8,12,80,1A,7D,00,01,01,01,
4303164896,00000140,false,Rx,0,8,FF,FF,01,6C,20,00,01,BD,
4303174656,00000130,false,Rx,0,8,1A,80,02,7D,00,01,02,6D,
4303174890,00000140,false,Rx,0,8,FF,FF,01,6C,20,00,02,9A,
4303184650,00000130,false,Rx,0,8,0C,80,F1,7C,00,01,03,AA,
4303184884,00000140,false,Rx,0,8,FF,FF,01,6C,20,00,03,87,
