Time Stamp,ID,Extended,Dir,Bus,LEN,D1,D2,D3,D4,D5,D6,D7,D8
4306719678,00000140,false,Rx,0,8,FF,FF,01,6C,20,00,01,BD,
4306729427,00000130,false,Rx,0,8,09,80,05,7D,00,01,02,38,
4306729673,00000140,false,Rx,0,8,FF,FF,01,6C,20,00,02,9A,
4306739431,00000130,false,Rx,0,8,09,80,0B,7D,00,01,03,33,
4306739667,00000140,false,Rx,0,8,FF,FF,01,6C,20,00,03,87,
4306749426,00000130,false,Rx,0,8,11,80,1A,7D,00,01,04,8F,
4306749673,00000140,false,Rx,0,8,FF,FF,01,6C,20,00,04,D4,
4306759453,00000130,false,Rx,0,8,0F,80,24,7D,00,01,05,13,
4306759688,00000140,false,Rx,0,8,FF,FF,01,6C,20,00,05,C9,
4306769448,00000130,false,Rx,0,8,0B,80,23,7D,00,01,06,56,
4306769684,00000140,false,Rx,0,8,FF,FF,01,6C,20,00,06,EE,
4306779588,00000130,false,Rx,0,8,02,80,17,7D,00,01,07,5E,
4306779823,00000140,false,Rx,0,8,FF,FF,01,6C,20,00,07,F3,
4306789428,00000130,false,Rx,0,8,04,80,11,7D,00,01,08,57,
4306789673,00000140,false,Rx,0,8,FF,FF,01,6C,20,00,08,48,
4306799432,00000130,false,Rx,0,8,18,80,18,7D,00,01,09,55,
4306799668,00000140,false,Rx,0,8,FF,FF,01,6C,20,00,09,55,
4306809302,00000500,false,Rx,0,1,0C,00,00,00,00,00,00,00,
4306809535,00000130,false,Rx,0,8,1B,80,01,7D,00,01,0A,66,
4306809775,00000140,false,Rx,0,8,FF,FF,01,6C,20,00,0A,72,
4306810013,00000495,false,Rx,0,8,00,00,12,8A,21,69,2C,64,
4306819428,00000130,false,Rx,0,8,15,80,02,7D,00,01,0B,C4,
4306819673,00000140,false,Rx,0,8,FF,FF,01,6C,20,00,0B,6F,
4306829433,00000130,false,Rx,0,8,0C,80,16,7D,00,01,0C,FA,
4306829678,00000140,false,Rx,0,8,FF,FF,01,6C,20,00,0C,3C,
4306839428,00000130,false,Rx,0,8,0C,80,14,7D,00,01,0D,33,
4306839663,00000140,false,Rx,0,8,FF,FF,01,6C,20,00,0D,21,
4306849433,00000130,false,Rx,0,8,1A,80,05,7D,00,01,0E,FA,
4306849668,00000140,false,Rx,0,8,FF,FF,01,6C,20,00,0E,06,
4306859438,00000130,false,Rx,0,8,18,80,0A,7D,00,01,0F,21,
4306859674,00000140,false,Rx,0,8,FF,FF,01,6C,20,00,0F,1B,
4306869443,00000130,false,Rx,0,8,0F,80,0F,7D,00,01,00,72,
4306869678,00000140,false,Rx,0,8,FF,FF,01,6C,20,00,00,A0,
4306879437,00000130,false,Rx,0,8,13,80,1A,7D,00,01,01,5C,
4306879673,00000140,false,Rx,0,8,FF,FF,01,6C,20,00,01,BD,
4306889453,00000130,false,Rx,0,8,19,80,18,7D,00,01,02,C7,
4306889688,00000140,false,Rx,0,8,FF,FF,01,6C,20,00,02,9A,
4306899458,00000130,false,Rx,0,8,14,80,12,7D,00,01,03,9F,
4306899703,00000140,false,Rx,0,8,FF,FF,01,6C,20,00,03,87,
4306909308,00000500,false,Rx,0,1,0C,00,00,00,00,00,00,00,
4306909550,00000130,false,Rx,0,8,0E,80,0E,7D,00,01,04,31,
4306909584,000005A0,false,Rx,1,8,00,00,00,C0,20,34,93,0C,
4306909791,00000140,false,Rx,0,8,FF,FF,01,6C,20,00,04,D4,
4306910020,00000495,false,Rx,0,8,00,00,12,8A,21,69,2C,64,
4306919435,00000130,false,Rx,0,8,0C,80,21,7D,00,01,05,2B,
4306919671,00000140,false,Rx,0,8,FF,FF,01,6C,20,00,05,C9,
4306929439,00000130,false,Rx,0,8,0D,80,1E,7D,00,01,06,02,
4306929675,00000140,false,Rx,0,8,FF,FF,01,6C,20,00,06,EE,
4306939433,00000130,false,Rx,0,8,0C,80,16,7D,00,01,07,35,
4306939679,00000140,false,Rx,0,8,FF,FF,01,6C,20,00,07,F3,
4306949437,00000130,false,Rx,0,8,0C,80,0B,7D,00,01,08,C8,
4306949672,00000140,false,Rx,0,8,FF,FF,01,6C,20,00,08,48,
4306959442,00000130,false,Rx,0,8,0B,80,02,7D,00,01,09,46,
4306959688,00000140,false,Rx,0,8,FF,FF,01,6C,20,00,09,55,
4306969449,00000130,false,Rx,0,8,07,80,07,7D,00,01,0A,05,
4306969684,00000140,false,Rx,0,8,FF,FF,01,6C,20,00,0A,72,
4306979587,00000130,false,Rx,0,8,07,80,12,7D,00,01,0B,29,
4306979823,00000140,false,Rx,0,8,FF,FF,01,6C,20,00,0B,6F,
4306989427,00000130,false,Rx,0,8,06,80,1D,7D,00,01,0C,5B,
4306989672,00000140,false,Rx,0,8,FF,FF,01,6C,20,00,0C,3C,
4306999432,00000130,false,Rx,0,8,08,80,23,7D,00,01,0D,7E,
4306999668,00000140,false,Rx,0,8,FF,FF,01,6C,20,00,0D,21,
4307009303,00000500,false,Rx,0,1,0C,00,00,00,00,00,00,00,
4307009546,00000130,false,Rx,0,8,15,80,13,7D,00,01,0E,29,
4307009786,00000140,false,Rx,0,8,FF,FF,01,6C,20,00,0E,06,
4307010014,00000495,false,Rx,0,8,00,00,12,8A,21,69,2C,64,
4307019437,00000130,false,Rx,0,8,13,80,15,7D,00,01,0F,86,
4307019673,00000140,false,Rx,0,8,FF,FF,01,6C,20,00,0F,1B,
4307029443,00000130,false,Rx,0,8,05,80,19,7D,00,01,00,95,
4307029678,00000140,false,Rx,0,8,FF,FF,01,6C,20,00,00,A0,
4307039427,00000130,false,Rx,0,8,03,80,14,7D,00,01,01,F3,
4307039672,00000140,false,Rx,0,8,FF,FF,01,6C,20,00,01,BD,
4307049432,00000130,false,Rx,0,8,08,80,0B,7D,00,01,02,73,
4307049667,00000140,false,Rx,0,8,FF,FF,01,6C,20,00,02,9A,
4307059445,00000130,false,Rx,0,8,FE,7F,FC,7C,00,01,03,18,
4307059681,00000140,false,Rx,0,8,FF,FF,01,6C,20,00,03,87,
4307069439,00000130,false,Rx,0,8,00,80,F8,7C,00,01,04,5F,
4307069684,00000140,false,Rx,0,8,FF,FF,01,6C,20,00,04,D4,
4307079432,00000130,false,Rx,0,8,FE,7F,F9,7C,00,01,05,89,
4307079668,00000140,false,Rx,0,8,FF,FF,01,6C,20,00,05,C9,
4307089448,00000130,false,Rx,0,8,03,80,F8,7C,00,01,06,82,
4307089695,00000140,false,Rx,0,8,FF,FF,01,6C,20,00,06,EE,
4307099432,00000130,false,Rx,0,8,0D,80,07,7D,00,01,07,EC,
4307099679,00000140,false,Rx,0,8,FF,FF,01,6C,20,00,07,F3,
4307109302,00000500,false,Rx,0,1,0C,00,00,00,00,00,00,00,
4307109545,00000130,false,Rx,0,8,09,80,12,7D,00,01,08,0F,
4307109785,00000140,false,Rx,0,8,FF,FF,01,6C,20,00,08,48,
4307110023,00000495,false,Rx,0,8,00,00,12,8A,21,69,2C,64,
4307119437,00000130,false,Rx,0,8,0A,80,06,7D,00,01,09,AE,
4307119673,00000140,false,Rx,0,8,FF,FF,01,6C,20,00,09,55,
4307129432,00000130,false,Rx,0,8,10,80,12,7D,00,01,0A,03,
4307129668,00000140,false,Rx,0,8,FF,FF,01,6C,20,00,0A,72,
4307139426,00000130,false,Rx,0,8,0E,80,2D,7D,00,01,0B,F5,
4307139664,00000140,false,Rx,0,8,FF,FF,01,6C,20,00,0B,6F,
4307149422,00000130,false,Rx,0,8,07,80,30,7D,00,01,0C,6F,
4307149669,00000140,false,Rx,0,8,FF,FF,01,6C,20,00,0C,3C,
4307159437,00000130,false,Rx,0,8,07,80,2D,7D,00,01,0D,34,
4307159673,00000140,false,Rx,0,8,FF,FF,01,6C,20,00,0D,21,
4307169442,00000130,false,Rx,0,8,08,80,2D,7D,00,01,0E,4F,
4307169679,00000140,false,Rx,0,8,FF,FF,01,6C,20,00,0E,06,
4307179583,00000130,false,Rx,0,8,06,80,33,7D,00,01,0F,AB,
4307179818,00000140,false,Rx,0,8,FF,FF,01,6C,20,00,0F,1B,
4307189432,00000130,false,Rx,0,8,05,80,26,7D,00,01,00,C6,
4307189679,00000140,false,Rx,0,8,FF,FF,01,6C,20,00,00,A0,
4307199437,00000130,false,Rx,0,8,08,80,26,7D,00,01,01,3D,
4307199673,00000140,false,Rx,0,8,FF,FF,01,6C,20,00,01,BD,
4307209297,00000500,false,Rx,0,1,0C,00,00,00,00,00,00,00,
4307209541,00000130,false,Rx,0,8,09,80,26,7D,00,01,02,47,
4307209780,00000140,false,Rx,0,8,FF,FF,01,6C,20,00,02,9A,
4307210008,00000495,false,Rx,0,8,00,00,12,8A,21,69,2C,64,
4307219441,00000130,false,Rx,0,8,FD,7F,29,7D,00,01,03,EF,
4307219678,00000140,false,Rx,0,8,FF,FF,01,6C,20,00,03,87,
4307229438,00000130,false,Rx,0,8,F8,7F,21,7D,00,01,04,FF,
4307229673,00000140,false,Rx,0,8,FF,FF,01,6C,20,00,04,D4,
4307239443,00000130,false,Rx,0,8,0C,80,23,7D,00,01,05,FF,
4307239678,00000140,false,Rx,0,8,FF,FF,01,6C,20,00,05,C9,
4307249437,00000130,false,Rx,0,8,14,80,16,7D,00,01,06,43,
4307249673,00000140,false,Rx,0,8,FF,FF,01,6C,20,00,06,EE,
4307259452,00000130,false,Rx,0,8,10,80,0E,7D,00,01,07,AE,
4307259687,00000140,false,Rx,0,8,FF,FF,01,6C,20,00,07,F3,
4307269435,00000130,false,Rx,0,8,13,80,0D,7D,00,01,08,4C,
4307269681,00000140,false,Rx,0,8,FF,FF,01,6C,20,00,08,48,
4307279429,00000130,false,Rx,0,8,0A,80,14,7D,00,01,09,94,
4307279675,00000140,false,Rx,0,8,FF,FF,01,6C,20,00,09,55,
4307289443,00000130,false,Rx,0,8,06,80,06,7D,00,01,0A,32,
4307289689,00000140,false,Rx,0,8,FF,FF,01,6C,20,00,0A,72,
4307299438,00000130,false,Rx,0,8,04,80,05,7D,00,01,0B,2B,
4307299683,00000140,false,Rx,0,8,FF,FF,01,6C,20,00,0B,6F,
4307309308,00000500,false,Rx,0,1,0C,00,00,00,00,00,00,00,
4307309540,00000130,false,Rx,0,8,03,80,17,7D,00,01,0C,CC,
4307309790,00000140,false,Rx,0,8,FF,FF,01,6C,20,00,0C,3C,
4307310018,00000495,false,Rx,0,8,00,00,12,8A,21,69,2C,64,
4307319432,00000130,false,Rx,0,8,01,80,16,7D,00,01,0D,01,
4307319678,00000140,false,Rx,0,8,FF,FF,01,6C,20,00,0D,21,
4307329427,00000130,false,Rx,0,8,FE,7F,13,7D,00,01,0E,05,
4307329662,00000140,false,Rx,0,8,FF,FF,01,6C,20,00,0E,06,
4307339432,00000130,false,Rx,0,8,01,80,04,7D,00,01,0F,01,
4307339668,00000140,false,Rx,0,8,FF,FF,01,6C,20,00,0F,1B,
4307349427,00000130,false,Rx,0,8,07,80,F8,7C,00,01,00,A5,
4307349673,00000140,false,Rx,0,8,FF,FF,01,6C,20,00,00,A0,
4307359443,00000130,false,Rx,0,8,09,80,04,7D,00,01,01,75,
4307359678,00000140,false,Rx,0,8,FF,FF,01,6C,20,00,01,BD,
4307369447,00000130,false,Rx,0,8,02,80,1F,7D,00,01,02,40,
4307369683,00000140,false,Rx,0,8,FF,FF,01,6C,20,00,02,9A,
4307379577,00000130,false,Rx,0,8,07,80,21,7D,00,01,03,50,
4307379823,00000140,false,Rx,0,8,FF,FF,01,6C,20,00,03,87,
4307389427,00000130,false,Rx,0,8,0D,80,1E,7D,00,01,04,38,
4307389672,00000140,false,Rx,0,8,FF,FF,01,6C,20,00,04,D4,
4307399453,00000130,false,Rx,0,8,18,80,23,7D,00,01,05,2F,
4307399688,00000140,false,Rx,0,8,FF,FF,01,6C,20,00,05,C9,
4307409292,00000500,false,Rx,0,1,0C,00,00,00,00,00,00,00,
4307409535,00000130,false,Rx,0,8,17,80,27,7D,00,01,06,E1,
4307409774,00000140,false,Rx,0,8,FF,FF,01,6C,20,00,06,EE,
4307410003,00000495,false,Rx,0,8,00,00,12,8A,21,69,2C,64,
4307419427,00000130,false,Rx,0,8,02,80,1C,7D,00,01,07,97,
4307419673,00000140,false,Rx,0,8,FF,FF,01,6C,20,00,07,F3,
4307429422,00000130,false,Rx,0,8,F9,7F,11,7D,00,01,08,11,
4307429668,00000140,false,Rx,0,8,FF,FF,01,6C,20,00,08,48,
4307439427,00000130,false,Rx,0,8,00,80,0B,7D,00,01,09,6E,
4307439662,00000140,false,Rx,0,8,FF,FF,01,6C,20,00,09,55,
4307449420,00000130,false,Rx,0,8,0E,80,F4,7C,00,01,0A,3A,
4307449665,00000140,false,Rx,0,8,FF,FF,01,6C,20,00,0A,72,
4307459434,00000130,false,Rx,0,8,0E,80,F4,7C,00,01,0B,27,
4307459679,00000140,false,Rx,0,8,FF,FF,01,6C,20,00,0B,6F,
4307469429,00000130,false,Rx,0,8,FC,7F,16,7D,00,01,0C,5A,
4307469674,00000140,false,Rx,0,8,FF,FF,01,6C,20,00,0C,3C,
4307479422,00000130,false,Rx,0,8,FB,7F,26,7D,00,01,0D,E6,
4307479667,00000140,false,Rx,0,8,FF,FF,01,6C,20,00,0D,21,
4307489447,00000130,false,Rx,0,8,05,80,21,7D,00,01,0E,6B,
4307489693,00000140,false,Rx,0,8,FF,FF,01,6C,20,00,0E,06,
4307499432,00000130,false,Rx,0,8,04,80,13,7D,00,01,0F,D0,
4307499678,00000140,false,Rx,0,8,FF,FF,01,6C,20,00,0F,1B,
4307509303,00000500,false,Rx,0,1,0C,00,00,00,00,00,00,00,
4307509546,00000130,false,Rx,0,8,09,80,0C,7D,00,01,00,1F,
4307509797,00000140,false,Rx,0,8,FF,FF,01,6C,20,00,00,A0,
4307510024,00000495,false,Rx,0,8,00,00,12,8A,21,69,2C,64,
4307519438,00000130,false,Rx,0,8,0F,80,05,7D,00,01,01,CC,
4307519683,00000140,false,Rx,0,8,FF,FF,01,6C,20,00,01,BD,
4307529432,00000130,false,Rx,0,8,20,80,EC,7C,00,01,02,25,
4307529667,00000140,false,Rx,0,8,FF,FF,01,6C,20,00,02,9A,
4307539427,00000130,false,Rx,0,8,2A,80,FF,7C,00,01,03,00,
4307539673,00000140,false,Rx,0,8,FF,FF,01,6C,20,00,03,87,
4307549432,00000130,false,Rx,0,8,22,80,1B,7D,00,01,04,D4,
4307549678,00000140,false,Rx,0,8,FF,FF,01,6C,20,00,04,D4,
4307559447,00000130,false,Rx,0,8,11,80,0D,7D,00,01,05,77,
4307559684,00000140,false,Rx,0,8,FF,FF,01,6C,20,00,05,C9,
4307569452,00000130,false,Rx,0,8,05,80,0E,7D,00,01,06,3E,
4307569689,00000140,false,Rx,0,8,FF,FF,01,6C,20,00,06,EE,
4307579592,00000130,false,Rx,0,8,02,80,0E,7D,00,01,07,AD,
4307579830,00000140,false,Rx,0,8,FF,FF,01,6C,20,00,07,F3,
4307589432,00000130,false,Rx,0,8,01,80,F2,7C,00,01,08,3D,
4307589668,00000140,false,Rx,0,8,FF,FF,01,6C,20,00,08,48,
4307599427,00000130,false,Rx,0,8,02,80,F5,7C,00,01,09,CC,
4307599663,00000140,false,Rx,0,8,FF,FF,01,6C,20,00,09,55,
4307609299,00000500,false,Rx,0,1,0C,00,00,00,00,00,00,00,
4307609531,00000130,false,Rx,0,8,F6,7F,06,7D,00,01,0A,92,
4307609771,00000140,false,Rx,0,8,FF,FF,01,6C,20,00,0A,72,
4307610010,00000495,false,Rx,0,8,00,00,12,8A,21,69,2C,64,
4307619433,00000130,false,Rx,0,8,F8,7F,FD,7C,00,01,0B,49,
4307619670,00000140,false,Rx,0,8,FF,FF,01,6C,20,00,0B,6F,
4307629427,00000130,false,Rx,0,8,08,80,FB,7C,00,01,0C,DB,
4307629664,00000140,false,Rx,0,8,FF,FF,01,6C,20,00,0C,3C,
4307639421,00000130,false,Rx,0,8,11,80,12,7D,00,01,0D,0D,
4307639668,00000140,false,Rx,0,8,FF,FF,01,6C,20,00,0D,21,
4307649427,00000130,false,Rx,0,8,15,80,0C,7D,00,01,0E,BB,
4307649663,00000140,false,Rx,0,8,FF,FF,01,6C,20,00,0E,06,
4307659442,00000130,false,Rx,0,8,0D,80,09,7D,00,01,0F,12,
4307659678,00000140,false,Rx,0,8,FF,FF,01,6C,20,00,0F,1B,
4307669437,00000130,false,Rx,0,8,03,80,0B,7D,00,01,00,7C,
4307669673,00000140,false,Rx,0,8,FF,FF,01,6C,20,00,00,A0,
4307679431,00000130,false,Rx,0,8,00,80,0B,7D,00,01,01,86,
4307679678,00000140,false,Rx,0,8,FF,FF,01,6C,20,00,01,BD,
4307689447,00000130,false,Rx,0,8,FD,7F,1A,7D,00,01,02,63,
4307689684,00000140,false,Rx,0,8,FF,FF,01,6C,20,00,02,9A,
4307699431,00000130,false,Rx,0,8,09,80,18,7D,00,01,03,63,
4307699668,00000140,false,Rx,0,8,FF,FF,01,6C,20,00,03,87,
4307709302,00000500,false,Rx,0,1,0C,00,00,00,00,00,00,00,
4307709535,00000130,false,Rx,0,8,13,80,09,7D,00,01,04,65,
4307709775,00000140,false,Rx,0,8,FF,FF,01,6C,20,00,04,D4,
4307710013,00000495,false,Rx,0,8,00,00,12,8A,21,69,2C,64,
4307719429,00000130,false,Rx,0,8,15,80,05,7D,00,01,05,69,
4307719674,00000140,false,Rx,0,8,FF,FF,01,6C,20,00,05,C9,
4307729422,00000130,false,Rx,0,8,13,80,02,7D,00,01,06,96,
4307729668,00000140,false,Rx,0,8,FF,FF,01,6C,20,00,06,EE,
4307739425,00000130,false,Rx,0,8,17,80,0E,7D,00,01,07,20,
4307739671,00000140,false,Rx,0,8,FF,FF,01,6C,20,00,07,F3,
4307749419,00000130,false,Rx,0,8,14,80,24,7D,00,01,08,1E,
4307749664,00000140,false,Rx,0,8,FF,FF,01,6C,20,00,08,48,
4307759443,00000130,false,Rx,0,8,0F,80,1F,7D,00,01,09,69,
4307759678,00000140,false,Rx,0,8,FF,FF,01,6C,20,00,09,55,
4307769437,00000130,false,Rx,0,8,0A,80,04,7D,00,01,0A,5D,
4307769673,00000140,false,Rx,0,8,FF,FF,01,6C,20,00,0A,72,
4307779575,00000130,false,Rx,0,8,07,80,02,7D,00,01,0B,C7,
4307779821,00000140,false,Rx,0,8,FF,FF,01,6C,20,00,0B,6F,
4307789423,00000130,false,Rx,0,8,06,80,01,7D,00,01,0C,77,
4307789669,00000140,false,Rx,0,8,FF,FF,01,6C,20,00,0C,3C,
4307799427,00000130,false,Rx,0,8,08,80,FD,7C,00,01,0D,A7,
4307799672,00000140,false,Rx,0,8,FF,FF,01,6C,20,00,0D,21,
4307809295,00000500,false,Rx,0,1,0C,00,00,00,00,00,00,00,
4307809538,00000130,false,Rx,0,8,08,80,FE,7C,00,01,0E,3E,
4307809787,00000140,false,Rx,0,8,FF,FF,01,6C,20,00,0E,06,
4307810015,00000495,false,Rx,0,8,00,00,12,8A,21,69,2C,64,
4307819439,00000130,false,Rx,0,8,06,80,0C,7D,00,01,0F,F8,
4307819675,00000140,false,Rx,0,8,FF,FF,01,6C,20,00,0F,1B,
4307829432,00000130,false,Rx,0,8,08,80,23,7D,00,01,00,FF,
4307829678,00000140,false,Rx,0,8,FF,FF,01,6C,20,00,00,A0,
4307839437,00000130,false,Rx,0,8,03,80,29,7D,00,01,01,74,
4307839683,00000140,false,Rx,0,8,FF,FF,01,6C,20,00,01,BD,
4307849432,00000130,false,Rx,0,8,FA,7F,2A,7D,00,01,02,C2,
4307849667,00000140,false,Rx,0,8,FF,FF,01,6C,20,00,02,9A,
4307859437,00000130,false,Rx,0,8,F4,7F,24,7D,00,01,03,C8,
4307859682,00000140,false,Rx,0,8,FF,FF,01,6C,20,00,03,87,
4307869430,00000130,false,Rx,0,8,FF,7F,25,7D,00,01,04,C4,
4307869676,00000140,false,Rx,0,8,FF,FF,01,6C,20,00,04,D4,
4307879434,00000130,false,Rx,0,8,05,80,2C,7D,00,01,05,0C,
4307879669,00000140,false,Rx,0,8,FF,FF,01,6C,20,00,05,C9,
4307889449,00000130,false,Rx,0,8,FF,7F,2B,7D,00,01,06,E8,
4307889684,00000140,false,Rx,0,8,FF,FF,01,6C,20,00,06,EE,
4307899453,00000130,false,Rx,0,8,08,80,26,7D,00,01,07,73,
4307899699,00000140,false,Rx,0,8,FF,FF,01,6C,20,00,07,F3,
4307909303,00000500,false,Rx,0,1,0C,00,00,00,00,00,00,00,
4307909535,00000130,false,Rx,0,8,0D,80,09,7D,00,01,08,41,
4307909579,000005A0,false,Rx,1,8,00,00,00,C0,20,10,94,0C,
4307909776,00000140,false,Rx,0,8,FF,FF,01,6C,20,00,08,48,
4307910015,00000495,false,Rx,0,8,00,00,12,8A,21,69,2C,64,
4307919430,00000130,false,Rx,0,8,05,80,F7,7C,00,01,09,96,
4307919665,00000140,false,Rx,0,8,FF,FF,01,6C,20,00,09,55,
4307929423,00000130,false,Rx,0,8,FE,7F,03,7D,00,01,0A,9F,
4307929669,00000140,false,Rx,0,8,FF,FF,01,6C,20,00,0A,72,
4307939417,00000130,false,Rx,0,8,FF,7F,08,7D,00,01,0B,16,
4307939662,00000140,false,Rx,0,8,FF,FF,01,6C,20,00,0B,6F,
4307949423,00000130,false,Rx,0,8,0E,80,0A,7D,00,01,0C,6C,
4307949668,00000140,false,Rx,0,8,FF,FF,01,6C,20,00,0C,3C,
4307959437,00000130,false,Rx,0,8,11,80,19,7D,00,01,0D,C4,
4307959672,00000140,false,Rx,0,8,FF,FF,01,6C,20,00,0D,21,
4307969433,00000130,false,Rx,0,8,15,80,19,7D,00,01,0E,8A,
4307969679,00000140,false,Rx,0,8,FF,FF,01,6C,20,00,0E,06,
4307979571,00000130,false,Rx,0,8,12,80,0D,7D,00,01,0F,42,
4307979818,00000140,false,Rx,0,8,FF,FF,01,6C,20,00,0F,1B,
4307989422,00000130,false,Rx,0,8,10,80,0A,7D,00,01,00,48,
4307989667,00000140,false,Rx,0,8,FF,FF,01,6C,20,00,00,A0,
4307999427,00000130,false,Rx,0,8,04,80,04,7D,00,01,01,93,
4307999673,00000140,false,Rx,0,8,FF,FF,01,6C,20,00,01,BD,
4308009297,00000500,false,Rx,0,1,0C,00,00,00,00,00,00,00,
4308009539,00000130,false,Rx,0,8,04,80,03,7D,00,01,02,BF,
4308009780,00000140,false,Rx,0,8,FF,FF,01,6C,20,00,02,9A,
4308010008,00000495,false,Rx,0,8,00,00,12,8A,21,69,2C,64,
4308019431,00000130,false,Rx,0,8,0E,80,13,7D,00,01,03,24,
4308019667,00000140,false,Rx,0,8,FF,FF,01,6C,20,00,03,87,
4308029425,00000130,false,Rx,0,8,10,80,2B,7D,00,01,04,97,
4308029670,00000140,false,Rx,0,8,FF,FF,01,6C,20,00,04,D4,
4308039418,00000130,false,Rx,0,8,0C,80,28,7D,00,01,05,36,
4308039663,00000140,false,Rx,0,8,FF,FF,01,6C,20,00,05,C9,
4308049421,00000130,false,Rx,0,8,05,80,2B,7D,00,01,06,20,
4308049668,00000140,false,Rx,0,8,FF,FF,01,6C,20,00,06,EE,
4308059437,00000130,false,Rx,0,8,FC,7F,2C,7D,00,01,07,19,
4308059673,00000140,false,Rx,0,8,FF,FF,01,6C,20,00,07,F3,
4308069429,00000130,false,Rx,0,8,F8,7F,2B,7D,00,01,08,C0,
4308069666,00000140,false,Rx,0,8,FF,FF,01,6C,20,00,08,48,
4308079423,00000130,false,Rx,0,8,FD,7F,29,7D,00,01,09,3D,
4308079660,00000140,false,Rx,0,8,FF,FF,01,6C,20,00,09,55,
4308089448,00000130,false,Rx,0,8,05,80,17,7D,00,01,0A,51,
4308089684,00000140,false,Rx,0,8,FF,FF,01,6C,20,00,0A,72,
4308099432,00000130,false,Rx,0,8,04,80,1B,7D,00,01,0B,D3,
4308099668,00000140,false,Rx,0,8,FF,FF,01,6C,20,00,0B,6F,
4308109313,00000500,false,Rx,0,1,0C,00,00,00,00,00,00,00,
4308109545,00000130,false,Rx,0,8,04,80,1C,7D,00,01,0C,8B,
4308109785,00000140,false,Rx,0,8,FF,FF,01,6C,20,00,0C,3C,
4308110024,00000495,false,Rx,0,8,00,00,12,8A,21,69,2C,64,
4308119437,00000130,false,Rx,0,8,04,80,12,7D,00,01,0D,80,
4308119674,00000140,false,Rx,0,8,FF,FF,01,6C,20,00,0D,21,
4308129422,00000130,false,Rx,0,8,02,80,07,7D,00,01,0E,45,
4308129668,00000140,false,Rx,0,8,FF,FF,01,6C,20,00,0E,06,
4308139426,00000130,false,Rx,0,8,03,80,FD,7C,00,01,0F,A8,
4308139662,00000140,false,Rx,0,8,FF,FF,01,6C,20,00,0F,1B,
4308149431,00000130,false,Rx,0,8,08,80,03,7D,00,01,00,3E,
4308149678,00000140,false,Rx,0,8,FF,FF,01,6C,20,00,00,A0,
4308159447,00000130,false,Rx,0,8,04,80,0F,7D,00,01,01,5A,
4308159684,00000140,false,Rx,0,8,FF,FF,01,6C,20,00,01,BD,
4308169442,00000130,false,Rx,0,8,10,80,0F,7D,00,01,02,AD,
4308169678,00000140,false,Rx,0,8,FF,FF,01,6C,20,00,02,9A,
4308179582,00000130,false,Rx,0,8,0A,80,09,7D,00,01,03,00,
4308179828,00000140,false,Rx,0,8,FF,FF,01,6C,20,00,03,87,
4308189421,00000130,false,Rx,0,8,06,80,06,7D,00,01,04,94,
4308189668,00000140,false,Rx,0,8,FF,FF,01,6C,20,00,04,D4,
4308199428,00000130,false,Rx,0,8,09,80,FD,7C,00,01,05,12,
4308199663,00000140,false,Rx,0,8,FF,FF,01,6C,20,00,05,C9,
4308209297,00000500,false,Rx,0,1,0C,00,00,00,00,00,00,00,
4308209541,00000130,false,Rx,0,8,0F,80,02,7D,00,01,06,94,
4308209780,00000140,false,Rx,0,8,FF,FF,01,6C,20,00,06,EE,
4308210008,00000495,false,Rx,0,8,00,00,12,8A,21,69,2C,64,
4308219433,00000130,false,Rx,0,8,0C,80,02,7D,00,01,07,6E,
4308219668,00000140,false,Rx,0,8,FF,FF,01,6C,20,00,07,F3,
4308229417,00000130,false,Rx,0,8,04,80,0E,7D,00,01,08,C5,
4308229663,00000140,false,Rx,0,8,FF,FF,01,6C,20,00,08,48,
4308239422,00000130,false,Rx,0,8,0D,80,23,7D,00,01,09,3E,
4308239657,00000140,false,Rx,0,8,FF,FF,01,6C,20,00,09,55,
4308249417,00000130,false,Rx,0,8,0B,80,23,7D,00,01,0A,CA,
4308249652,00000140,false,Rx,0,8,FF,FF,01,6C,20,00,0A,72,
4308259430,00000130,false,Rx,0,8,FE,7F,1C,7D,00,01,0B,10,
4308259665,00000140,false,Rx,0,8,FF,FF,01,6C,20,00,0B,6F,
4308269423,00000130,false,Rx,0,8,FE,7F,0B,7D,00,01,0C,A6,
4308269669,00000140,false,Rx,0,8,FF,FF,01,6C,20,00,0C,3C,
4308279427,00000130,false,Rx,0,8,05,80,1A,7D,00,01,0D,AA,
4308279662,00000140,false,Rx,0,8,FF,FF,01,6C,20,00,0D,21,
4308289442,00000130,false,Rx,0,8,FD,7F,2A,7D,00,01,0E,D0,
4308289677,00000140,false,Rx,0,8,FF,FF,01,6C,20,00,0E,06,
4308299424,00000130,false,Rx,0,8,F7,7F,17,7D,00,01,0F,22,
4308299670,00000140,false,Rx,0,8,FF,FF,01,6C,20,00,0F,1B,
4308309294,00000500,false,Rx,0,1,0C,00,00,00,00,00,00,00,
4308309536,00000130,false,Rx,0,8,03,80,19,7D,00,01,00,46,
4308309785,00000140,false,Rx,0,8,FF,FF,01,6C,20,00,00,A0,
4308310014,00000495,false,Rx,0,8,00,00,12,8A,21,69,2C,64,
4308319428,00000130,false,Rx,0,8,01,80,11,7D,00,01,01,96,
4308319674,00000140,false,Rx,0,8,FF,FF,01,6C,20,00,01,BD,
4308329422,00000130,false,Rx,0,8,03,80,05,7D,00,01,02,50,
4308329668,00000140,false,Rx,0,8,FF,FF,01,6C,20,00,02,9A,
4308339427,00000130,false,Rx,0,8,03,80,FD,7C,00,01,03,34,
4308339663,00000140,false,Rx,0,8,FF,FF,01,6C,20,00,03,87,
4308349422,00000130,false,Rx,0,8,03,80,0C,7D,00,01,04,03,
4308349669,00000140,false,Rx,0,8,FF,FF,01,6C,20,00,04,D4,
4308359437,00000130,false,Rx,0,8,07,80,25,7D,00,01,05,AB,
4308359672,00000140,false,Rx,0,8,FF,FF,01,6C,20,00,05,C9,
4308369432,00000130,false,Rx,0,8,11,80,16,7D,00,01,06,77,
4308369678,00000140,false,Rx,0,8,FF,FF,01,6C,20,00,06,EE,
4308379592,00000130,false,Rx,0,8,16,80,15,7D,00,01,07,5A,
4308379827,00000140,false,Rx,0,8,FF,FF,01,6C,20,00,07,F3,
4308389422,00000130,false,Rx,0,8,1B,80,2D,7D,00,01,08,5F,
4308389668,00000140,false,Rx,0,8,FF,FF,01,6C,20,00,08,48,
4308399448,00000130,false,Rx,0,8,20,80,29,7D,00,01,09,14,
4308399683,00000140,false,Rx,0,8,FF,FF,01,6C,20,00,09,55,
4308409298,00000500,false,Rx,0,1,0C,00,00,00,00,00,00,00,
4308409530,00000130,false,Rx,0,8,14,80,26,7D,00,01,0A,F0,
4308409769,00000140,false,Rx,0,8,FF,FF,01,6C,20,00,0A,72,
4308410009,00000495,false,Rx,0,8,00,00,12,8A,21,69,2C,64,
4308419433,00000130,false,Rx,0,8,08,80,09,7D,00,01,0B,52,
4308419669,00000140,false,Rx,0,8,FF,FF,01,6C,20,00,0B,6F,
4308429427,00000130,false,Rx,0,8,00,80,02,7D,00,01,0C,1A,
4308429673,00000140,false,Rx,0,8,FF,FF,01,6C,20,00,0C,3C,
4308439432,00000130,false,Rx,0,8,00,80,09,7D,00,01,0D,CE,
4308439667,00000140,false,Rx,0,8,FF,FF,01,6C,20,00,0D,21,
4308449427,00000130,false,Rx,0,8,03,80,06,7D,00,01,0E,72,
4308449673,00000140,false,Rx,0,8,FF,FF,01,6C,20,00,0E,06,
4308459443,00000130,false,Rx,0,8,07,80,1E,7D,00,01,0F,9F,
4308459678,00000140,false,Rx,0,8,FF,FF,01,6C,20,00,0F,1B,
4308469428,00000130,false,Rx,0,8,09,80,34,7D,00,01,00,47,
4308469673,00000140,false,Rx,0,8,FF,FF,01,6C,20,00,00,A0,
4308479433,00000130,false,Rx,0,8,0D,80,30,7D,00,01,01,86,
4308479678,00000140,false,Rx,0,8,FF,FF,01,6C,20,00,01,BD,
4308489448,00000130,false,Rx,0,8,13,80,27,7D,00,01,02,FC,
4308489683,00000140,false,Rx,0,8,FF,FF,01,6C,20,00,02,9A,
4308499432,00000130,false,Rx,0,8,17,80,20,7D,00,01,03,83,
4308499668,00000140,false,Rx,0,8,FF,FF,01,6C,20,00,03,87,
4308509294,00000500,false,Rx,0,1,0C,00,00,00,00,00,00,00,
4308509546,00000130,false,Rx,0,8,0B,80,0F,7D,00,01,04,6F,
4308509787,00000140,false,Rx,0,8,FF,FF,01,6C,20,00,04,D4,
4308510015,00000495,false,Rx,0,8,00,00,12,8A,21,69,2C,64,
4308519428,00000130,false,Rx,0,8,07,80,11,7D,00,01,05,31,
4308519675,00000140,false,Rx,0,8,FF,FF,01,6C,20,00,05,C9,
4308529422,00000130,false,Rx,0,8,06,80,14,7D,00,01,06,94,
4308529658,00000140,false,Rx,0,8,FF,FF,01,6C,20,00,06,EE,
4308539427,00000130,false,Rx,0,8,02,80,13,7D,00,01,07,EB,
4308539664,00000140,false,Rx,0,8,FF,FF,01,6C,20,00,07,F3,
4308549422,00000130,false,Rx,0,8,03,80,23,7D,00,01,08,22,
4308549659,00000140,false,Rx,0,8,FF,FF,01,6C,20,00,08,48,
4308559437,00000130,false,Rx,0,8,0E,80,26,7D,00,01,09,06,
4308559673,00000140,false,Rx,0,8,FF,FF,01,6C,20,00,09,55,
4308569432,00000130,false,Rx,0,8,12,80,1C,7D,00,01,0A,AF,
4308569679,00000140,false,Rx,0,8,FF,FF,01,6C,20,00,0A,72,
4308579572,00000130,false,Rx,0,8,0E,80,1F,7D,00,01,0B,0E,
4308579820,00000140,false,Rx,0,8,FF,FF,01,6C,20,00,0B,6F,
4308589422,00000130,false,Rx,0,8,18,80,19,7D,00,01,0C,56,
4308589669,00000140,false,Rx,0,8,FF,FF,01,6C,20,00,0C,3C,
13640549,000007D0,false,Tx,1,8,02,27,01,00,00,00,00,00,
4308599427,00000130,false,Rx,0,8,20,80,09,7D,00,01,0D,A1,
4308599663,00000140,false,Rx,0,8,FF,FF,01,6C,20,00,0D,21,
4308609287,00000500,false,Rx,0,1,0C,00,00,00,00,00,00,00,
4308609530,00000130,false,Rx,0,8,16,80,FD,7C,00,01,0E,38,
4308609770,00000140,false,Rx,0,8,FF,FF,01,6C,20,00,0E,06,
4308610008,00000495,false,Rx,0,8,00,00,12,8A,21,69,2C,64,
4308619422,00000130,false,Rx,0,8,0B,80,01,7D,00,01,0F,B6,
4308619668,00000140,false,Rx,0,8,FF,FF,01,6C,20,00,0F,1B,
4308629426,00000130,false,Rx,0,8,03,80,FC,7C,00,01,00,79,
4308629664,00000140,false,Rx,0,8,FF,FF,01,6C,20,00,00,A0,
4308639421,00000130,false,Rx,0,8,01,80,03,7D,00,01,01,AC,
4308639668,00000140,false,Rx,0,8,FF,FF,01,6C,20,00,01,BD,
4308649427,00000130,false,Rx,0,8,0F,80,0A,7D,00,01,02,97,
4308649673,00000140,false,Rx,0,8,FF,FF,01,6C,20,00,02,9A,
4308659431,00000130,false,Rx,0,8,0E,80,07,7D,00,01,03,7F,
4308659678,00000140,false,Rx,0,8,FF,FF,01,6C,20,00,03,87,
4308669426,00000130,false,Rx,0,8,0B,80,07,7D,00,01,04,18,
4308669673,00000140,false,Rx,0,8,FF,FF,01,6C,20,00,04,D4,
4308679422,00000130,false,Rx,0,8,0D,80,10,7D,00,01,05,33,
4308679667,00000140,false,Rx,0,8,FF,FF,01,6C,20,00,05,C9,
4308689446,00000130,false,Rx,0,8,0D,80,06,7D,00,01,06,9B,
4308689681,00000140,false,Rx,0,8,FF,FF,01,6C,20,00,06,EE,
4308699429,00000130,false,Rx,0,8,11,80,01,7D,00,01,07,8F,
13746380,000007D0,false,Tx,1,8,02,27,03,00,00,00,00,00,
4308699665,00000140,false,Rx,0,8,FF,FF,01,6C,20,00,07,F3,
4308709299,00000500,false,Rx,0,1,0C,00,00,00,00,00,00,00,
4308709543,00000130,false,Rx,0,8,11,80,16,7D,00,01,08,D1,
4308709782,00000140,false,Rx,0,8,FF,FF,01,6C,20,00,08,48,
4308710010,00000495,false,Rx,0,8,00,00,12,8A,21,69,2C,64,
4308719424,00000130,false,Rx,0,8,13,80,21,7D,00,01,09,52,
4308719670,00000140,false,Rx,0,8,FF,FF,01,6C,20,00,09,55,
4308729428,00000130,false,Rx,0,8,18,80,1F,7D,00,01,0A,79,
4308729663,00000140,false,Rx,0,8,FF,FF,01,6C,20,00,0A,72,
4308739423,00000130,false,Rx,0,8,12,80,2B,7D,00,01,0B,96,
4308739659,00000140,false,Rx,0,8,FF,FF,01,6C,20,00,0B,6F,
4308749428,00000130,false,Rx,0,8,09,80,25,7D,00,01,0C,5F,
4308749674,00000140,false,Rx,0,8,FF,FF,01,6C,20,00,0C,3C,
4308759433,00000130,false,Rx,0,8,0D,80,08,7D,00,01,0D,42,
4308759678,00000140,false,Rx,0,8,FF,FF,01,6C,20,00,0D,21,
4308769438,00000130,false,Rx,0,8,0F,80,02,7D,00,01,0E,7C,
4308769683,00000140,false,Rx,0,8,FF,FF,01,6C,20,00,0E,06,
4308779576,00000130,false,Rx,0,8,0A,80,16,7D,00,01,0F,0E,
4308779811,00000140,false,Rx,0,8,FF,FF,01,6C,20,00,0F,1B,
4308789424,00000130,false,Rx,0,8,01,80,29,7D,00,01,00,D3,
4308789669,00000140,false,Rx,0,8,FF,FF,01,6C,20,00,00,A0,
4308799428,00000130,false,Rx,0,8,F9,7F,26,7D,00,01,01,C0,
4308799673,00000140,false,Rx,0,8,FF,FF,01,6C,20,00,01,BD,
13855479,000007D0,false,Tx,1,8,02,27,05,00,00,00,00,00,
4308809387,00000500,false,Rx,0,1,0C,00,00,00,00,00,00,00,
4308809526,00000130,false,Rx,0,8,F4,7F,1F,7D,00,01,02,33,
4308809770,00000140,false,Rx,0,8,FF,FF,01,6C,20,00,02,9A,
4308809999,00000495,false,Rx,0,8,00,00,12,8A,21,69,2C,64,
4308819423,00000130,false,Rx,0,8,F6,7F,27,7D,00,01,03,CC,
4308819668,00000140,false,Rx,0,8,FF,FF,01,6C,20,00,03,87,
4308829416,00000130,false,Rx,0,8,03,80,27,7D,00,01,04,0B,
4308829662,00000140,false,Rx,0,8,FF,FF,01,6C,20,00,04,D4,
4308839430,00000130,false,Rx,0,8,0A,80,1F,7D,00,01,05,C1,
4308839665,00000140,false,Rx,0,8,FF,FF,01,6C,20,00,05,C9,
4308849423,00000130,false,Rx,0,8,13,80,19,7D,00,01,06,B1,
4308849658,00000140,false,Rx,0,8,FF,FF,01,6C,20,00,06,EE,
4308859427,00000130,false,Rx,0,8,17,80,31,7D,00,01,07,73,
4308859672,00000140,false,Rx,0,8,FF,FF,01,6C,20,00,07,F3,
4308869422,00000130,false,Rx,0,8,13,80,31,7D,00,01,08,A1,
4308869667,00000140,false,Rx,0,8,FF,FF,01,6C,20,00,08,48,
4308879417,00000130,false,Rx,0,8,19,80,19,7D,00,01,09,62,
4308879662,00000140,false,Rx,0,8,FF,FF,01,6C,20,00,09,55,
4308889440,00000130,false,Rx,0,8,1A,80,0F,7D,00,01,0A,2D,
4308889676,00000140,false,Rx,0,8,FF,FF,01,6C,20,00,0A,72,
4308899444,00000130,false,Rx,0,8,11,80,0D,7D,00,01,0B,D1,
4308899680,00000140,false,Rx,0,8,FF,FF,01,6C,20,00,0B,6F,
4308909293,00000500,false,Rx,0,1,0C,00,00,00,00,00,00,00,
4308909535,00000130,false,Rx,0,8,14,80,1B,7D,00,01,0C,39,
4308909569,000005A0,false,Rx,1,8,00,00,00,C0,20,48,97,0C,
4308909776,00000140,false,Rx,0,8,FF,FF,01,6C,20,00,0C,3C,
4308910015,00000495,false,Rx,0,8,00,00,12,8A,21,69,2C,64,
13962921,000007D0,false,Tx,1,8,02,27,07,00,00,00,00,00,
4308919430,00000130,false,Rx,0,8,16,80,1D,7D,00,01,0D,FF,
4308919675,00000140,false,Rx,0,8,FF,FF,01,6C,20,00,0D,21,
4308929423,00000130,false,Rx,0,8,0B,80,09,7D,00,01,0E,DC,
4308929658,00000140,false,Rx,0,8,FF,FF,01,6C,20,00,0E,06,
4308939417,00000130,false,Rx,0,8,03,80,F9,7C,00,01,0F,1D,
4308939652,00000140,false,Rx,0,8,FF,FF,01,6C,20,00,0F,1B,
4308949421,00000130,false,Rx,0,8,0D,80,F7,7C,00,01,00,B1,
4308949667,00000140,false,Rx,0,8,FF,FF,01,6C,20,00,00,A0,
4308959435,00000130,false,Rx,0,8,12,80,0E,7D,00,01,01,5A,
4308959671,00000140,false,Rx,0,8,FF,FF,01,6C,20,00,01,BD,
4308969442,00000130,false,Rx,0,8,0F,80,1D,7D,00,01,02,72,
4308969677,00000140,false,Rx,0,8,FF,FF,01,6C,20,00,02,9A,
4308979571,00000130,false,Rx,0,8,17,80,24,7D,00,01,03,36,
4308979818,00000140,false,Rx,0,8,FF,FF,01,6C,20,00,03,87,
4308989422,00000130,false,Rx,0,8,0D,80,23,7D,00,01,04,BF,
4308989667,00000140,false,Rx,0,8,FF,FF,01,6C,20,00,04,D4,
4308999426,00000130,false,Rx,0,8,07,80,1B,7D,00,01,05,92,
4308999662,00000140,false,Rx,0,8,FF,FF,01,6C,20,00,05,C9,
4309009297,00000500,false,Rx,0,1,0C,00,00,00,00,00,00,00,
4309009529,00000130,false,Rx,0,8,07,80,16,7D,00,01,06,1D,
4309009770,00000140,false,Rx,0,8,FF,FF,01,6C,20,00,06,EE,
4309010008,00000495,false,Rx,0,8,00,00,12,8A,21,69,2C,64,
4309019423,00000130,false,Rx,0,8,0A,80,08,7D,00,01,07,1E,
4309019671,00000140,false,Rx,0,8,FF,FF,01,6C,20,00,07,F3,
14072030,000007D0,false,Tx,1,8,02,27,09,00,00,00,00,00,
4309029428,00000130,false,Rx,0,8,06,80,0A,7D,00,01,08,CA,
4309029664,00000140,false,Rx,0,8,FF,FF,01,6C,20,00,08,48,
4309039422,00000130,false,Rx,0,8,06,80,29,7D,00,01,09,A8,
4309039658,00000140,false,Rx,0,8,FF,FF,01,6C,20,00,09,55,
4309049427,00000130,false,Rx,0,8,0E,80,30,7D,00,01,0A,AE,
4309049664,00000140,false,Rx,0,8,FF,FF,01,6C,20,00,0A,72,
4309059431,00000130,false,Rx,0,8,0E,80,25,7D,00,01,0B,82,
4309059678,00000140,false,Rx,0,8,FF,FF,01,6C,20,00,0B,6F,
4309069426,00000130,false,Rx,0,8,08,80,1F,7D,00,01,0C,8E,
4309069673,00000140,false,Rx,0,8,FF,FF,01,6C,20,00,0C,3C,
4309079431,00000130,false,Rx,0,8,08,80,10,7D,00,01,0D,EF,
4309079668,00000140,false,Rx,0,8,FF,FF,01,6C,20,00,0D,21,
4309089447,00000130,false,Rx,0,8,17,80,12,7D,00,01,0E,F9,
4309089683,00000140,false,Rx,0,8,FF,FF,01,6C,20,00,0E,06,
4309099429,00000130,false,Rx,0,8,12,80,07,7D,00,01,0F,E1,
4309099666,00000140,false,Rx,0,8,FF,FF,01,6C,20,00,0F,1B,
4309109299,00000500,false,Rx,0,1,0C,00,00,00,00,00,00,00,
4309109542,00000130,false,Rx,0,8,00,80,00,7D,00,01,00,52,
4309109792,00000140,false,Rx,0,8,FF,FF,01,6C,20,00,00,A0,
4309110020,00000495,false,Rx,0,8,00,00,12,8A,21,69,2C,64,
4309119423,00000130,false,Rx,0,8,00,80,11,7D,00,01,01,CB,
4309119669,00000140,false,Rx,0,8,FF,FF,01,6C,20,00,01,BD,
4309129426,00000130,false,Rx,0,8,0A,80,1B,7D,00,01,02,27,
4309129663,00000140,false,Rx,0,8,FF,FF,01,6C,20,00,02,9A,
14182514,000007D0,false,Tx,1,8,02,27,0B,00,00,00,00,00,
4309139419,00000130,false,Rx,0,8,0A,80,24,7D,00,01,03,69,
4309139656,00000140,false,Rx,0,8,FF,FF,01,6C,20,00,03,87,
4309149422,00000130,false,Rx,0,8,08,80,21,7D,00,01,04,5F,
4309149659,00000140,false,Rx,0,8,FF,FF,01,6C,20,00,04,D4,
4309159428,00000130,false,Rx,0,8,0D,80,22,7D,00,01,05,C8,
4309159674,00000140,false,Rx,0,8,FF,FF,01,6C,20,00,05,C9,
4309169433,00000130,false,Rx,0,8,10,80,0D,7D,00,01,06,0D,
4309169678,00000140,false,Rx,0,8,FF,FF,01,6C,20,00,06,EE,
4309179572,00000130,false,Rx,0,8,09,80,FE,7C,00,01,07,96,
4309179817,00000140,false,Rx,0,8,FF,FF,01,6C,20,00,07,F3,
4309189422,00000130,false,Rx,0,8,04,80,11,7D,00,01,08,57,
4309189668,00000140,false,Rx,0,8,FF,FF,01,6C,20,00,08,48,
4309199427,00000130,false,Rx,0,8,05,80,07,7D,00,01,09,98,
4309199662,00000140,false,Rx,0,8,FF,FF,01,6C,20,00,09,55,
4309209284,00000500,false,Rx,0,1,0C,00,00,00,00,00,00,00,
4309209528,00000130,false,Rx,0,8,08,80,02,7D,00,01,0A,86,
4309209768,00000140,false,Rx,0,8,FF,FF,01,6C,20,00,0A,72,
4309210006,00000495,false,Rx,0,8,00,00,12,8A,21,69,2C,64,
4309219420,00000130,false,Rx,0,8,04,80,0C,7D,00,01,0B,36,
4309219665,00000140,false,Rx,0,8,FF,FF,01,6C,20,00,0B,6F,
4309229414,00000130,false,Rx,0,8,06,80,18,7D,00,01,0C,84,
4309229660,00000140,false,Rx,0,8,FF,FF,01,6C,20,00,0C,3C,
4309239418,00000130,false,Rx,0,8,0A,80,19,7D,00,01,0D,48,
4309239653,00000140,false,Rx,0,8,FF,FF,01,6C,20,00,0D,21,
4309249412,00000130,false,Rx,0,8,FD,7F,17,7D,00,01,0E,57,
4309249658,00000140,false,Rx,0,8,FF,FF,01,6C,20,00,0E,06,
4309259427,00000130,false,Rx,0,8,FD,7F,20,7D,00,01,0F,6E,
4309259663,00000140,false,Rx,0,8,FF,FF,01,6C,20,00,0F,1B,
14314592,000007D0,false,Tx,1,8,02,27,0D,00,00,00,00,00,
4309269433,00000130,false,Rx,0,8,02,80,1C,7D,00,01,00,C4,
4309269678,00000140,false,Rx,0,8,FF,FF,01,6C,20,00,00,A0,
4309279417,00000130,false,Rx,0,8,08,80,0E,7D,00,01,01,8B,
4309279662,00000140,false,Rx,0,8,FF,FF,01,6C,20,00,01,BD,
4309289443,00000130,false,Rx,0,8,0A,80,0F,7D,00,01,02,7C,
4309289688,00000140,false,Rx,0,8,FF,FF,01,6C,20,00,02,9A,
4309299427,00000130,false,Rx,0,8,06,80,01,7D,00,01,03,CC,
4309299673,00000140,false,Rx,0,8,FF,FF,01,6C,20,00,03,87,
4309309297,00000500,false,Rx,0,1,0C,00,00,00,00,00,00,00,
4309309540,00000130,false,Rx,0,8,01,80,04,7D,00,01,04,CE,
4309309779,00000140,false,Rx,0,8,FF,FF,01,6C,20,00,04,D4,
4309310008,00000495,false,Rx,0,8,00,00,12,8A,21,69,2C,64,
4309319432,00000130,false,Rx,0,8,11,80,1C,7D,00,01,05,F3,
4309319668,00000140,false,Rx,0,8,FF,FF,01,6C,20,00,05,C9,
4309329427,00000130,false,Rx,0,8,18,80,1C,7D,00,01,06,5B,
4309329662,00000140,false,Rx,0,8,FF,FF,01,6C,20,00,06,EE,
4309339422,00000130,false,Rx,0,8,0D,80,24,7D,00,01,07,93,
4309339667,00000140,false,Rx,0,8,FF,FF,01,6C,20,00,07,F3,
4309349416,00000130,false,Rx,0,8,FE,7F,1A,7D,00,01,08,56,
4309349662,00000140,false,Rx,0,8,FF,FF,01,6C,20,00,08,48,
4309359429,00000130,false,Rx,0,8,F6,7F,12,7D,00,01,09,EE,
4309359665,00000140,false,Rx,0,8,FF,FF,01,6C,20,00,09,55,
4309369434,00000130,false,Rx,0,8,00,80,0C,7D,00,01,0A,42,
4309369679,00000140,false,Rx,0,8,FF,FF,01,6C,20,00,0A,72,
4309379582,00000130,false,Rx,0,8,04,80,10,7D,00,01,0B,1A,
4309379817,00000140,false,Rx,0,8,FF,FF,01,6C,20,00,0B,6F,
14429035,000007D0,false,Tx,1,8,02,27,0F,00,00,00,00,00,
4309389421,00000130,false,Rx,0,8,04,80,08,7D,00,01,0C,D0,
4309389666,00000140,false,Rx,0,8,FF,FF,01,6C,20,00,0C,3C,
4309399445,00000130,false,Rx,0,8,0E,80,F9,7C,00,01,0D,C1,
4309399680,00000140,false,Rx,0,8,FF,FF,01,6C,20,00,0D,21,
4309409294,00000500,false,Rx,0,1,0C,00,00,00,00,00,00,00,
4309409526,00000130,false,Rx,0,8,0F,80,0C,7D,00,01,0E,6A,
4309409775,00000140,false,Rx,0,8,FF,FF,01,6C,20,00,0E,06,
4309410005,00000495,false,Rx,0,8,00,00,12,8A,21,69,2C,64,
4309419428,00000130,false,Rx,0,8,0E,80,07,7D,00,01,0F,E3,
4309419663,00000140,false,Rx,0,8,FF,FF,01,6C,20,00,0F,1B,
4309429421,00000130,false,Rx,0,8,12,80,F8,7C,00,01,00,28,
4309429667,00000140,false,Rx,0,8,FF,FF,01,6C,20,00,00,A0,
4309439416,00000130,false,Rx,0,8,19,80,00,7D,00,01,01,79,
4309439662,00000140,false,Rx,0,8,FF,FF,01,6C,20,00,01,BD,
4309449421,00000130,false,Rx,0,8,14,80,11,7D,00,01,02,3C,
4309449656,00000140,false,Rx,0,8,FF,FF,01,6C,20,00,02,9A,
4309459437,00000130,false,Rx,0,8,05,80,0A,7D,00,01,03,E2,
4309459683,00000140,false,Rx,0,8,FF,FF,01,6C,20,00,03,87,
4309469422,00000130,false,Rx,0,8,05,80,1B,7D,00,01,04,35,
4309469667,00000140,false,Rx,0,8,FF,FF,01,6C,20,00,04,D4,
4309479417,00000130,false,Rx,0,8,11,80,1C,7D,00,01,05,F3,
4309479663,00000140,false,Rx,0,8,FF,FF,01,6C,20,00,05,C9,
4309489442,00000130,false,Rx,0,8,0F,80,13,7D,00,01,06,10,
4309489679,00000140,false,Rx,0,8,FF,FF,01,6C,20,00,06,EE,
14538323,000007D0,false,Tx,1,8,02,27,11,00,00,00,00,00,
4309499426,00000130,false,Rx,0,8,FD,7F,0D,7D,00,01,07,EF,
4309499664,00000140,false,Rx,0,8,FF,FF,01,6C,20,00,07,F3,
4309509287,00000500,false,Rx,0,1,0C,00,00,00,00,00,00,00,
4309509529,00000130,false,Rx,0,8,F4,7F,21,7D,00,01,08,D8,
4309509770,00000140,false,Rx,0,8,FF,FF,01,6C,20,00,08,48,
4309510008,00000495,false,Rx,0,8,00,00,12,8A,21,69,2C,64,
4309519423,00000130,false,Rx,0,8,FC,7F,2D,7D,00,01,09,D5,
4309519660,00000140,false,Rx,0,8,FF,FF,01,6C,20,00,09,55,
4309529417,00000130,false,Rx,0,8,01,80,1D,7D,00,01,0A,9B,
4309529664,00000140,false,Rx,0,8,FF,FF,01,6C,20,00,0A,72,
4309539411,00000130,false,Rx,0,8,12,80,12,7D,00,01,0B,A4,
4309539658,00000140,false,Rx,0,8,FF,FF,01,6C,20,00,0B,6F,
4309549416,00000130,false,Rx,0,8,15,80,0A,7D,00,01,0C,E0,
4309549663,00000140,false,Rx,0,8,FF,FF,01,6C,20,00,0C,3C,
4309559430,00000130,false,Rx,0,8,03,80,06,7D,00,01,0D,55,
4309559666,00000140,false,Rx,0,8,FF,FF,01,6C,20,00,0D,21,
4309569433,00000130,false,Rx,0,8,FB,7F,F5,7C,00,01,0E,B0,
4309569670,00000140,false,Rx,0,8,FF,FF,01,6C,20,00,0E,06,
4309579573,00000130,false,Rx,0,8,F4,7F,EA,7C,00,01,0F,63,
4309579808,00000140,false,Rx,0,8,FF,FF,01,6C,20,00,0F,1B,
4309589421,00000130,false,Rx,0,8,F4,7F,05,7D,00,01,00,44,
4309589668,00000140,false,Rx,0,8,FF,FF,01,6C,20,00,00,A0,
14638674,000007D0,false,Tx,1,8,02,27,13,00,00,00,00,00,
4309599427,00000130,false,Rx,0,8,09,80,0C,7D,00,01,01,02,
4309599663,00000140,false,Rx,0,8,FF,FF,01,6C,20,00,01,BD,
4309609287,00000500,false,Rx,0,1,0C,00,00,00,00,00,00,00,
4309609530,00000130,false,Rx,0,8,13,80,19,7D,00,01,02,C5,
4309609770,00000140,false,Rx,0,8,FF,FF,01,6C,20,00,02,9A,
4309609998,00000495,false,Rx,0,8,00,00,12,8A,21,69,2C,64,
4309619431,00000130,false,Rx,0,8,13,80,21,7D,00,01,03,80,
4309619667,00000140,false,Rx,0,8,FF,FF,01,6C,20,00,03,87,
4309629416,00000130,false,Rx,0,8,12,80,13,7D,00,01,04,75,
4309629663,00000140,false,Rx,0,8,FF,FF,01,6C,20,00,04,D4,
4309639422,00000130,false,Rx,0,8,1A,80,0C,7D,00,01,05,28,
4309639657,00000140,false,Rx,0,8,FF,FF,01,6C,20,00,05,C9,
4309649427,00000130,false,Rx,0,8,10,80,FF,7C,00,01,06,D7,
4309649663,00000140,false,Rx,0,8,FF,FF,01,6C,20,00,06,EE,
4309659432,00000130,false,Rx,0,8,03,80,FE,7C,00,01,07,FE,
4309659678,00000140,false,Rx,0,8,FF,FF,01,6C,20,00,07,F3,
4309669427,00000130,false,Rx,0,8,FE,7F,01,7D,00,01,08,71,
4309669662,00000140,false,Rx,0,8,FF,FF,01,6C,20,00,08,48,
4309679421,00000130,false,Rx,0,8,03,80,0E,7D,00,01,09,56,
4309679656,00000140,false,Rx,0,8,FF,FF,01,6C,20,00,09,55,
4309689435,00000130,false,Rx,0,8,07,80,08,7D,00,01,0A,79,
4309689681,00000140,false,Rx,0,8,FF,FF,01,6C,20,00,0A,72,
4309699429,00000130,false,Rx,0,8,02,80,0C,7D,00,01,0B,E5,
4309699664,00000140,false,Rx,0,8,FF,FF,01,6C,20,00,0B,6F,
14751483,000007D0,false,Tx,1,8,02,27,15,00,00,00,00,00,
4309709287,00000500,false,Rx,0,1,0C,00,00,00,00,00,00,00,
4309709530,00000130,false,Rx,0,8,0A,80,10,7D,00,01,0C,48,
4309709780,00000140,false,Rx,0,8,FF,FF,01,6C,20,00,0C,3C,
4309710008,00000495,false,Rx,0,8,00,00,12,8A,21,69,2C,64,
4309719423,00000130,false,Rx,0,8,13,80,1B,7D,00,01,0D,AA,
4309719658,00000140,false,Rx,0,8,FF,FF,01,6C,20,00,0D,21,
4309729428,00000130,false,Rx,0,8,17,80,0C,7D,00,01,0E,01,
4309729663,00000140,false,Rx,0,8,FF,FF,01,6C,20,00,0E,06,
4309739422,00000130,false,Rx,0,8,12,80,01,7D,00,01,0F,80,
4309739657,00000140,false,Rx,0,8,FF,FF,01,6C,20,00,0F,1B,
4309749417,00000130,false,Rx,0,8,11,80,FA,7C,00,01,00,1B,
4309749662,00000140,false,Rx,0,8,FF,FF,01,6C,20,00,00,A0,
4309759433,00000130,false,Rx,0,8,06,80,F8,7C,00,01,01,E5,
4309759668,00000140,false,Rx,0,8,FF,FF,01,6C,20,00,01,BD,
4309769437,00000130,false,Rx,0,8,FD,7F,EB,7C,00,01,02,07,
4309769673,00000140,false,Rx,0,8,FF,FF,01,6C,20,00,02,9A,
4309779577,00000130,false,Rx,0,8,01,80,FD,7C,00,01,03,8E,
4309779812,00000140,false,Rx,0,8,FF,FF,01,6C,20,00,03,87,
4309789417,00000130,false,Rx,0,8,06,80,10,7D,00,01,04,1B,
4309789662,00000140,false,Rx,0,8,FF,FF,01,6C,20,00,04,D4,
4309799422,00000130,false,Rx,0,8,02,80,1F,7D,00,01,05,13,
4309799657,00000140,false,Rx,0,8,FF,FF,01,6C,20,00,05,C9,
4309809282,00000500,false,Rx,0,1,0C,00,00,00,00,00,00,00,
4309809524,00000130,false,Rx,0,8,03,80,24,7D,00,01,06,8F,
4309809764,00000140,false,Rx,0,8,FF,FF,01,6C,20,00,06,EE,
4309809993,00000495,false,Rx,0,8,00,00,12,8A,21,69,2C,64,
14864846,000007D0,false,Tx,1,8,02,27,17,00,00,00,00,00,
4309819416,00000130,false,Rx,0,8,04,80,2A,7D,00,01,07,0A,
4309819661,00000140,false,Rx,0,8,FF,FF,01,6C,20,00,07,F3,
4309829420,00000130,false,Rx,0,8,04,80,19,7D,00,01,08,20,
4309829656,00000140,false,Rx,0,8,FF,FF,01,6C,20,00,08,48,
4309839414,00000130,false,Rx,0,8,0D,80,16,7D,00,01,09,CE,
4309839649,00000140,false,Rx,0,8,FF,FF,01,6C,20,00,09,55,
4309849417,00000130,false,Rx,0,8,16,80,0F,7D,00,01,0A,96,
4309849653,00000140,false,Rx,0,8,FF,FF,01,6C,20,00,0A,72,
4309859421,00000130,false,Rx,0,8,08,80,F7,7C,00,01,0B,4A,
4309859667,00000140,false,Rx,0,8,FF,FF,01,6C,20,00,0B,6F,
4309869415,00000130,false,Rx,0,8,0A,80,0F,7D,00,01,0C,DA,
4309869661,00000140,false,Rx,0,8,FF,FF,01,6C,20,00,0C,3C,
4309879418,00000130,false,Rx,0,8,0F,80,29,7D,00,01,0D,53,
4309879664,00000140,false,Rx,0,8,FF,FF,01,6C,20,00,0D,21,
4309889443,00000130,false,Rx,0,8,0A,80,1E,7D,00,01,0E,64,
4309889678,00000140,false,Rx,0,8,FF,FF,01,6C,20,00,0E,06,
4309899438,00000130,false,Rx,0,8,16,80,1B,7D,00,01,0F,A4,
4309899683,00000140,false,Rx,0,8,FF,FF,01,6C,20,00,0F,1B,
4309909298,00000500,false,Rx,0,1,0C,00,00,00,00,00,00,00,
4309909530,00000130,false,Rx,0,8,1D,80,13,7D,00,01,00,5D,
4309909563,000005A0,false,Rx,1,8,00,00,00,C0,20,78,93,0C,
4309909782,00000140,false,Rx,0,8,FF,FF,01,6C,20,00,00,A0,
4309910010,00000495,false,Rx,0,8,00,00,12,8A,21,69,2C,64,
4309919435,00000130,false,Rx,0,8,0C,80,0F,7D,00,01,01,88,
4309919671,00000140,false,Rx,0,8,FF,FF,01,6C,20,00,01,BD,
14973594,000007D0,false,Tx,1,8,02,27,19,00,00,00,00,00,
4309929419,00000130,false,Rx,0,8,05,80,14,7D,00,01,02,07,
4309929664,00000140,false,Rx,0,8,FF,FF,01,6C,20,00,02,9A,
4309939422,00000130,false,Rx,0,8,FD,7F,0D,7D,00,01,03,9B,
4309939657,00000140,false,Rx,0,8,FF,FF,01,6C,20,00,03,87,
4309949418,00000130,false,Rx,0,8,F0,7F,12,7D,00,01,04,BC,
4309949663,00000140,false,Rx,0,8,FF,FF,01,6C,20,00,04,D4,
4309959432,00000130,false,Rx,0,8,F1,7F,18,7D,00,01,05,5F,
4309959667,00000140,false,Rx,0,8,FF,FF,01,6C,20,00,05,C9,
4309969437,00000130,false,Rx,0,8,F9,7F,19,7D,00,01,06,C0,
4309969673,00000140,false,Rx,0,8,FF,FF,01,6C,20,00,06,EE,
4309979576,00000130,false,Rx,0,8,03,80,17,7D,00,01,07,03,
4309979823,00000140,false,Rx,0,8,FF,FF,01,6C,20,00,07,F3,
4309989416,00000130,false,Rx,0,8,04,80,0B,7D,00,01,08,1A,
4309989663,00000140,false,Rx,0,8,FF,FF,01,6C,20,00,08,48,
4309999432,00000130,false,Rx,0,8,02,80,06,7D,00,01,09,7C,
4309999668,00000140,false,Rx,0,8,FF,FF,01,6C,20,00,09,55,
4310009293,00000500,false,Rx,0,1,0C,00,00,00,00,00,00,00,
4310009525,00000130,false,Rx,0,8,02,80,06,7D,00,01,0A,5B,
4310009765,00000140,false,Rx,0,8,FF,FF,01,6C,20,00,0A,72,
4310010003,00000495,false,Rx,0,8,00,00,12,8A,21,69,2C,64,
4310019426,00000130,false,Rx,0,8,05,80,0A,7D,00,01,0B,0A,
4310019663,00000140,false,Rx,0,8,FF,FF,01,6C,20,00,0B,6F,
4310029419,00000130,false,Rx,0,8,10,80,1B,7D,00,01,0C,50,
4310029656,00000140,false,Rx,0,8,FF,FF,01,6C,20,00,0C,3C,
15079218,000007D0,false,Tx,1,8,02,27,1B,00,00,00,00,00,
4310039413,00000130,false,Rx,0,8,15,80,14,7D,00,01,0D,05,
4310039649,00000140,false,Rx,0,8,FF,FF,01,6C,20,00,0D,21,
4310049417,00000130,false,Rx,0,8,12,80,05,7D,00,01,0E,28,
4310049653,00000140,false,Rx,0,8,FF,FF,01,6C,20,00,0E,06,
4310059421,00000130,false,Rx,0,8,12,80,03,7D,00,01,0F,54,
4310059668,00000140,false,Rx,0,8,FF,FF,01,6C,20,00,0F,1B,
4310069425,00000130,false,Rx,0,8,17,80,04,7D,00,01,00,D0,
4310069671,00000140,false,Rx,0,8,FF,FF,01,6C,20,00,00,A0,
4310079418,00000130,false,Rx,0,8,06,80,FA,7C,00,01,01,31,
4310079665,00000140,false,Rx,0,8,FF,FF,01,6C,20,00,01,BD,
4310089432,00000130,false,Rx,0,8,F7,7F,01,7D,00,01,02,2C,
4310089678,00000140,false,Rx,0,8,FF,FF,01,6C,20,00,02,9A,
4310099416,00000130,false,Rx,0,8,FB,7F,04,7D,00,01,03,55,
4310099664,00000140,false,Rx,0,8,FF,FF,01,6C,20,00,03,87,
4310109287,00000500,false,Rx,0,1,0C,00,00,00,00,00,00,00,
4310109531,00000130,false,Rx,0,8,08,80,12,7D,00,01,04,CE,
4310109770,00000140,false,Rx,0,8,FF,FF,01,6C,20,00,04,D4,
4310109998,00000495,false,Rx,0,8,00,00,12,8A,21,69,2C,64,
4310119434,00000130,false,Rx,0,8,0F,80,06,7D,00,01,05,06,
4310119669,00000140,false,Rx,0,8,FF,FF,01,6C,20,00,05,C9,
4310129417,00000130,false,Rx,0,8,12,80,10,7D,00,01,06,F1,
4310129652,00000140,false,Rx,0,8,FF,FF,01,6C,20,00,06,EE,
4310139420,00000130,false,Rx,0,8,0D,80,17,7D,00,01,07,02,
4310139655,00000140,false,Rx,0,8,FF,FF,01,6C,20,00,07,F3,
15193928,000007D0,false,Tx,1,8,02,27,1D,00,00,00,00,00,
4310149413,00000130,false,Rx,0,8,02,80,11,7D,00,01,08,84,
4310149648,00000140,false,Rx,0,8,FF,FF,01,6C,20,00,08,48,
4310159427,00000130,false,Rx,0,8,07,80,12,7D,00,01,09,13,
4310159662,00000140,false,Rx,0,8,FF,FF,01,6C,20,00,09,55,
4310169430,00000130,false,Rx,0,8,09,80,0E,7D,00,01,0A,19,
4310169665,00000140,false,Rx,0,8,FF,FF,01,6C,20,00,0A,72,
4310179568,00000130,false,Rx,0,8,0F,80,04,7D,00,01,0B,74,
4310179813,00000140,false,Rx,0,8,FF,FF,01,6C,20,00,0B,6F,
4310189418,00000130,false,Rx,0,8,0F,80,F9,7C,00,01,0C,81,
4310189663,00000140,false,Rx,0,8,FF,FF,01,6C,20,00,0C,3C,
4310199422,00000130,false,Rx,0,8,14,80,04,7D,00,01,0D,B6,
4310199657,00000140,false,Rx,0,8,FF,FF,01,6C,20,00,0D,21,
4310209293,00000500,false,Rx,0,1,0C,00,00,00,00,00,00,00,
4310209525,00000130,false,Rx,0,8,1A,80,0D,7D,00,01,0E,8D,
4310209764,00000140,false,Rx,0,8,FF,FF,01,6C,20,00,0E,06,
4310210003,00000495,false,Rx,0,8,00,00,12,8A,21,69,2C,64,
4310219428,00000130,false,Rx,0,8,15,80,0B,7D,00,01,0F,AD,
4310219663,00000140,false,Rx,0,8,FF,FF,01,6C,20,00,0F,1B,
4310229424,00000130,false,Rx,0,8,15,80,18,7D,00,01,00,46,
4310229669,00000140,false,Rx,0,8,FF,FF,01,6C,20,00,00,A0,
4310239428,00000130,false,Rx,0,8,0F,80,04,7D,00,01,01,A6,
4310239664,00000140,false,Rx,0,8,FF,FF,01,6C,20,00,01,BD,
4310249422,00000130,false,Rx,0,8,02,80,FE,7C,00,01,02,CA,
4310249658,00000140,false,Rx,0,8,FF,FF,01,6C,20,00,02,9A,
4310259427,00000130,false,Rx,0,8,09,80,02,7D,00,01,03,2E,
4310259673,00000140,false,Rx,0,8,FF,FF,01,6C,20,00,03,87,
4310269431,00000130,false,Rx,0,8,0D,80,FE,7C,00,01,04,D8,
4310269677,00000140,false,Rx,0,8,FF,FF,01,6C,20,00,04,D4,
4310279425,00000130,false,Rx,0,8,0D,80,03,7D,00,01,05,63,
4310279660,00000140,false,Rx,0,8,FF,FF,01,6C,20,00,05,C9,
15329104,000007D0,false,Tx,1,8,02,27,1F,00,00,00,00,00,
4310289439,00000130,false,Rx,0,8,0A,80,FF,7C,00,01,06,06,
4310289674,00000140,false,Rx,0,8,FF,FF,01,6C,20,00,06,EE,
4310299422,00000130,false,Rx,0,8,08,80,FE,7C,00,01,07,CB,
4310299668,00000140,false,Rx,0,8,FF,FF,01,6C,20,00,07,F3,
4310309293,00000500,false,Rx,0,1,0C,00,00,00,00,00,00,00,
4310309535,00000130,false,Rx,0,8,07,80,F7,7C,00,01,08,31,
4310309775,00000140,false,Rx,0,8,FF,FF,01,6C,20,00,08,48,
4310310004,00000495,false,Rx,0,8,00,00,12,8A,21,69,2C,64,
4310319418,00000130,false,Rx,0,8,05,80,01,7D,00,01,09,F9,
4310319664,00000140,false,Rx,0,8,FF,FF,01,6C,20,00,09,55,
4310329412,00000130,false,Rx,0,8,04,80,0A,7D,00,01,0A,4A,
4310329647,00000140,false,Rx,0,8,FF,FF,01,6C,20,00,0A,72,
4310339417,00000130,false,Rx,0,8,02,80,13,7D,00,01,0B,77,
4310339652,00000140,false,Rx,0,8,FF,FF,01,6C,20,00,0B,6F,
4310349411,00000130,false,Rx,0,8,06,80,0F,7D,00,01,0C,61,
4310349657,00000140,false,Rx,0,8,FF,FF,01,6C,20,00,0C,3C,
4310359427,00000130,false,Rx,0,8,07,80,12,7D,00,01,0D,67,
4310359662,00000140,false,Rx,0,8,FF,FF,01,6C,20,00,0D,21,
4310369432,00000130,false,Rx,0,8,07,80,23,7D,00,01,0E,05,
4310369667,00000140,false,Rx,0,8,FF,FF,01,6C,20,00,0E,06,
4310379572,00000130,false,Rx,0,8,07,80,1A,7D,00,01,0F,2A,
4310379808,00000140,false,Rx,0,8,FF,FF,01,6C,20,00,0F,1B,
15431111,000007D0,false,Tx,1,8,02,27,21,00,00,00,00,00,
4310389422,00000130,false,Rx,0,8,05,80,0F,7D,00,01,00,1A,
4310389667,00000140,false,Rx,0,8,FF,FF,01,6C,20,00,00,A0,
4310399437,00000130,false,Rx,0,8,05,80,1E,7D,00,01,01,83,
4310399683,00000140,false,Rx,0,8,FF,FF,01,6C,20,00,01,BD,
4310409287,00000500,false,Rx,0,1,0C,00,00,00,00,00,00,00,
4310409529,00000130,false,Rx,0,8,0B,80,1F,7D,00,01,02,CF,
4310409770,00000140,false,Rx,0,8,FF,FF,01,6C,20,00,02,9A,
4310409998,00000495,false,Rx,0,8,00,00,12,8A,21,69,2C,64,
4310419413,00000130,false,Rx,0,8,0C,80,14,7D,00,01,03,95,
4310419659,00000140,false,Rx,0,8,FF,FF,01,6C,20,00,03,87,
4310429416,00000130,false,Rx,0,8,11,80,0E,7D,00,01,04,D4,
4310429652,00000140,false,Rx,0,8,FF,FF,01,6C,20,00,04,D4,
4310439411,00000130,false,Rx,0,8,1B,80,05,7D,00,01,05,68,
4310439646,00000140,false,Rx,0,8,FF,FF,01,6C,20,00,05,C9,
4310449415,00000130,false,Rx,0,8,17,80,09,7D,00,01,06,36,
4310449650,00000140,false,Rx,0,8,FF,FF,01,6C,20,00,06,EE,
4310459429,00000130,false,Rx,0,8,10,80,11,7D,00,01,07,3C,
4310459665,00000140,false,Rx,0,8,FF,FF,01,6C,20,00,07,F3,
4310469413,00000130,false,Rx,0,8,05,80,00,7D,00,01,08,8E,
4310469660,00000140,false,Rx,0,8,FF,FF,01,6C,20,00,08,48,
4310479417,00000130,false,Rx,0,8,0E,80,00,7D,00,01,09,A6,
4310479653,00000140,false,Rx,0,8,FF,FF,01,6C,20,00,09,55,
4310489432,00000130,false,Rx,0,8,0E,80,0B,7D,00,01,0A,48,
4310489678,00000140,false,Rx,0,8,FF,FF,01,6C,20,00,0A,72,
4310499416,00000130,false,Rx,0,8,0A,80,F6,7C,00,01,0B,9A,
4310499663,00000140,false,Rx,0,8,FF,FF,01,6C,20,00,0B,6F,
4310509295,00000500,false,Rx,0,1,0C,00,00,00,00,00,00,00,
4310509527,00000130,false,Rx,0,8,03,80,FB,7C,00,01,0C,EE,
4310509768,00000140,false,Rx,0,8,FF,FF,01,6C,20,00,0C,3C,
4310510006,00000495,false,Rx,0,8,00,00,12,8A,21,69,2C,64,
15563798,000007D0,false,Tx,1,8,02,27,23,00,00,00,00,00,
4310519418,00000130,false,Rx,0,8,03,80,1C,7D,00,01,0D,18,
4310519665,00000140,false,Rx,0,8,FF,FF,01,6C,20,00,0D,21,
4310529421,00000130,false,Rx,0,8,07,80,27,7D,00,01,0E,B0,
4310529658,00000140,false,Rx,0,8,FF,FF,01,6C,20,00,0E,06,
4310539426,00000130,false,Rx,0,8,0F,80,27,7D,00,01,0F,7F,
4310539663,00000140,false,Rx,0,8,FF,FF,01,6C,20,00,0F,1B,
4310549421,00000130,false,Rx,0,8,0C,80,29,7D,00,01,00,35,
4310549668,00000140,false,Rx,0,8,FF,FF,01,6C,20,00,00,A0,
4310559427,00000130,false,Rx,0,8,01,80,31,7D,00,01,01,57,
4310559673,00000140,false,Rx,0,8,FF,FF,01,6C,20,00,01,BD,
4310569432,00000130,false,Rx,0,8,03,80,39,7D,00,01,02,BD,
4310569668,00000140,false,Rx,0,8,FF,FF,01,6C,20,00,02,9A,
4310579572,00000130,false,Rx,0,8,0C,80,34,7D,00,01,03,54,
4310579818,00000140,false,Rx,0,8,FF,FF,01,6C,20,00,03,87,
4310589421,00000130,false,Rx,0,8,01,80,0E,7D,00,01,04,6D,
4310589657,00000140,false,Rx,0,8,FF,FF,01,6C,20,00,04,D4,
4310599428,00000130,false,Rx,0,8,F9,7F,E8,7C,00,01,05,83,
4310599663,00000140,false,Rx,0,8,FF,FF,01,6C,20,00,05,C9,
4310609287,00000500,false,Rx,0,1,0C,00,00,00,00,00,00,00,
4310609520,00000130,false,Rx,0,8,02,80,ED,7C,00,01,06,EE,
4310609759,00000140,false,Rx,0,8,FF,FF,01,6C,20,00,06,EE,
4310609997,00000495,false,Rx,0,8,00,00,12,8A,21,69,2C,64,
15665661,000007D0,false,Tx,1,8,02,27,25,00,00,00,00,00,
4310619422,00000130,false,Rx,0,8,0D,80,09,7D,00,01,07,FA,
4310619658,00000140,false,Rx,0,8,FF,FF,01,6C,20,00,07,F3,
4310629407,00000130,false,Rx,0,8,0A,80,0E,7D,00,01,08,C4,
4310629653,00000140,false,Rx,0,8,FF,FF,01,6C,20,00,08,48,
4310639412,00000130,false,Rx,0,8,0C,80,06,7D,00,01,09,7D,
4310639657,00000140,false,Rx,0,8,FF,FF,01,6C,20,00,09,55,
4310649417,00000130,false,Rx,0,8,0D,80,06,7D,00,01,0A,07,
4310649652,00000140,false,Rx,0,8,FF,FF,01,6C,20,00,0A,72,
4310659420,00000130,false,Rx,0,8,0C,80,16,7D,00,01,0B,A9,
4310659665,00000140,false,Rx,0,8,FF,FF,01,6C,20,00,0B,6F,
4310669413,00000130,false,Rx,0,8,07,80,25,7D,00,01,0C,5E,
4310669658,00000140,false,Rx,0,8,FF,FF,01,6C,20,00,0C,3C,
4310679407,00000130,false,Rx,0,8,06,80,24,7D,00,01,0D,74,
4310679653,00000140,false,Rx,0,8,FF,FF,01,6C,20,00,0D,21,
4310689433,00000130,false,Rx,0,8,0E,80,27,7D,00,01,0E,3F,
4310689668,00000140,false,Rx,0,8,FF,FF,01,6C,20,00,0E,06,
4310699418,00000130,false,Rx,0,8,0E,80,22,7D,00,01,0F,FD,
4310699653,00000140,false,Rx,0,8,FF,FF,01,6C,20,00,0F,1B,
4310709288,00000500,false,Rx,0,1,0C,00,00,00,00,00,00,00,
4310709530,00000130,false,Rx,0,8,0B,80,17,7D,00,01,00,82,
4310709770,00000140,false,Rx,0,8,FF,FF,01,6C,20,00,00,A0,
4310710009,00000495,false,Rx,0,8,00,00,12,8A,21,69,2C,64,
4310719423,00000130,false,Rx,0,8,0B,80,0B,7D,00,01,01,B3,
4310719669,00000140,false,Rx,0,8,FF,FF,01,6C,20,00,01,BD,
4310729417,00000130,false,Rx,0,8,12,80,08,7D,00,01,02,1C,
4310729652,00000140,false,Rx,0,8,FF,FF,01,6C,20,00,02,9A,
4310739412,00000130,false,Rx,0,8,1D,80,0D,7D,00,01,03,82,
4310739657,00000140,false,Rx,0,8,FF,FF,01,6C,20,00,03,87,
4310749406,00000130,false,Rx,0,8,1E,80,FB,7C,00,01,04,59,
4310749651,00000140,false,Rx,0,8,FF,FF,01,6C,20,00,04,D4,
4310759430,00000130,false,Rx,0,8,11,80,F6,7C,00,01,05,B0,
4310759665,00000140,false,Rx,0,8,FF,FF,01,6C,20,00,05,C9,
15814837,000007D0,false,Tx,1,8,02,27,27,00,00,00,00,00,
4310769423,00000130,false,Rx,0,8,08,80,FA,7C,00,01,06,63,
4310769668,00000140,false,Rx,0,8,FF,FF,01,6C,20,00,06,EE,
4310779571,00000130,false,Rx,0,8,01,80,04,7D,00,01,07,E9,
4310779807,00000140,false,Rx,0,8,FF,FF,01,6C,20,00,07,F3,
4310789412,00000130,false,Rx,0,8,0B,80,0B,7D,00,01,08,46,
4310789657,00000140,false,Rx,0,8,FF,FF,01,6C,20,00,08,48,
4310799416,00000130,false,Rx,0,8,11,80,FF,7C,00,01,09,31,
4310799651,00000140,false,Rx,0,8,FF,FF,01,6C,20,00,09,55,
4310809296,00000500,false,Rx,0,1,0C,00,00,00,00,00,00,00,
4310809528,00000130,false,Rx,0,8,0D,80,02,7D,00,01,0A,B2,
4310809767,00000140,false,Rx,0,8,FF,FF,01,6C,20,00,0A,72,
4310810006,00000495,false,Rx,0,8,00,00,12,8A,21,69,2C,64,
4310819419,00000130,false,Rx,0,8,09,80,08,7D,00,01,0B,65,
4310819664,00000140,false,Rx,0,8,FF,FF,01,6C,20,00,0B,6F,
4310829412,00000130,false,Rx,0,8,04,80,09,7D,00,01,0C,BA,
4310829657,00000140,false,Rx,0,8,FF,FF,01,6C,20,00,0C,3C,
4310839416,00000130,false,Rx,0,8,07,80,05,7D,00,01,0D,82,
4310839662,00000140,false,Rx,0,8,FF,FF,01,6C,20,00,0D,21,
4310849422,00000130,false,Rx,0,8,0B,80,0C,7D,00,01,0E,03,
4310849657,00000140,false,Rx,0,8,FF,FF,01,6C,20,00,0E,06,
4310859427,00000130,false,Rx,0,8,0B,80,0A,7D,00,01,0F,7F,
4310859672,00000140,false,Rx,0,8,FF,FF,01,6C,20,00,0F,1B,
4310869421,00000130,false,Rx,0,8,0A,80,00,7D,00,01,00,3A,
4310869667,00000140,false,Rx,0,8,FF,FF,01,6C,20,00,00,A0,
15921712,000007D0,false,Tx,1,8,02,27,29,00,00,00,00,00,
4310879424,00000130,false,Rx,0,8,07,80,10,7D,00,01,01,2F,
4310879669,00000140,false,Rx,0,8,FF,FF,01,6C,20,00,01,BD,
4310889438,00000130,false,Rx,0,8,05,80,12,7D,00,01,02,66,
4310889673,00000140,false,Rx,0,8,FF,FF,01,6C,20,00,02,9A,
4310899433,00000130,false,Rx,0,8,0A,80,16,7D,00,01,03,92,
4310899679,00000140,false,Rx,0,8,FF,FF,01,6C,20,00,03,87,
4310909292,00000500,false,Rx,0,1,0C,00,00,00,00,00,00,00,
4310909524,00000130,false,Rx,0,8,0B,80,09,7D,00,01,04,0E,
4310909558,000005A0,false,Rx,1,8,00,00,00,C0,20,82,93,0C,
4310909766,00000140,false,Rx,0,8,FF,FF,01,6C,20,00,04,D4,
4310910004,00000495,false,Rx,0,8,00,00,12,8A,21,69,2C,64,
4310919419,00000130,false,Rx,0,8,0E,80,EB,7C,00,01,05,13,
4310919654,00000140,false,Rx,0,8,FF,FF,01,6C,20,00,05,C9,
4310929412,00000130,false,Rx,0,8,15,80,E2,7C,00,01,06,A5,
4310929648,00000140,false,Rx,0,8,FF,FF,01,6C,20,00,06,EE,
4310939417,00000130,false,Rx,0,8,18,80,E9,7C,00,01,07,97,
4310939653,00000140,false,Rx,0,8,FF,FF,01,6C,20,00,07,F3,
4310949402,00000130,false,Rx,0,8,15,80,F6,7C,00,01,08,58,
4310949648,00000140,false,Rx,0,8,FF,FF,01,6C,20,00,08,48,
4310959427,00000130,false,Rx,0,8,0F,80,0E,7D,00,01,09,ED,
4310959663,00000140,false,Rx,0,8,FF,FF,01,6C,20,00,09,55,
4310969422,00000130,false,Rx,0,8,13,80,14,7D,00,01,0A,85,
4310969658,00000140,false,Rx,0,8,FF,FF,01,6C,20,00,0A,72,
4310979561,00000130,false,Rx,0,8,1A,80,0E,7D,00,01,0B,5A,
16026679,000007D0,false,Tx,1,8,02,27,2B,00,00,00,00,00,
4310979798,00000140,false,Rx,0,8,FF,FF,01,6C,20,00,0B,6F,
4310989411,00000130,false,Rx,0,8,19,80,03,7D,00,01,0C,46,
4310989657,00000140,false,Rx,0,8,FF,FF,01,6C,20,00,0C,3C,
4310999416,00000130,false,Rx,0,8,12,80,FD,7C,00,01,0D,76,
4310999652,00000140,false,Rx,0,8,FF,FF,01,6C,20,00,0D,21,
4311009277,00000500,false,Rx,0,1,0C,00,00,00,00,00,00,00,
4311009519,00000130,false,Rx,0,8,0B,80,0A,7D,00,01,0E,62,
4311009760,00000140,false,Rx,0,8,FF,FF,01,6C,20,00,0E,06,
4311009988,00000495,false,Rx,0,8,00,00,12,8A,21,69,2C,64,
4311019412,00000130,false,Rx,0,8,0E,80,24,7D,00,01,0F,9C,
4311019659,00000140,false,Rx,0,8,FF,FF,01,6C,20,00,0F,1B,
4311029406,00000130,false,Rx,0,8,05,80,28,7D,00,01,00,D0,
4311029653,00000140,false,Rx,0,8,FF,FF,01,6C,20,00,00,A0,
4311039411,00000130,false,Rx,0,8,02,80,1D,7D,00,01,01,B3,
4311039658,00000140,false,Rx,0,8,FF,FF,01,6C,20,00,01,BD,
4311049416,00000130,false,Rx,0,8,0E,80,0F,7D,00,01,02,15,
4311049652,00000140,false,Rx,0,8,FF,FF,01,6C,20,00,02,9A,
4311059430,00000130,false,Rx,0,8,1F,80,12,7D,00,01,03,AA,
4311059666,00000140,false,Rx,0,8,FF,FF,01,6C,20,00,03,87,
4311069412,00000130,false,Rx,0,8,1D,80,09,7D,00,01,04,64,
4311069659,00000140,false,Rx,0,8,FF,FF,01,6C,20,00,04,D4,
4311079418,00000130,false,Rx,0,8,0B,80,0E,7D,00,01,05,18,
4311079664,00000140,false,Rx,0,8,FF,FF,01,6C,20,00,05,C9,
4311089433,00000130,false,Rx,0,8,04,80,1C,7D,00,01,06,59,
4311089668,00000140,false,Rx,0,8,FF,FF,01,6C,20,00,06,EE,
16141157,000007D0,false,Tx,1,8,02,27,2D,00,00,00,00,00,
4311099416,00000130,false,Rx,0,8,07,80,1A,7D,00,01,07,C2,
4311099662,00000140,false,Rx,0,8,FF,FF,01,6C,20,00,07,F3,
4311109284,00000500,false,Rx,0,1,0C,00,00,00,00,00,00,00,
4311109527,00000130,false,Rx,0,8,07,80,08,7D,00,01,08,43,
4311109766,00000140,false,Rx,0,8,FF,FF,01,6C,20,00,08,48,
4311110005,00000495,false,Rx,0,8,00,00,12,8A,21,69,2C,64,
4311119418,00000130,false,Rx,0,8,08,80,FC,7C,00,01,09,B9,
4311119654,00000140,false,Rx,0,8,FF,FF,01,6C,20,00,09,55,
4311129412,00000130,false,Rx,0,8,FE,7F,F8,7C,00,01,0A,58,
4311129658,00000140,false,Rx,0,8,FF,FF,01,6C,20,00,0A,72,
4311139417,00000130,false,Rx,0,8,02,80,01,7D,00,01,0B,4D,
4311139652,00000140,false,Rx,0,8,FF,FF,01,6C,20,00,0B,6F,
4311149412,00000130,false,Rx,0,8,15,80,14,7D,00,01,0C,18,
4311149657,00000140,false,Rx,0,8,FF,FF,01,6C,20,00,0C,3C,
4311159427,00000130,false,Rx,0,8,21,80,18,7D,00,01,0D,78,
4311159662,00000140,false,Rx,0,8,FF,FF,01,6C,20,00,0D,21,
4311169431,00000130,false,Rx,0,8,22,80,13,7D,00,01,0E,71,
4311169667,00000140,false,Rx,0,8,FF,FF,01,6C,20,00,0E,06,
4311179570,00000130,false,Rx,0,8,18,80,25,7D,00,01,0F,9C,
4311179805,00000140,false,Rx,0,8,FF,FF,01,6C,20,00,0F,1B,
4311189408,00000130,false,Rx,0,8,16,80,2E,7D,00,01,00,EF,
4311189653,00000140,false,Rx,0,8,FF,FF,01,6C,20,00,00,A0,
4311199412,00000130,false,Rx,0,8,1B,80,24,7D,00,01,01,B7,
4311199657,00000140,false,Rx,0,8,FF,FF,01,6C,20,00,01,BD,
16248633,000007D0,false,Tx,1,8,02,27,2F,00,00,00,00,00,
4311209282,00000500,false,Rx,0,1,0C,00,00,00,00,00,00,00,
4311209525,00000130,false,Rx,0,8,1E,80,1F,7D,00,01,02,42,
4311209764,00000140,false,Rx,0,8,FF,FF,01,6C,20,00,02,9A,
4311209993,00000495,false,Rx,0,8,00,00,12,8A,21,69,2C,64,
4311219417,00000130,false,Rx,0,8,16,80,07,7D,00,01,03,14,
4311219663,00000140,false,Rx,0,8,FF,FF,01,6C,20,00,03,87,
4311229413,00000130,false,Rx,0,8,15,80,FE,7C,00,01,04,B3,
4311229648,00000140,false,Rx,0,8,FF,FF,01,6C,20,00,04,D4,
4311239406,00000130,false,Rx,0,8,1B,80,04,7D,00,01,05,02,
4311239652,00000140,false,Rx,0,8,FF,FF,01,6C,20,00,05,C9,
4311249411,00000130,false,Rx,0,8,1D,80,0C,7D,00,01,06,81,
4311249647,00000140,false,Rx,0,8,FF,FF,01,6C,20,00,06,EE,
4311259427,00000130,false,Rx,0,8,1F,80,0F,7D,00,01,07,98,
4311259672,00000140,false,Rx,0,8,FF,FF,01,6C,20,00,07,F3,
4311269422,00000130,false,Rx,0,8,26,80,08,7D,00,01,08,71,
4311269657,00000140,false,Rx,0,8,FF,FF,01,6C,20,00,08,48,
4311279406,00000130,false,Rx,0,8,21,80,05,7D,00,01,09,4A,
4311279652,00000140,false,Rx,0,8,FF,FF,01,6C,20,00,09,55,
4311289432,00000130,false,Rx,0,8,13,80,0A,7D,00,01,0A,7D,
4311289668,00000140,false,Rx,0,8,FF,FF,01,6C,20,00,0A,72,
4311299417,00000130,false,Rx,0,8,18,80,13,7D,00,01,0B,A6,
4311299653,00000140,false,Rx,0,8,FF,FF,01,6C,20,00,0B,6F,
16353698,000007D0,false,Tx,1,8,02,27,31,00,00,00,00,00,
4311309288,00000500,false,Rx,0,1,0C,00,00,00,00,00,00,00,
4311309530,00000130,false,Rx,0,8,24,80,0D,7D,00,01,0C,60,
4311309769,00000140,false,Rx,0,8,FF,FF,01,6C,20,00,0C,3C,
4311309998,00000495,false,Rx,0,8,00,00,12,8A,21,69,2C,64,
4311319411,00000130,false,Rx,0,8,1B,80,09,7D,00,01,0D,42,
4311319657,00000140,false,Rx,0,8,FF,FF,01,6C,20,00,0D,21,
4311329407,00000130,false,Rx,0,8,11,80,0C,7D,00,01,0E,D2,
4311329652,00000140,false,Rx,0,8,FF,FF,01,6C,20,00,0E,06,
4311339413,00000130,false,Rx,0,8,0C,80,00,7D,00,01,0F,52,
4311339648,00000140,false,Rx,0,8,FF,FF,01,6C,20,00,0F,1B,
4311349417,00000130,false,Rx,0,8,01,80,06,7D,00,01,00,6E,
4311349662,00000140,false,Rx,0,8,FF,FF,01,6C,20,00,00,A0,
4311359422,00000130,false,Rx,0,8,FE,7F,FD,7C,00,01,01,48,
4311359667,00000140,false,Rx,0,8,FF,FF,01,6C,20,00,01,BD,
4311369427,00000130,false,Rx,0,8,06,80,F5,7C,00,01,02,6A,
4311369662,00000140,false,Rx,0,8,FF,FF,01,6C,20,00,02,9A,
4311379567,00000130,false,Rx,0,8,0D,80,FB,7C,00,01,03,54,
4311379804,00000140,false,Rx,0,8,FF,FF,01,6C,20,00,03,87,
4311389416,00000130,false,Rx,0,8,11,80,02,7D,00,01,04,16,
4311389651,00000140,false,Rx,0,8,FF,FF,01,6C,20,00,04,D4,
4311399430,00000130,false,Rx,0,8,0D,80,03,7D,00,01,05,63,
4311399677,00000140,false,Rx,0,8,FF,FF,01,6C,20,00,05,C9,
4311409278,00000500,false,Rx,0,1,0C,00,00,00,00,00,00,00,
4311409520,00000130,false,Rx,0,8,09,80,04,7D,00,01,06,26,
4311409761,00000140,false,Rx,0,8,FF,FF,01,6C,20,00,06,EE,
4311409999,00000495,false,Rx,0,8,00,00,12,8A,21,69,2C,64,
4311419422,00000130,false,Rx,0,8,10,80,07,7D,00,01,07,B3,
16465800,000007D0,false,Tx,1,8,02,27,33,00,00,00,00,00,
4311419659,00000140,false,Rx,0,8,FF,FF,01,6C,20,00,07,F3,
4311429417,00000130,false,Rx,0,8,1A,80,FD,7C,00,01,08,CD,
4311429653,00000140,false,Rx,0,8,FF,FF,01,6C,20,00,08,48,
4311439411,00000130,false,Rx,0,8,1B,80,FC,7C,00,01,09,E7,
4311439648,00000140,false,Rx,0,8,FF,FF,01,6C,20,00,09,55,
4311449406,00000130,false,Rx,0,8,14,80,0F,7D,00,01,0A,2C,
4311449653,00000140,false,Rx,0,8,FF,FF,01,6C,20,00,0A,72,
4311459421,00000130,false,Rx,0,8,0C,80,25,7D,00,01,0B,38,
4311459658,00000140,false,Rx,0,8,FF,FF,01,6C,20,00,0B,6F,
4311469417,00000130,false,Rx,0,8,05,80,21,7D,00,01,0C,51,
4311469664,00000140,false,Rx,0,8,FF,FF,01,6C,20,00,0C,3C,
4311479411,00000130,false,Rx,0,8,00,80,0F,7D,00,01,0D,AF,
4311479658,00000140,false,Rx,0,8,FF,FF,01,6C,20,00,0D,21,
4311489437,00000130,false,Rx,0,8,03,80,0C,7D,00,01,0E,D1,
4311489673,00000140,false,Rx,0,8,FF,FF,01,6C,20,00,0E,06,
4311499411,00000130,false,Rx,0,8,08,80,19,7D,00,01,0F,C8,
4311499658,00000140,false,Rx,0,8,FF,FF,01,6C,20,00,0F,1B,
4311509282,00000500,false,Rx,0,1,0C,00,00,00,00,00,00,00,
4311509525,00000130,false,Rx,0,8,05,80,1B,7D,00,01,00,41,
4311509775,00000140,false,Rx,0,8,FF,FF,01,6C,20,00,00,A0,
4311510003,00000495,false,Rx,0,8,00,00,12,8A,21,69,2C,64,
4311519416,00000130,false,Rx,0,8,10,80,09,7D,00,01,01,EB,
4311519663,00000140,false,Rx,0,8,FF,FF,01,6C,20,00,01,BD,
16575014,000007D0,false,Tx,1,8,02,27,35,00,00,00,00,00,
4311529410,00000130,false,Rx,0,8,0B,80,03,7D,00,01,02,E3,
4311529647,00000140,false,Rx,0,8,FF,FF,01,6C,20,00,02,9A,
4311539417,00000130,false,Rx,0,8,03,80,01,7D,00,01,03,F8,
4311539653,00000140,false,Rx,0,8,FF,FF,01,6C,20,00,03,87,
4311549410,00000130,false,Rx,0,8,00,80,16,7D,00,01,04,A9,
4311549647,00000140,false,Rx,0,8,FF,FF,01,6C,20,00,04,D4,
4311559417,00000130,false,Rx,0,8,05,80,1A,7D,00,01,05,42,
4311559663,00000140,false,Rx,0,8,FF,FF,01,6C,20,00,05,C9,
4311569422,00000130,false,Rx,0,8,04,80,18,7D,00,01,06,EC,
4311569657,00000140,false,Rx,0,8,FF,FF,01,6C,20,00,06,EE,
4311579560,00000130,false,Rx,0,8,FC,7F,2B,7D,00,01,07,12,
4311579805,00000140,false,Rx,0,8,FF,FF,01,6C,20,00,07,F3,
4311589408,00000130,false,Rx,0,8,02,80,21,7D,00,01,08,AB,
4311589642,00000140,false,Rx,0,8,FF,FF,01,6C,20,00,08,48,
4311599422,00000130,false,Rx,0,8,0D,80,0C,7D,00,01,09,83,
4311599657,00000140,false,Rx,0,8,FF,FF,01,6C,20,00,09,55,
4311609279,00000500,false,Rx,0,1,0C,00,00,00,00,00,00,00,
4311609512,00000130,false,Rx,0,8,08,80,11,7D,00,01,0A,D6,
4311609752,00000140,false,Rx,0,8,FF,FF,01,6C,20,00,0A,72,
4311609990,00000495,false,Rx,0,8,00,00,12,8A,21,69,2C,64,
4311619414,00000130,false,Rx,0,8,02,80,06,7D,00,01,0B,46,
4311619659,00000140,false,Rx,0,8,FF,FF,01,6C,20,00,0B,6F,
4311629407,00000130,false,Rx,0,8,06,80,00,7D,00,01,0C,1D,
4311629653,00000140,false,Rx,0,8,FF,FF,01,6C,20,00,0C,3C,
16684398,000007D0,false,Tx,1,8,02,27,37,00,00,00,00,00,
4311639401,00000130,false,Rx,0,8,15,80,F9,7C,00,01,0D,4D,
4311639647,00000140,false,Rx,0,8,FF,FF,01,6C,20,00,0D,21,
4311649407,00000130,false,Rx,0,8,11,80,FF,7C,00,01,0E,62,
4311649641,00000140,false,Rx,0,8,FF,FF,01,6C,20,00,0E,06,
4311659422,00000130,false,Rx,0,8,0E,80,10,7D,00,01,0F,06,
4311659668,00000140,false,Rx,0,8,FF,FF,01,6C,20,00,0F,1B,
4311669417,00000130,false,Rx,0,8,17,80,FF,7C,00,01,00,17,
4311669662,00000140,false,Rx,0,8,FF,FF,01,6C,20,00,00,A0,
4311679412,00000130,false,Rx,0,8,12,80,EE,7C,00,01,01,BA,
4311679647,00000140,false,Rx,0,8,FF,FF,01,6C,20,00,01,BD,
4311689427,00000130,false,Rx,0,8,17,80,EF,7C,00,01,02,C3,
4311689662,00000140,false,Rx,0,8,FF,FF,01,6C,20,00,02,9A,
4311699412,00000130,false,Rx,0,8,21,80,03,7D,00,01,03,F9,
4311699657,00000140,false,Rx,0,8,FF,FF,01,6C,20,00,03,87,
4311709282,00000500,false,Rx,0,1,0C,00,00,00,00,00,00,00,
4311709524,00000130,false,Rx,0,8,23,80,0E,7D,00,01,04,B8,
4311709764,00000140,false,Rx,0,8,FF,FF,01,6C,20,00,04,D4,
4311710003,00000495,false,Rx,0,8,00,00,12,8A,21,69,2C,64,
4311719418,00000130,false,Rx,0,8,1B,80,19,7D,00,01,05,44,
4311719653,00000140,false,Rx,0,8,FF,FF,01,6C,20,00,05,C9,
4311729411,00000130,false,Rx,0,8,11,80,33,7D,00,01,06,69,
4311729646,00000140,false,Rx,0,8,FF,FF,01,6C,20,00,06,EE,
4311739414,00000130,false,Rx,0,8,08,80,34,7D,00,01,07,49,
4311739650,00000140,false,Rx,0,8,FF,FF,01,6C,20,00,07,F3,
4311749407,00000130,false,Rx,0,8,0B,80,1A,7D,00,01,08,C2,
4311749653,00000140,false,Rx,0,8,FF,FF,01,6C,20,00,08,48,
4311759423,00000130,false,Rx,0,8,13,80,0C,7D,00,01,09,3B,
4311759658,00000140,false,Rx,0,8,FF,FF,01,6C,20,00,09,55,
16810742,000007D0,false,Tx,1,8,02,27,39,00,00,00,00,00,
4311769427,00000130,false,Rx,0,8,12,80,0A,7D,00,01,0A,20,
4311769662,00000140,false,Rx,0,8,FF,FF,01,6C,20,00,0A,72,
4311779566,00000130,false,Rx,0,8,0D,80,08,7D,00,01,0B,0C,
4311779802,00000140,false,Rx,0,8,FF,FF,01,6C,20,00,0B,6F,
4311789407,00000130,false,Rx,0,8,14,80,12,7D,00,01,0C,24,
4311789652,00000140,false,Rx,0,8,FF,FF,01,6C,20,00,0C,3C,
4311799412,00000130,false,Rx,0,8,13,80,19,7D,00,01,0D,7E,
4311799648,00000140,false,Rx,0,8,FF,FF,01,6C,20,00,0D,21,
4311809282,00000500,false,Rx,0,1,0C,00,00,00,00,00,00,00,
4311809525,00000130,false,Rx,0,8,10,80,1B,7D,00,01,0E,6A,
4311809764,00000140,false,Rx,0,8,FF,FF,01,6C,20,00,0E,06,
4311809993,00000495,false,Rx,0,8,00,00,12,8A,21,69,2C,64,
4311819417,00000130,false,Rx,0,8,0D,80,14,7D,00,01,0F,54,
4311819652,00000140,false,Rx,0,8,FF,FF,01,6C,20,00,0F,1B,
4311829411,00000130,false,Rx,0,8,01,80,13,7D,00,01,00,5F,
4311829657,00000140,false,Rx,0,8,FF,FF,01,6C,20,00,00,A0,
4311839416,00000130,false,Rx,0,8,01,80,10,7D,00,01,01,FC,
4311839651,00000140,false,Rx,0,8,FF,FF,01,6C,20,00,01,BD,
4311849411,00000130,false,Rx,0,8,0D,80,01,7D,00,01,02,E4,
4311849646,00000140,false,Rx,0,8,FF,FF,01,6C,20,00,02,9A,
4311859425,00000130,false,Rx,0,8,09,80,FD,7C,00,01,03,5C,
4311859660,00000140,false,Rx,0,8,FF,FF,01,6C,20,00,03,87,
4311869418,00000130,false,Rx,0,8,09,80,09,7D,00,01,04,B4,
16916288,000007D0,false,Tx,1,8,02,27,3B,00,00,00,00,00,
4311869653,00000140,false,Rx,0,8,FF,FF,01,6C,20,00,04,D4,
4311879412,00000130,false,Rx,0,8,11,80,02,7D,00,01,05,0B,
4311879648,00000140,false,Rx,0,8,FF,FF,01,6C,20,00,05,C9,
4311889438,00000130,false,Rx,0,8,0F,80,FD,7C,00,01,06,E6,
4311889674,00000140,false,Rx,0,8,FF,FF,01,6C,20,00,06,EE,
4311899432,00000130,false,Rx,0,8,0C,80,F7,7C,00,01,07,BF,
4311899679,00000140,false,Rx,0,8,FF,FF,01,6C,20,00,07,F3,
4311909282,00000500,false,Rx,0,1,0C,00,00,00,00,00,00,00,
4311909524,00000130,false,Rx,0,8,10,80,F8,7C,00,01,08,7A,
4311909558,000005A0,false,Rx,1,8,00,00,00,C0,20,73,94,0C,
4311909766,00000140,false,Rx,0,8,FF,FF,01,6C,20,00,08,48,
4311909994,00000495,false,Rx,0,8,00,00,12,8A,21,69,2C,64,
4311919408,00000130,false,Rx,0,8,07,80,01,7D,00,01,09,43,
4311919656,00000140,false,Rx,0,8,FF,FF,01,6C,20,00,09,55,
4311929403,00000130,false,Rx,0,8,03,80,07,7D,00,01,0A,6C,
4311929649,00000140,false,Rx,0,8,FF,FF,01,6C,20,00,0A,72,
4311939406,00000130,false,Rx,0,8,09,80,17,7D,00,01,0B,F7,
4311939652,00000140,false,Rx,0,8,FF,FF,01,6C,20,00,0B,6F,
4311949401,00000130,false,Rx,0,8,15,80,15,7D,00,01,0C,72,
4311949648,00000140,false,Rx,0,8,FF,FF,01,6C,20,00,0C,3C,
4311959416,00000130,false,Rx,0,8,13,80,FE,7C,00,01,0D,95,
4311959663,00000140,false,Rx,0,8,FF,FF,01,6C,20,00,0D,21,
4311969421,00000130,false,Rx,0,8,08,80,F7,7C,00,01,0E,23,
4311969657,00000140,false,Rx,0,8,FF,FF,01,6C,20,00,0E,06,
4311979559,00000130,false,Rx,0,8,00,80,EB,7C,00,01,0F,C0,
4311979805,00000140,false,Rx,0,8,FF,FF,01,6C,20,00,0F,1B,
4311989406,00000130,false,Rx,0,8,04,80,EF,7C,00,01,00,A7,
4311989653,00000140,false,Rx,0,8,FF,FF,01,6C,20,00,00,A0,
4311999411,00000130,false,Rx,0,8,08,80,F2,7C,00,01,01,47,
4311999658,00000140,false,Rx,0,8,FF,FF,01,6C,20,00,01,BD,
17053694,000007D0,false,Tx,1,8,02,27,3D,00,00,00,00,00,
4312009282,00000500,false,Rx,0,1,0C,00,00,00,00,00,00,00,
4312009515,00000130,false,Rx,0,8,11,80,E8,7C,00,01,02,1B,
4312009754,00000140,false,Rx,0,8,FF,FF,01,6C,20,00,02,9A,
4312009992,00000495,false,Rx,0,8,00,00,12,8A,21,69,2C,64,
4312019427,00000130,false,Rx,0,8,0D,80,FF,7C,00,01,03,E1,
4312019664,00000140,false,Rx,0,8,FF,FF,01,6C,20,00,03,87,
4312029411,00000130,false,Rx,0,8,11,80,16,7D,00,01,04,4D,
4312029648,00000140,false,Rx,0,8,FF,FF,01,6C,20,00,04,D4,
4312039406,00000130,false,Rx,0,8,14,80,21,7D,00,01,05,40,
4312039653,00000140,false,Rx,0,8,FF,FF,01,6C,20,00,05,C9,
4312049412,00000130,false,Rx,0,8,0B,80,14,7D,00,01,06,72,
4312049658,00000140,false,Rx,0,8,FF,FF,01,6C,20,00,06,EE,
4312059427,00000130,false,Rx,0,8,05,80,12,7D,00,01,07,0F,
4312059663,00000140,false,Rx,0,8,FF,FF,01,6C,20,00,07,F3,
4312069421,00000130,false,Rx,0,8,0B,80,0F,7D,00,01,08,F3,
4312069656,00000140,false,Rx,0,8,FF,FF,01,6C,20,00,08,48,
4312079414,00000130,false,Rx,0,8,0A,80,04,7D,00,01,09,7A,
4312079649,00000140,false,Rx,0,8,FF,FF,01,6C,20,00,09,55,
4312089428,00000130,false,Rx,0,8,07,80,F9,7C,00,01,0A,1D,
4312089673,00000140,false,Rx,0,8,FF,FF,01,6C,20,00,0A,72,
4312099413,00000130,false,Rx,0,8,06,80,FB,7C,00,01,0B,89,
4312099648,00000140,false,Rx,0,8,FF,FF,01,6C,20,00,0B,6F,
17153835,000007D0,false,Tx,1,8,02,27,3F,00,00,00,00,00,
4312109282,00000500,false,Rx,0,1,0C,00,00,00,00,00,00,00,
4312109525,00000130,false,Rx,0,8,06,80,0B,7D,00,01,0C,D4,
4312109764,00000140,false,Rx,0,8,FF,FF,01,6C,20,00,0C,3C,
4312109992,00000495,false,Rx,0,8,00,00,12,8A,21,69,2C,64,
4312119418,00000130,false,Rx,0,8,14,80,11,7D,00,01,0D,87,
4312119653,00000140,false,Rx,0,8,FF,FF,01,6C,20,00,0D,21,
4312129402,00000130,false,Rx,0,8,1A,80,0E,7D,00,01,0E,33,
4312129648,00000140,false,Rx,0,8,FF,FF,01,6C,20,00,0E,06,
4312139407,00000130,false,Rx,0,8,0F,80,18,7D,00,01,0F,2C,
4312139641,00000140,false,Rx,0,8,FF,FF,01,6C,20,00,0F,1B,
4312149401,00000130,false,Rx,0,8,04,80,1A,7D,00,01,00,76,
4312149647,00000140,false,Rx,0,8,FF,FF,01,6C,20,00,00,A0,
4312159427,00000130,false,Rx,0,8,01,80,19,7D,00,01,01,E1,
4312159673,00000140,false,Rx,0,8,FF,FF,01,6C,20,00,01,BD,
4312169422,00000130,false,Rx,0,8,05,80,0A,7D,00,01,02,FF,
4312169658,00000140,false,Rx,0,8,FF,FF,01,6C,20,00,02,9A,
4312179561,00000130,false,Rx,0,8,16,80,15,7D,00,01,03,2E,
4312179796,00000140,false,Rx,0,8,FF,FF,01,6C,20,00,03,87,
4312189401,00000130,false,Rx,0,8,1B,80,22,7D,00,01,04,BF,
4312189647,00000140,false,Rx,0,8,FF,FF,01,6C,20,00,04,D4,
4312199406,00000130,false,Rx,0,8,17,80,25,7D,00,01,05,12,
4312199651,00000140,false,Rx,0,8,FF,FF,01,6C,20,00,05,C9,
4312209275,00000500,false,Rx,0,1,0C,00,00,00,00,00,00,00,
4312209518,00000130,false,Rx,0,8,16,80,27,7D,00,01,06,BC,
4312209747,00000140,false,Rx,0,8,FF,FF,01,6C,20,00,06,EE,
4312209987,00000495,false,Rx,0,8,00,00,12,8A,21,69,2C,64,
4312219409,00000130,false,Rx,0,8,0D,80,1A,7D,00,01,07,AA,
17265815,000007D0,false,Tx,1,8,02,27,41,00,00,00,00,00,
4312219655,00000140,false,Rx,0,8,FF,FF,01,6C,20,00,07,F3,
4312229409,00000130,false,Rx,0,8,15,80,16,7D,00,01,08,B8,
4312229644,00000140,false,Rx,0,8,FF,FF,01,6C,20,00,08,48,
4312239413,00000130,false,Rx,0,8,20,80,0B,7D,00,01,09,01,
4312239648,00000140,false,Rx,0,8,FF,FF,01,6C,20,00,09,55,
4312249406,00000130,false,Rx,0,8,14,80,09,7D,00,01,0A,4D,
4312249640,00000140,false,Rx,0,8,FF,FF,01,6C,20,00,0A,72,
4312259419,00000130,false,Rx,0,8,00,80,15,7D,00,01,0B,AC,
4312259655,00000140,false,Rx,0,8,FF,FF,01,6C,20,00,0B,6F,
4312269413,00000130,false,Rx,0,8,FC,7F,2E,7D,00,01,0C,02,
4312269658,00000140,false,Rx,0,8,FF,FF,01,6C,20,00,0C,3C,
4312279406,00000130,false,Rx,0,8,01,80,31,7D,00,01,0D,CB,
4312279640,00000140,false,Rx,0,8,FF,FF,01,6C,20,00,0D,21,
4312289422,00000130,false,Rx,0,8,04,80,22,7D,00,01,0E,88,
4312289667,00000140,false,Rx,0,8,FF,FF,01,6C,20,00,0E,06,
4312299406,00000130,false,Rx,0,8,0E,80,18,7D,00,01,0F,71,
4312299652,00000140,false,Rx,0,8,FF,FF,01,6C,20,00,0F,1B,
4312309287,00000500,false,Rx,0,1,0C,00,00,00,00,00,00,00,
4312309529,00000130,false,Rx,0,8,0B,80,1B,7D,00,01,00,40,
4312309770,00000140,false,Rx,0,8,FF,FF,01,6C,20,00,00,A0,
4312310008,00000495,false,Rx,0,8,00,00,12,8A,21,69,2C,64,
4312319421,00000130,false,Rx,0,8,0B,80,1E,7D,00,01,01,82,
4312319666,00000140,false,Rx,0,8,FF,FF,01,6C,20,00,01,BD,
4312329414,00000130,false,Rx,0,8,0B,80,23,7D,00,01,02,22,
4312329650,00000140,false,Rx,0,8,FF,FF,01,6C,20,00,02,9A,
17377764,000007D1,false,Tx,1,8,02,27,01,00,00,00,00,00,
4312339408,00000130,false,Rx,0,8,0A,80,23,7D,00,01,03,62,
4312339653,00000140,false,Rx,0,8,FF,FF,01,6C,20,00,03,87,
4312349413,00000130,false,Rx,0,8,10,80,09,7D,00,01,04,82,
4312349658,00000140,false,Rx,0,8,FF,FF,01,6C,20,00,04,D4,
4312359427,00000130,false,Rx,0,8,0F,80,03,7D,00,01,05,D9,
4312359662,00000140,false,Rx,0,8,FF,FF,01,6C,20,00,05,C9,
4312369421,00000130,false,Rx,0,8,0A,80,0A,7D,00,01,06,D7,
4312369658,00000140,false,Rx,0,8,FF,FF,01,6C,20,00,06,EE,
4312379569,00000130,false,Rx,0,8,06,80,04,7D,00,01,07,67,
4312379806,00000140,false,Rx,0,8,FF,FF,01,6C,20,00,07,F3,
4312389408,00000130,false,Rx,0,8,07,80,03,7D,00,01,08,8A,
4312389643,00000140,false,Rx,0,8,FF,FF,01,6C,20,00,08,48,
4312399433,00000130,false,Rx,0,8,07,80,00,7D,00,01,09,29,
4312399669,00000140,false,Rx,0,8,FF,FF,01,6C,20,00,09,55,
4312409272,00000500,false,Rx,0,1,0C,00,00,00,00,00,00,00,
4312409514,00000130,false,Rx,0,8,FF,7F,00,7D,00,01,0A,7C,
4312409755,00000140,false,Rx,0,8,FF,FF,01,6C,20,00,0A,72,
4312409993,00000495,false,Rx,0,8,00,00,12,8A,21,69,2C,64,
4312419407,00000130,false,Rx,0,8,FC,7F,FD,7C,00,01,0B,20,
4312419653,00000140,false,Rx,0,8,FF,FF,01,6C,20,00,0B,6F,
4312429411,00000130,false,Rx,0,8,04,80,02,7D,00,01,0C,73,
4312429657,00000140,false,Rx,0,8,FF,FF,01,6C,20,00,0C,3C,
4312439406,00000130,false,Rx,0,8,06,80,01,7D,00,01,0D,6A,
4312439641,00000140,false,Rx,0,8,FF,FF,01,6C,20,00,0D,21,
17489963,000007D1,false,Tx,1,8,02,27,03,00,00,00,00,00,
4312449401,00000130,false,Rx,0,8,00,80,0B,7D,00,01,0E,3D,
4312449647,00000140,false,Rx,0,8,FF,FF,01,6C,20,00,0E,06,
4312459416,00000130,false,Rx,0,8,FA,7F,01,7D,00,01,0F,4B,
4312459652,00000140,false,Rx,0,8,FF,FF,01,6C,20,00,0F,1B,
4312469409,00000130,false,Rx,0,8,F6,7F,02,7D,00,01,00,F5,
4312469656,00000140,false,Rx,0,8,FF,FF,01,6C,20,00,00,A0,
4312479414,00000130,false,Rx,0,8,FD,7F,03,7D,00,01,01,B7,
4312479650,00000140,false,Rx,0,8,FF,FF,01,6C,20,00,01,BD,
4312489438,00000130,false,Rx,0,8,00,80,06,7D,00,01,02,09,
4312489676,00000140,false,Rx,0,8,FF,FF,01,6C,20,00,02,9A,
4312499412,00000130,false,Rx,0,8,04,80,0B,7D,00,01,03,D5,
4312499648,00000140,false,Rx,0,8,FF,FF,01,6C,20,00,03,87,
4312509283,00000500,false,Rx,0,1,0C,00,00,00,00,00,00,00,
4312509516,00000130,false,Rx,0,8,0F,80,18,7D,00,01,04,E3,
4312509755,00000140,false,Rx,0,8,FF,FF,01,6C,20,00,04,D4,
4312509993,00000495,false,Rx,0,8,00,00,12,8A,21,69,2C,64,
4312519407,00000130,false,Rx,0,8,0E,80,0E,7D,00,01,05,2C,
4312519653,00000140,false,Rx,0,8,FF,FF,01,6C,20,00,05,C9,
4312529413,00000130,false,Rx,0,8,0A,80,F8,7C,00,01,06,0D,
4312529648,00000140,false,Rx,0,8,FF,FF,01,6C,20,00,06,EE,
4312539407,00000130,false,Rx,0,8,07,80,FA,7C,00,01,07,22,
4312539641,00000140,false,Rx,0,8,FF,FF,01,6C,20,00,07,F3,
4312549400,00000130,false,Rx,0,8,0A,80,0E,7D,00,01,08,C4,
4312549646,00000140,false,Rx,0,8,FF,FF,01,6C,20,00,08,48,
17601465,000007D1,false,Tx,1,8,02,27,05,00,00,00,00,00,
4312559425,00000130,false,Rx,0,8,0C,80,06,7D,00,01,09,7D,
4312559660,00000140,false,Rx,0,8,FF,FF,01,6C,20,00,09,55,
4312569418,00000130,false,Rx,0,8,11,80,05,7D,00,01,0A,BB,
4312569653,00000140,false,Rx,0,8,FF,FF,01,6C,20,00,0A,72,
4312579556,00000130,false,Rx,0,8,11,80,F7,7C,00,01,0B,7C,
4312579791,00000140,false,Rx,0,8,FF,FF,01,6C,20,00,0B,6F,
4312589407,00000130,false,Rx,0,8,0D,80,EB,7C,00,01,0C,01,
4312589641,00000140,false,Rx,0,8,FF,FF,01,6C,20,00,0C,3C,
4312599412,00000130,false,Rx,0,8,0E,80,FA,7C,00,01,0D,7F,
4312599647,00000140,false,Rx,0,8,FF,FF,01,6C,20,00,0D,21,
4312609283,00000500,false,Rx,0,1,0C,00,00,00,00,00,00,00,
4312609515,00000130,false,Rx,0,8,11,80,0F,7D,00,01,0E,6C,
4312609754,00000140,false,Rx,0,8,FF,FF,01,6C,20,00,0E,06,
4312609992,00000495,false,Rx,0,8,00,00,12,8A,21,69,2C,64,
4312619418,00000130,false,Rx,0,8,0D,80,24,7D,00,01,0F,7B,
4312619653,00000140,false,Rx,0,8,FF,FF,01,6C,20,00,0F,1B,
4312629412,00000130,false,Rx,0,8,0C,80,25,7D,00,01,00,F7,
4312629658,00000140,false,Rx,0,8,FF,FF,01,6C,20,00,00,A0,
4312639406,00000130,false,Rx,0,8,0D,80,29,7D,00,01,01,75,
4312639652,00000140,false,Rx,0,8,FF,FF,01,6C,20,00,01,BD,
4312649412,00000130,false,Rx,0,8,0A,80,07,7D,00,01,02,0B,
4312649657,00000140,false,Rx,0,8,FF,FF,01,6C,20,00,02,9A,
17698492,000007D1,false,Tx,1,8,02,27,07,00,00,00,00,00,
4312659417,00000130,false,Rx,0,8,08,80,F2,7C,00,01,03,7D,
4312659663,00000140,false,Rx,0,8,FF,FF,01,6C,20,00,03,87,
4312669412,00000130,false,Rx,0,8,06,80,F6,7C,00,01,04,9A,
4312669658,00000140,false,Rx,0,8,FF,FF,01,6C,20,00,04,D4,
4312679406,00000130,false,Rx,0,8,FD,7F,12,7D,00,01,05,47,
4312679652,00000140,false,Rx,0,8,FF,FF,01,6C,20,00,05,C9,
4312689422,00000130,false,Rx,0,8,FC,7F,1E,7D,00,01,06,FF,
4312689667,00000140,false,Rx,0,8,FF,FF,01,6C,20,00,06,EE,
4312699416,00000130,false,Rx,0,8,FF,7F,22,7D,00,01,07,E8,
4312699662,00000140,false,Rx,0,8,FF,FF,01,6C,20,00,07,F3,
4312709275,00000500,false,Rx,0,1,0C,00,00,00,00,00,00,00,
4312709517,00000130,false,Rx,0,8,FE,7F,1C,7D,00,01,08,37,
4312709757,00000140,false,Rx,0,8,FF,FF,01,6C,20,00,08,48,
4312709996,00000495,false,Rx,0,8,00,00,12,8A,21,69,2C,64,
4312719409,00000130,false,Rx,0,8,00,80,0A,7D,00,01,09,04,
4312719655,00000140,false,Rx,0,8,FF,FF,01,6C,20,00,09,55,
4312729402,00000130,false,Rx,0,8,FF,7F,0D,7D,00,01,0A,D4,
4312729637,00000140,false,Rx,0,8,FF,FF,01,6C,20,00,0A,72,
4312739396,00000130,false,Rx,0,8,FB,7F,24,7D,00,01,0B,7C,
4312739641,00000140,false,Rx,0,8,FF,FF,01,6C,20,00,0B,6F,
4312749402,00000130,false,Rx,0,8,FD,7F,22,7D,00,01,0C,9D,
4312749636,00000140,false,Rx,0,8,FF,FF,01,6C,20,00,0C,3C,
4312759417,00000130,false,Rx,0,8,0B,80,0B,7D,00,01,0D,2F,
4312759652,00000140,false,Rx,0,8,FF,FF,01,6C,20,00,0D,21,
4312769421,00000130,false,Rx,0,8,0C,80,FF,7C,00,01,0E,3D,
4312769656,00000140,false,Rx,0,8,FF,FF,01,6C,20,00,0E,06,
17819043,000007D1,false,Tx,1,8,02,27,09,00,00,00,00,00,
4312779561,00000130,false,Rx,0,8,0D,80,FD,7C,00,01,0F,A9,
4312779798,00000140,false,Rx,0,8,FF,FF,01,6C,20,00,0F,1B,
4312789401,00000130,false,Rx,0,8,05,80,05,7D,00,01,00,B9,
4312789647,00000140,false,Rx,0,8,FF,FF,01,6C,20,00,00,A0,
4312799406,00000130,false,Rx,0,8,05,80,0C,7D,00,01,01,B9,
4312799651,00000140,false,Rx,0,8,FF,FF,01,6C,20,00,01,BD,
4312809277,00000500,false,Rx,0,1,0C,00,00,00,00,00,00,00,
4312809519,00000130,false,Rx,0,8,02,80,0C,7D,00,01,02,10,
4312809760,00000140,false,Rx,0,8,FF,FF,01,6C,20,00,02,9A,
4312809988,00000495,false,Rx,0,8,00,00,12,8A,21,69,2C,64,
4312819413,00000130,false,Rx,0,8,01,80,FD,7C,00,01,03,8E,
4312819649,00000140,false,Rx,0,8,FF,FF,01,6C,20,00,03,87,
4312829407,00000130,false,Rx,0,8,06,80,0D,7D,00,01,04,5D,
4312829641,00000140,false,Rx,0,8,FF,FF,01,6C,20,00,04,D4,
4312839401,00000130,false,Rx,0,8,0F,80,26,7D,00,01,05,C7,
4312839646,00000140,false,Rx,0,8,FF,FF,01,6C,20,00,05,C9,
4312849395,00000130,false,Rx,0,8,10,80,2B,7D,00,01,06,AD,
4312849640,00000140,false,Rx,0,8,FF,FF,01,6C,20,00,06,EE,
4312859419,00000130,false,Rx,0,8,09,80,13,7D,00,01,07,DE,
4312859656,00000140,false,Rx,0,8,FF,FF,01,6C,20,00,07,F3,
4312869413,00000130,false,Rx,0,8,06,80,10,7D,00,01,08,87,
4312869649,00000140,false,Rx,0,8,FF,FF,01,6C,20,00,08,48,
17921870,000007D1,false,Tx,1,8,02,27,0B,00,00,00,00,00,
4312879406,00000130,false,Rx,0,8,0B,80,1B,7D,00,01,09,B5,
4312879642,00000140,false,Rx,0,8,FF,FF,01,6C,20,00,09,55,
4312889432,00000130,false,Rx,0,8,0E,80,1E,7D,00,01,0A,79,
4312889668,00000140,false,Rx,0,8,FF,FF,01,6C,20,00,0A,72,
4312899437,00000130,false,Rx,0,8,0E,80,0A,7D,00,01,0B,3F,
4312899673,00000140,false,Rx,0,8,FF,FF,01,6C,20,00,0B,6F,
4312909275,00000500,false,Rx,0,1,0C,00,00,00,00,00,00,00,
4312909517,00000130,false,Rx,0,8,04,80,00,7D,00,01,0C,A7,
4312909551,000005A0,false,Rx,1,8,00,00,00,C0,20,77,94,0C,
4312909759,00000140,false,Rx,0,8,FF,FF,01,6C,20,00,0C,3C,
4312909998,00000495,false,Rx,0,8,00,00,12,8A,21,69,2C,64,
4312919412,00000130,false,Rx,0,8,0D,80,16,7D,00,01,0D,BA,
4312919649,00000140,false,Rx,0,8,FF,FF,01,6C,20,00,0D,21,
4312929406,00000130,false,Rx,0,8,0A,80,0C,7D,00,01,0E,5E,
4312929641,00000140,false,Rx,0,8,FF,FF,01,6C,20,00,0E,06,
4312939411,00000130,false,Rx,0,8,07,80,01,7D,00,01,0F,0D,
4312939647,00000140,false,Rx,0,8,FF,FF,01,6C,20,00,0F,1B,
4312949406,00000130,false,Rx,0,8,09,80,17,7D,00,01,00,38,
4312949652,00000140,false,Rx,0,8,FF,FF,01,6C,20,00,00,A0,
4312959419,00000130,false,Rx,0,8,0F,80,23,7D,00,01,01,6C,
4312959666,00000140,false,Rx,0,8,FF,FF,01,6C,20,00,01,BD,
4312969433,00000130,false,Rx,0,8,0C,80,0A,7D,00,01,02,70,
4312969670,00000140,false,Rx,0,8,FF,FF,01,6C,20,00,02,9A,
4312979564,00000130,false,Rx,0,8,0B,80,FD,7C,00,01,03,E6,
4312979809,00000140,false,Rx,0,8,FF,FF,01,6C,20,00,03,87,
4312989401,00000130,false,Rx,0,8,09,80,01,7D,00,01,04,C3,
4312989648,00000140,false,Rx,0,8,FF,FF,01,6C,20,00,04,D4,
4312999406,00000130,false,Rx,0,8,0A,80,0C,7D,00,01,05,91,
4312999653,00000140,false,Rx,0,8,FF,FF,01,6C,20,00,05,C9,
4313009276,00000500,false,Rx,0,1,0C,00,00,00,00,00,00,00,
4313009509,00000130,false,Rx,0,8,08,80,28,7D,00,01,06,78,
4313009749,00000140,false,Rx,0,8,FF,FF,01,6C,20,00,06,EE,
4313009987,00000495,false,Rx,0,8,00,00,12,8A,21,69,2C,64,
4313019412,00000130,false,Rx,0,8,0E,80,22,7D,00,01,07,15,
4313019647,00000140,false,Rx,0,8,FF,FF,01,6C,20,00,07,F3,
18075293,000007D1,false,Tx,1,8,02,27,0D,00,00,00,00,00,
4313029402,00000130,false,Rx,0,8,11,80,F4,7C,00,01,08,E5,
4313029640,00000140,false,Rx,0,8,FF,FF,01,6C,20,00,08,48,
4313039399,00000130,false,Rx,0,8,10,80,E7,7C,00,01,09,F5,
4313039643,00000140,false,Rx,0,8,FF,FF,01,6C,20,00,09,55,
4313049402,00000130,false,Rx,0,8,0B,80,EC,7C,00,01,0A,97,
4313049637,00000140,false,Rx,0,8,FF,FF,01,6C,20,00,0A,72,
4313059407,00000130,false,Rx,0,8,05,80,F6,7C,00,01,0B,C6,
4313059652,00000140,false,Rx,0,8,FF,FF,01,6C,20,00,0B,6F,
4313069412,00000130,false,Rx,0,8,FA,7F,07,7D,00,01,0C,0D,
4313069647,00000140,false,Rx,0,8,FF,FF,01,6C,20,00,0C,3C,
4313079407,00000130,false,Rx,0,8,FF,7F,0C,7D,00,01,0D,ED,
4313079641,00000140,false,Rx,0,8,FF,FF,01,6C,20,00,0D,21,
4313089423,00000130,false,Rx,0,8,0C,80,06,7D,00,01,0E,2E,
4313089658,00000140,false,Rx,0,8,FF,FF,01,6C,20,00,0E,06,
4313099407,00000130,false,Rx,0,8,0E,80,0C,7D,00,01,0F,2A,
4313099641,00000140,false,Rx,0,8,FF,FF,01,6C,20,00,0F,1B,
4313109278,00000500,false,Rx,0,1,0C,00,00,00,00,00,00,00,
4313109520,00000130,false,Rx,0,8,0B,80,10,7D,00,01,00,89,
4313109759,00000140,false,Rx,0,8,FF,FF,01,6C,20,00,00,A0,
4313109997,00000495,false,Rx,0,8,00,00,12,8A,21,69,2C,64,
4313119413,00000130,false,Rx,0,8,0E,80,0E,7D,00,01,01,58,
4313119658,00000140,false,Rx,0,8,FF,FF,01,6C,20,00,01,BD,
4313129396,00000130,false,Rx,0,8,0D,80,18,7D,00,01,02,17,
4313129640,00000140,false,Rx,0,8,FF,FF,01,6C,20,00,02,9A,
4313139402,00000130,false,Rx,0,8,0D,80,12,7D,00,01,03,A9,
4313139636,00000140,false,Rx,0,8,FF,FF,01,6C,20,00,03,87,
18192288,000007D1,false,Tx,1,8,02,27,0F,00,00,00,00,00,
4313149406,00000130,false,Rx,0,8,13,80,11,7D,00,01,04,FC,
4313149651,00000140,false,Rx,0,8,FF,FF,01,6C,20,00,04,D4,
4313159419,00000130,false,Rx,0,8,09,80,03,7D,00,01,05,0A,
4313159654,00000140,false,Rx,0,8,FF,FF,01,6C,20,00,05,C9,
4313169412,00000130,false,Rx,0,8,F6,7F,F8,7C,00,01,06,16,
4313169648,00000140,false,Rx,0,8,FF,FF,01,6C,20,00,06,EE,
4313179562,00000130,false,Rx,0,8,FA,7F,F9,7C,00,01,07,DA,
4313179797,00000140,false,Rx,0,8,FF,FF,01,6C,20,00,07,F3,
4313189401,00000130,false,Rx,0,8,08,80,FC,7C,00,01,08,A4,
4313189647,00000140,false,Rx,0,8,FF,FF,01,6C,20,00,08,48,
4313199406,00000130,false,Rx,0,8,0F,80,03,7D,00,01,09,45,
4313199640,00000140,false,Rx,0,8,FF,FF,01,6C,20,00,09,55,
4313209277,00000500,false,Rx,0,1,0C,00,00,00,00,00,00,00,
4313209520,00000130,false,Rx,0,8,0C,80,03,7D,00,01,0A,85,
4313209749,00000140,false,Rx,0,8,FF,FF,01,6C,20,00,0A,72,
4313209988,00000495,false,Rx,0,8,00,00,12,8A,21,69,2C,64,
4313219411,00000130,false,Rx,0,8,08,80,0B,7D,00,01,0B,86,
4313219646,00000140,false,Rx,0,8,FF,FF,01,6C,20,00,0B,6F,
4313229406,00000130,false,Rx,0,8,FF,7F,12,7D,00,01,0C,08,
4313229651,00000140,false,Rx,0,8,FF,FF,01,6C,20,00,0C,3C,
4313239411,00000130,false,Rx,0,8,14,80,14,7D,00,01,0D,58,
4313239646,00000140,false,Rx,0,8,FF,FF,01,6C,20,00,0D,21,
4313249407,00000130,false,Rx,0,8,27,80,05,7D,00,01,0E,CA,
4313249652,00000140,false,Rx,0,8,FF,FF,01,6C,20,00,0E,06,
4313259423,00000130,false,Rx,0,8,1A,80,18,7D,00,01,0F,A1,
4313259658,00000140,false,Rx,0,8,FF,FF,01,6C,20,00,0F,1B,
4313269407,00000130,false,Rx,0,8,FE,7F,1B,7D,00,01,00,D4,
4313269652,00000140,false,Rx,0,8,FF,FF,01,6C,20,00,00,A0,
18320274,000007D1,false,Tx,1,8,02,27,11,00,00,00,00,00,
4313279411,00000130,false,Rx,0,8,FB,7F,0C,7D,00,01,01,18,
4313279646,00000140,false,Rx,0,8,FF,FF,01,6C,20,00,01,BD,
4313289427,00000130,false,Rx,0,8,00,80,F7,7C,00,01,02,6D,
4313289662,00000140,false,Rx,0,8,FF,FF,01,6C,20,00,02,9A,
4313299411,00000130,false,Rx,0,8,04,80,FC,7C,00,01,03,D0,
4313299657,00000140,false,Rx,0,8,FF,FF,01,6C,20,00,03,87,
4313309281,00000500,false,Rx,0,1,0C,00,00,00,00,00,00,00,
4313309524,00000130,false,Rx,0,8,0E,80,FB,7C,00,01,04,E0,
4313309754,00000140,false,Rx,0,8,FF,FF,01,6C,20,00,04,D4,
4313309992,00000495,false,Rx,0,8,00,00,12,8A,21,69,2C,64,
4313319406,00000130,false,Rx,0,8,09,80,FD,7C,00,01,05,12,
4313319640,00000140,false,Rx,0,8,FF,FF,01,6C,20,00,05,C9,
4313329401,00000130,false,Rx,0,8,03,80,F8,7C,00,01,06,82,
4313329646,00000140,false,Rx,0,8,FF,FF,01,6C,20,00,06,EE,
4313339396,00000130,false,Rx,0,8,0B,80,EF,7C,00,01,07,A8,
4313339642,00000140,false,Rx,0,8,FF,FF,01,6C,20,00,07,F3,
4313349402,00000130,false,Rx,0,8,13,80,FA,7C,00,01,08,49,
4313349637,00000140,false,Rx,0,8,FF,FF,01,6C,20,00,08,48,
4313359417,00000130,false,Rx,0,8,17,80,13,7D,00,01,09,C0,
4313359653,00000140,false,Rx,0,8,FF,FF,01,6C,20,00,09,55,
4313369421,00000130,false,Rx,0,8,0C,80,15,7D,00,01,0A,0A,
4313369658,00000140,false,Rx,0,8,FF,FF,01,6C,20,00,0A,72,
18418249,000007D1,false,Tx,1,8,02,27,13,00,00,00,00,00,
4313379550,00000130,false,Rx,0,8,0F,80,11,7D,00,01,0B,45,
4313379797,00000140,false,Rx,0,8,FF,FF,01,6C,20,00,0B,6F,
4313389399,00000130,false,Rx,0,8,13,80,1B,7D,00,01,0C,B7,
4313389646,00000140,false,Rx,0,8,FF,FF,01,6C,20,00,0C,3C,
4313399423,00000130,false,Rx,0,8,1C,80,1C,7D,00,01,0D,FD,
4313399660,00000140,false,Rx,0,8,FF,FF,01,6C,20,00,0D,21,
4313409272,00000500,false,Rx,0,1,0C,00,00,00,00,00,00,00,
4313409514,00000130,false,Rx,0,8,15,80,0E,7D,00,01,0E,6F,
4313409755,00000140,false,Rx,0,8,FF,FF,01,6C,20,00,0E,06,
4313409983,00000495,false,Rx,0,8,00,00,12,8A,21,69,2C,64,
4313419406,00000130,false,Rx,0,8,09,80,0B,7D,00,01,0F,AF,
4313419641,00000140,false,Rx,0,8,FF,FF,01,6C,20,00,0F,1B,
4313429411,00000130,false,Rx,0,8,08,80,16,7D,00,01,00,0F,
4313429647,00000140,false,Rx,0,8,FF,FF,01,6C,20,00,00,A0,
4313439395,00000130,false,Rx,0,8,15,80,15,7D,00,01,01,F3,
4313439641,00000140,false,Rx,0,8,FF,FF,01,6C,20,00,01,BD,
4313449400,00000130,false,Rx,0,8,0D,80,15,7D,00,01,02,BF,
4313449636,00000140,false,Rx,0,8,FF,FF,01,6C,20,00,02,9A,
4313459405,00000130,false,Rx,0,8,FD,7F,0D,7D,00,01,03,9B,
4313459652,00000140,false,Rx,0,8,FF,FF,01,6C,20,00,03,87,
4313469412,00000130,false,Rx,0,8,05,80,05,7D,00,01,04,CD,
4313469648,00000140,false,Rx,0,8,FF,FF,01,6C,20,00,04,D4,
4313479406,00000130,false,Rx,0,8,06,80,F9,7C,00,01,05,FB,
4313479641,00000140,false,Rx,0,8,FF,FF,01,6C,20,00,05,C9,
4313489420,00000130,false,Rx,0,8,08,80,F9,7C,00,01,06,DD,
4313489666,00000140,false,Rx,0,8,FF,FF,01,6C,20,00,06,EE,
4313499414,00000130,false,Rx,0,8,10,80,0D,7D,00,01,07,10,
4313499649,00000140,false,Rx,0,8,FF,FF,01,6C,20,00,07,F3,
4313509282,00000500,false,Rx,0,1,0C,00,00,00,00,00,00,00,
4313509525,00000130,false,Rx,0,8,0F,80,1B,7D,00,01,08,C1,
4313509765,00000140,false,Rx,0,8,FF,FF,01,6C,20,00,08,48,
4313510003,00000495,false,Rx,0,8,00,00,12,8A,21,69,2C,64,
18561652,000007D1,false,Tx,1,8,02,27,15,00,00,00,00,00,
4313519407,00000130,false,Rx,0,8,16,80,13,7D,00,01,09,9D,
4313519653,00000140,false,Rx,0,8,FF,FF,01,6C,20,00,09,55,
4313529401,00000130,false,Rx,0,8,15,80,07,7D,00,01,0A,06,
4313529647,00000140,false,Rx,0,8,FF,FF,01,6C,20,00,0A,72,
4313539407,00000130,false,Rx,0,8,11,80,00,7D,00,01,0B,79,
4313539653,00000140,false,Rx,0,8,FF,FF,01,6C,20,00,0B,6F,
4313549412,00000130,false,Rx,0,8,0F,80,03,7D,00,01,0C,2C,
4313549647,00000140,false,Rx,0,8,FF,FF,01,6C,20,00,0C,3C,
4313559417,00000130,false,Rx,0,8,0A,80,13,7D,00,01,0D,EB,
4313559652,00000140,false,Rx,0,8,FF,FF,01,6C,20,00,0D,21,
4313569412,00000130,false,Rx,0,8,0E,80,2D,7D,00,01,0E,9C,
4313569658,00000140,false,Rx,0,8,FF,FF,01,6C,20,00,0E,06,
4313579562,00000130,false,Rx,0,8,12,80,38,7D,00,01,0F,B2,
4313579797,00000140,false,Rx,0,8,FF,FF,01,6C,20,00,0F,1B,
4313589402,00000130,false,Rx,0,8,01,80,1F,7D,00,01,00,9D,
4313589647,00000140,false,Rx,0,8,FF,FF,01,6C,20,00,00,A0,
4313599406,00000130,false,Rx,0,8,FF,7F,15,7D,00,01,01,82,
4313599652,00000140,false,Rx,0,8,FF,FF,01,6C,20,00,01,BD,
4313609277,00000500,false,Rx,0,1,0C,00,00,00,00,00,00,00,
4313609509,00000130,false,Rx,0,8,0D,80,2A,7D,00,01,02,EC,
4313609749,00000140,false,Rx,0,8,FF,FF,01,6C,20,00,02,9A,
4313609988,00000495,false,Rx,0,8,00,00,12,8A,21,69,2C,64,
4313619401,00000130,false,Rx,0,8,06,80,31,7D,00,01,03,E3,
4313619647,00000140,false,Rx,0,8,FF,FF,01,6C,20,00,03,87,
18673596,000007D1,false,Tx,1,8,02,27,17,00,00,00,00,00,
4313629406,00000130,false,Rx,0,8,07,80,1A,7D,00,01,04,E5,
4313629640,00000140,false,Rx,0,8,FF,FF,01,6C,20,00,04,D4,
4313639399,00000130,false,Rx,0,8,0A,80,06,7D,00,01,05,32,
4313639633,00000140,false,Rx,0,8,FF,FF,01,6C,20,00,05,C9,
4313649403,00000130,false,Rx,0,8,03,80,07,7D,00,01,06,F0,
4313649637,00000140,false,Rx,0,8,FF,FF,01,6C,20,00,06,EE,
4313659416,00000130,false,Rx,0,8,05,80,03,7D,00,01,07,8B,
4313659652,00000140,false,Rx,0,8,FF,FF,01,6C,20,00,07,F3,
4313669409,00000130,false,Rx,0,8,10,80,07,7D,00,01,08,08,
4313669643,00000140,false,Rx,0,8,FF,FF,01,6C,20,00,08,48,
4313679403,00000130,false,Rx,0,8,17,80,1D,7D,00,01,09,D6,
4313679637,00000140,false,Rx,0,8,FF,FF,01,6C,20,00,09,55,
4313689417,00000130,false,Rx,0,8,18,80,14,7D,00,01,0A,B0,
4313689653,00000140,false,Rx,0,8,FF,FF,01,6C,20,00,0A,72,
4313699401,00000130,false,Rx,0,8,09,80,04,7D,00,01,0B,A7,
4313699647,00000140,false,Rx,0,8,FF,FF,01,6C,20,00,0B,6F,
4313709272,00000500,false,Rx,0,1,0C,00,00,00,00,00,00,00,
4313709514,00000130,false,Rx,0,8,06,80,06,7D,00,01,0C,7C,
4313709754,00000140,false,Rx,0,8,FF,FF,01,6C,20,00,0C,3C,
4313709993,00000495,false,Rx,0,8,00,00,12,8A,21,69,2C,64,
4313719408,00000130,false,Rx,0,8,0F,80,07,7D,00,01,0D,84,
4313719642,00000140,false,Rx,0,8,FF,FF,01,6C,20,00,0D,21,
18774354,000007D1,false,Tx,1,8,02,27,19,00,00,00,00,00,
4313729402,00000130,false,Rx,0,8,19,80,09,7D,00,01,0E,DF,
4313729636,00000140,false,Rx,0,8,FF,FF,01,6C,20,00,0E,06,
4313739396,00000130,false,Rx,0,8,1A,80,0D,7D,00,01,0F,90,
4313739641,00000140,false,Rx,0,8,FF,FF,01,6C,20,00,0F,1B,
4313749401,00000130,false,Rx,0,8,13,80,15,7D,00,01,00,3D,
4313749647,00000140,false,Rx,0,8,FF,FF,01,6C,20,00,00,A0,
4313759407,00000130,false,Rx,0,8,09,80,FF,7C,00,01,01,B2,
4313759652,00000140,false,Rx,0,8,FF,FF,01,6C,20,00,01,BD,
4313769411,00000130,false,Rx,0,8,08,80,ED,7C,00,01,02,F2,
4313769646,00000140,false,Rx,0,8,FF,FF,01,6C,20,00,02,9A,
4313779572,00000130,false,Rx,0,8,0F,80,FD,7C,00,01,03,8F,
4313779808,00000140,false,Rx,0,8,FF,FF,01,6C,20,00,03,87,
4313789401,00000130,false,Rx,0,8,FF,7F,00,7D,00,01,04,DA,
4313789635,00000140,false,Rx,0,8,FF,FF,01,6C,20,00,04,D4,
4313799406,00000130,false,Rx,0,8,FD,7F,06,7D,00,01,05,1C,
4313799640,00000140,false,Rx,0,8,FF,FF,01,6C,20,00,05,C9,
4313809277,00000500,false,Rx,0,1,0C,00,00,00,00,00,00,00,
4313809519,00000130,false,Rx,0,8,07,80,07,7D,00,01,06,99,
4313809749,00000140,false,Rx,0,8,FF,FF,01,6C,20,00,06,EE,
4313809988,00000495,false,Rx,0,8,00,00,12,8A,21,69,2C,64,
4313819413,00000130,false,Rx,0,8,0B,80,FC,7C,00,01,07,F8,
4313819650,00000140,false,Rx,0,8,FF,FF,01,6C,20,00,07,F3,
4313829406,00000130,false,Rx,0,8,08,80,E5,7C,00,01,08,57,
4313829641,00000140,false,Rx,0,8,FF,FF,01,6C,20,00,08,48,
4313839401,00000130,false,Rx,0,8,08,80,E6,7C,00,01,09,F4,
4313839636,00000140,false,Rx,0,8,FF,FF,01,6C,20,00,09,55,
18892944,000007D1,false,Tx,1,8,02,27,1B,00,00,00,00,00,
4313849406,00000130,false,Rx,0,8,0C,80,F0,7C,00,01,0A,35,
4313849641,00000140,false,Rx,0,8,FF,FF,01,6C,20,00,0A,72,
4313859411,00000130,false,Rx,0,8,0E,80,F5,7C,00,01,0B,4D,
4313859658,00000140,false,Rx,0,8,FF,FF,01,6C,20,00,0B,6F,
4313869405,00000130,false,Rx,0,8,0A,80,F3,7C,00,01,0C,16,
4313869652,00000140,false,Rx,0,8,FF,FF,01,6C,20,00,0C,3C,
4313879411,00000130,false,Rx,0,8,0C,80,06,7D,00,01,0D,09,
4313879647,00000140,false,Rx,0,8,FF,FF,01,6C,20,00,0D,21,
4313889425,00000130,false,Rx,0,8,12,80,0B,7D,00,01,0E,3E,
4313889661,00000140,false,Rx,0,8,FF,FF,01,6C,20,00,0E,06,
4313899428,00000130,false,Rx,0,8,11,80,09,7D,00,01,0F,10,
4313899665,00000140,false,Rx,0,8,FF,FF,01,6C,20,00,0F,1B,
4313909278,00000500,false,Rx,0,1,0C,00,00,00,00,00,00,00,
4313909511,00000130,false,Rx,0,8,0D,80,0F,7D,00,01,00,C8,
4313909545,000005A0,false,Rx,1,8,00,00,00,C0,24,02,91,0C,
4313909762,00000140,false,Rx,0,8,FF,FF,01,6C,20,00,00,A0,
4313909990,00000495,false,Rx,0,8,00,00,12,8A,21,69,2C,64,
4313919406,00000130,false,Rx,0,8,08,80,09,7D,00,01,01,80,
4313919653,00000140,false,Rx,0,8,FF,FF,01,6C,20,00,01,BD,
4313929400,00000130,false,Rx,0,8,02,80,00,7D,00,01,02,D2,
4313929635,00000140,false,Rx,0,8,FF,FF,01,6C,20,00,02,9A,
4313939392,00000130,false,Rx,0,8,FE,7F,0F,7D,00,01,03,A8,
4313939638,00000140,false,Rx,0,8,FF,FF,01,6C,20,00,03,87,
18994040,000007D1,false,Tx,1,8,02,27,1D,00,00,00,00,00,
4313949396,00000130,false,Rx,0,8,0E,80,FF,7C,00,01,04,55,
4313949641,00000140,false,Rx,0,8,FF,FF,01,6C,20,00,04,D4,
4313959411,00000130,false,Rx,0,8,12,80,F3,7C,00,01,05,88,
4313959647,00000140,false,Rx,0,8,FF,FF,01,6C,20,00,05,C9,
4313969418,00000130,false,Rx,0,8,14,80,FE,7C,00,01,06,D4,
4313969653,00000140,false,Rx,0,8,FF,FF,01,6C,20,00,06,EE,
4313979557,00000130,false,Rx,0,8,12,80,0F,7D,00,01,07,7E,
4313979792,00000140,false,Rx,0,8,FF,FF,01,6C,20,00,07,F3,
4313989397,00000130,false,Rx,0,8,0B,80,20,7D,00,01,08,4E,
4313989641,00000140,false,Rx,0,8,FF,FF,01,6C,20,00,08,48,
4313999391,00000130,false,Rx,0,8,FB,7F,08,7D,00,01,09,45,
4313999636,00000140,false,Rx,0,8,FF,FF,01,6C,20,00,09,55,
4314009271,00000500,false,Rx,0,1,0C,00,00,00,00,00,00,00,
4314009505,00000130,false,Rx,0,8,FC,7F,03,7D,00,01,0A,25,
4314009744,00000140,false,Rx,0,8,FF,FF,01,6C,20,00,0A,72,
4314009982,00000495,false,Rx,0,8,00,00,12,8A,21,69,2C,64,
4314019397,00000130,false,Rx,0,8,02,80,12,7D,00,01,0B,1D,
4314019641,00000140,false,Rx,0,8,FF,FF,01,6C,20,00,0B,6F,
4314029391,00000130,false,Rx,0,8,FD,7F,03,7D,00,01,0C,36,
4314029636,00000140,false,Rx,0,8,FF,FF,01,6C,20,00,0C,3C,
4314039397,00000130,false,Rx,0,8,00,80,13,7D,00,01,0D,83,
4314039641,00000140,false,Rx,0,8,FF,FF,01,6C,20,00,0D,21,
4314049402,00000130,false,Rx,0,8,04,80,1D,7D,00,01,0E,DB,
4314049636,00000140,false,Rx,0,8,FF,FF,01,6C,20,00,0E,06,
19105558,000007D1,false,Tx,1,8,02,27,1F,00,00,00,00,00,
4314059496,00000130,false,Rx,0,8,0D,80,21,7D,00,01,0F,A4,
4314059649,00000140,false,Rx,0,8,FF,FF,01,6C,20,00,0F,1B,
4314069412,00000130,false,Rx,0,8,0F,80,0B,7D,00,01,00,C7,
4314069657,00000140,false,Rx,0,8,FF,FF,01,6C,20,00,00,A0,
4314079406,00000130,false,Rx,0,8,0C,80,FA,7C,00,01,01,59,
4314079640,00000140,false,Rx,0,8,FF,FF,01,6C,20,00,01,BD,
4314089422,00000130,false,Rx,0,8,10,80,FB,7C,00,01,02,16,
4314089657,00000140,false,Rx,0,8,FF,FF,01,6C,20,00,02,9A,
4314099406,00000130,false,Rx,0,8,14,80,00,7D,00,01,03,A5,
4314099651,00000140,false,Rx,0,8,FF,FF,01,6C,20,00,03,87,
4314109275,00000500,false,Rx,0,1,0C,00,00,00,00,00,00,00,
4314109517,00000130,false,Rx,0,8,1A,80,00,7D,00,01,04,F7,
4314109757,00000140,false,Rx,0,8,FF,FF,01,6C,20,00,04,D4,
4314109996,00000495,false,Rx,0,8,00,00,12,8A,21,69,2C,64,
4314119419,00000130,false,Rx,0,8,18,80,10,7D,00,01,05,BE,
4314119654,00000140,false,Rx,0,8,FF,FF,01,6C,20,00,05,C9,
4314129402,00000130,false,Rx,0,8,0D,80,18,7D,00,01,06,63,
4314129636,00000140,false,Rx,0,8,FF,FF,01,6C,20,00,06,EE,
4314139407,00000130,false,Rx,0,8,06,80,12,7D,00,01,07,E8,
4314139641,00000140,false,Rx,0,8,FF,FF,01,6C,20,00,07,F3,
4314149402,00000130,false,Rx,0,8,FB,7F,0A,7D,00,01,08,8C,
4314149636,00000140,false,Rx,0,8,FF,FF,01,6C,20,00,08,48,
4314159417,00000130,false,Rx,0,8,01,80,11,7D,00,01,09,7E,
4314159652,00000140,false,Rx,0,8,FF,FF,01,6C,20,00,09,55,
4314169412,00000130,false,Rx,0,8,0C,80,10,7D,00,01,0A,D5,
