Time Stamp,ID,Extended,Dir,Bus,LEN,D1,D2,D3,D4,D5,D6,D7,D8
5177322,00000500,false,Rx,0,1,0C,00,00,00,00,00,00,00,
5177566,00000130,false,Rx,0,8,17,80,34,7D,00,01,06,B1,
5177804,00000140,false,Rx,0,8,FF,FF,01,6A,20,00,06,87,
5178043,00000495,false,Rx,0,8,00,00,12,8A,21,69,2C,64,
5187458,00000130,false,Rx,0,8,17,80,2C,7D,00,01,07,35,
5187692,00000140,false,Rx,0,8,FF,FF,01,6A,20,00,07,9A,
5197453,00000130,false,Rx,0,8,11,80,18,7D,00,01,08,C7,
5197697,00000140,false,Rx,0,8,FF,FF,01,6A,20,00,08,21,
5207448,00000130,false,Rx,0,8,0E,80,19,7D,00,01,09,55,
5207692,00000140,false,Rx,0,8,FF,FF,01,6A,20,00,09,3C,
5217452,00000130,false,Rx,0,8,0C,80,28,7D,00,01,0A,8D,
5217686,00000140,false,Rx,0,8,FF,FF,01,6A,20,00,0A,1B,
5227458,00000130,false,Rx,0,8,10,80,23,7D,00,01,0B,5B,
5227702,00000140,false,Rx,0,8,FF,FF,01,6A,20,00,0B,06,
5237453,00000130,false,Rx,0,8,FF,7F,27,7D,00,01,0C,F8,
5237697,00000140,false,Rx,0,8,FF,FF,01,6A,20,00,0C,55,
5247448,00000130,false,Rx,0,8,03,80,2F,7D,00,01,0D,89,
5247682,00000140,false,Rx,0,8,FF,FF,01,6A,20,00,0D,48,
5257473,00000130,false,Rx,0,8,0C,80,24,7D,00,01,0E,3B,
5257708,00000140,false,Rx,0,8,FF,FF,01,6A,20,00,0E,6F,
5267458,00000130,false,Rx,0,8,0B,80,19,7D,00,01,0F,2F,
5267693,00000140,false,Rx,0,8,FF,FF,01,6A,20,00,0F,72,
5277327,00000500,false,Rx,0,1,0C,00,00,00,00,00,00,00,
5277571,00000130,false,Rx,0,8,01,80,09,7D,00,01,00,12,
5277810,00000140,false,Rx,0,8,FF,FF,01,6A,20,00,00,C9,
5278038,00000495,false,Rx,0,8,00,00,12,8A,21,69,2C,64,
5287453,00000130,false,Rx,0,8,01,80,0D,7D,00,01,01,BA,
5287698,00000140,false,Rx,0,8,FF,FF,01,6A,20,00,01,D4,
5297447,00000130,false,Rx,0,8,0A,80,1D,7D,00,01,02,46,
5297693,00000140,false,Rx,0,8,FF,FF,01,6A,20,00,02,F3,
5307452,00000130,false,Rx,0,8,17,80,15,7D,00,01,03,73,
5307688,00000140,false,Rx,0,8,FF,FF,01,6A,20,00,03,EE,
5317447,00000130,false,Rx,0,8,21,80,05,7D,00,01,04,CB,
5317693,00000140,false,Rx,0,8,FF,FF,01,6A,20,00,04,BD,
5327453,00000130,false,Rx,0,8,1A,80,FC,7C,00,01,05,26,
5327698,00000140,false,Rx,0,8,FF,FF,01,6A,20,00,05,A0,
5337519,00000130,false,Rx,0,8,17,80,F5,7C,00,01,06,FA,
5337755,00000140,false,Rx,0,8,FF,FF,01,6A,20,00,06,87,
5347453,00000130,false,Rx,0,8,12,80,03,7D,00,01,07,BC,
5347698,00000140,false,Rx,0,8,FF,FF,01,6A,20,00,07,9A,
5357457,00000130,false,Rx,0,8,0A,80,18,7D,00,01,08,4B,
5357693,00000140,false,Rx,0,8,FF,FF,01,6A,20,00,08,21,
5367463,00000130,false,Rx,0,8,04,80,18,7D,00,01,09,57,
5367709,00000140,false,Rx,0,8,FF,FF,01,6A,20,00,09,3C,
5377322,00000500,false,Rx,0,1,0C,00,00,00,00,00,00,00,
5377556,00000130,false,Rx,0,8,0E,80,FA,7C,00,01,0A,2C,
5377794,00000140,false,Rx,0,8,FF,FF,01,6A,20,00,0A,1B,
5378032,00000495,false,Rx,0,8,00,00,12,8A,21,69,2C,64,
5387447,00000130,false,Rx,0,8,16,80,F7,7C,00,01,0B,F2,
5387693,00000140,false,Rx,0,8,FF,FF,01,6A,20,00,0B,06,
5397442,00000130,false,Rx,0,8,15,80,12,7D,00,01,0C,79,
5397688,00000140,false,Rx,0,8,FF,FF,01,6A,20,00,0C,55,
5407448,00000130,false,Rx,0,8,15,80,10,7D,00,01,0D,B0,
5407683,00000140,false,Rx,0,8,FF,FF,01,6A,20,00,0D,48,
5417454,00000130,false,Rx,0,8,1D,80,12,7D,00,01,0E,91,
5417688,00000140,false,Rx,0,8,FF,FF,01,6A,20,00,0E,6F,
5427459,00000130,false,Rx,0,8,19,80,1E,7D,00,01,0F,27,
5427693,00000140,false,Rx,0,8,FF,FF,01,6A,20,00,0F,72,
5437454,00000130,false,Rx,0,8,0D,80,25,7D,00,01,00,AA,
5437698,00000140,false,Rx,0,8,FF,FF,01,6A,20,00,00,C9,
5447459,00000130,false,Rx,0,8,0F,80,1B,7D,00,01,01,34,
5447693,00000140,false,Rx,0,8,FF,FF,01,6A,20,00,01,D4,
5457485,00000130,false,Rx,0,8,0E,80,15,7D,00,01,02,58,
5457719,00000140,false,Rx,0,8,FF,FF,01,6A,20,00,02,F3,
5467459,00000130,false,Rx,0,8,08,80,23,7D,00,01,03,D8,
5467693,00000140,false,Rx,0,8,FF,FF,01,6A,20,00,03,EE,
5477327,00000500,false,Rx,0,1,0C,00,00,00,00,00,00,00,
5477572,00000130,false,Rx,0,8,08,80,18,7D,00,01,04,6D,
5477810,00000140,false,Rx,0,8,FF,FF,01,6A,20,00,04,BD,
5478048,00000495,false,Rx,0,8,00,00,12,8A,21,69,2C,64,
5487464,00000130,false,Rx,0,8,00,80,0B,7D,00,01,05,F2,
5487698,00000140,false,Rx,0,8,FF,FF,01,6A,20,00,05,A0,
5497459,00000130,false,Rx,0,8,05,80,12,7D,00,01,06,12,
5497704,00000140,false,Rx,0,8,FF,FF,01,6A,20,00,06,87,
5507453,00000130,false,Rx,0,8,02,80,1E,7D,00,01,07,43,
5507697,00000140,false,Rx,0,8,FF,FF,01,6A,20,00,07,9A,
5517449,00000130,false,Rx,0,8,FB,7F,0F,7D,00,01,08,53,
5517683,00000140,false,Rx,0,8,FF,FF,01,6A,20,00,08,21,
5527453,00000130,false,Rx,0,8,F9,7F,00,7D,00,01,09,88,
5527698,00000140,false,Rx,0,8,FF,FF,01,6A,20,00,09,3C,
5537593,00000130,false,Rx,0,8,08,80,13,7D,00,01,0A,02,
5537838,00000140,false,Rx,0,8,FF,FF,01,6A,20,00,0A,1B,
5547454,00000130,false,Rx,0,8,0E,80,14,7D,00,01,0B,C7,
5547688,00000140,false,Rx,0,8,FF,FF,01,6A,20,00,0B,06,
5557458,00000130,false,Rx,0,8,01,80,0D,7D,00,01,0C,3B,
5557692,00000140,false,Rx,0,8,FF,FF,01,6A,20,00,0C,55,
5567453,00000130,false,Rx,0,8,01,80,0D,7D,00,01,0D,26,
5567687,00000140,false,Rx,0,8,FF,FF,01,6A,20,00,0D,48,
5577312,00000500,false,Rx,0,1,0C,00,00,00,00,00,00,00,
5577556,00000130,false,Rx,0,8,12,80,1A,7D,00,01,0E,BA,
5577794,00000140,false,Rx,0,8,FF,FF,01,6A,20,00,0E,6F,
5578033,00000495,false,Rx,0,8,00,00,12,8A,21,69,2C,64,
5587448,00000130,false,Rx,0,8,19,80,1F,7D,00,01,0F,4D,
5587692,00000140,false,Rx,0,8,FF,FF,01,6A,20,00,0F,72,
5597453,00000130,false,Rx,0,8,02,80,1E,7D,00,01,00,10,
5597697,00000140,false,Rx,0,8,FF,FF,01,6A,20,00,00,C9,
5607447,00000130,false,Rx,0,8,F9,7F,14,7D,00,01,01,3B,
5607681,00000140,false,Rx,0,8,FF,FF,01,6A,20,00,01,D4,
5617442,00000130,false,Rx,0,8,09,80,0E,7D,00,01,02,F1,
5617686,00000140,false,Rx,0,8,FF,FF,01,6A,20,00,02,F3,
5627458,00000130,false,Rx,0,8,11,80,14,7D,00,01,03,CA,
5627692,00000140,false,Rx,0,8,FF,FF,01,6A,20,00,03,EE,
5637453,00000130,false,Rx,0,8,09,80,13,7D,00,01,04,F9,
5637687,00000140,false,Rx,0,8,FF,FF,01,6A,20,00,04,BD,
5647458,00000130,false,Rx,0,8,08,80,18,7D,00,01,05,70,
5647692,00000140,false,Rx,0,8,FF,FF,01,6A,20,00,05,A0,
5657473,00000130,false,Rx,0,8,09,80,2C,7D,00,01,06,90,
5657708,00000140,false,Rx,0,8,FF,FF,01,6A,20,00,06,87,
5667458,00000130,false,Rx,0,8,08,80,30,7D,00,01,07,FC,
5667692,00000140,false,Rx,0,8,FF,FF,01,6A,20,00,07,9A,
5677317,00000500,false,Rx,0,1,0C,00,00,00,00,00,00,00,
5677561,00000130,false,Rx,0,8,0B,80,30,7D,00,01,08,A0,
5677811,00000140,false,Rx,0,8,FF,FF,01,6A,20,00,08,21,
5678038,00000495,false,Rx,0,8,00,00,12,8A,21,69,2C,64,
5687452,00000130,false,Rx,0,8,0C,80,18,7D,00,01,09,85,
5687686,00000140,false,Rx,0,8,FF,FF,01,6A,20,00,09,3C,
5697447,00000130,false,Rx,0,8,14,80,09,7D,00,01,0A,4D,
5697692,00000140,false,Rx,0,8,FF,FF,01,6A,20,00,0A,1B,
5707442,00000130,false,Rx,0,8,15,80,18,7D,00,01,0B,89,
5707687,00000140,false,Rx,0,8,FF,FF,01,6A,20,00,0B,06,
5717448,00000130,false,Rx,0,8,12,80,28,7D,00,01,0C,7B,
5717682,00000140,false,Rx,0,8,FF,FF,01,6A,20,00,0C,55,
5727453,00000130,false,Rx,0,8,13,80,22,7D,00,01,0D,98,
5727687,00000140,false,Rx,0,8,FF,FF,01,6A,20,00,0D,48,
5737593,00000130,false,Rx,0,8,1B,80,13,7D,00,01,0E,28,
5737838,00000140,false,Rx,0,8,FF,FF,01,6A,20,00,0E,6F,
5747453,00000130,false,Rx,0,8,13,80,17,7D,00,01,0F,52,
5747698,00000140,false,Rx,0,8,FF,FF,01,6A,20,00,0F,72,
5757459,00000130,false,Rx,0,8,0F,80,0D,7D,00,01,00,A6,
5757704,00000140,false,Rx,0,8,FF,FF,01,6A,20,00,00,C9,
5767462,00000130,false,Rx,0,8,15,80,0C,7D,00,01,01,00,
5767708,00000140,false,Rx,0,8,FF,FF,01,6A,20,00,01,D4,
5777322,00000500,false,Rx,0,1,0C,00,00,00,00,00,00,00,
5777566,00000130,false,Rx,0,8,1C,80,14,7D,00,01,02,31,
5777805,00000140,false,Rx,0,8,FF,FF,01,6A,20,00,02,F3,
5778033,00000495,false,Rx,0,8,00,00,12,8A,21,69,2C,64,
5787458,00000130,false,Rx,0,8,1D,80,10,7D,00,01,03,C4,
5787693,00000140,false,Rx,0,8,FF,FF,01,6A,20,00,03,EE,
5797453,00000130,false,Rx,0,8,17,80,0E,7D,00,01,04,07,
5797689,00000140,false,Rx,0,8,FF,FF,01,6A,20,00,04,BD,
5807447,00000130,false,Rx,0,8,0B,80,15,7D,00,01,05,3F,
5807693,00000140,false,Rx,0,8,FF,FF,01,6A,20,00,05,A0,
5817452,00000130,false,Rx,0,8,00,80,1B,7D,00,01,06,3B,
5817687,00000140,false,Rx,0,8,FF,FF,01,6A,20,00,06,87,
5827458,00000130,false,Rx,0,8,FB,7F,25,7D,00,01,07,8A,
5827693,00000140,false,Rx,0,8,FF,FF,01,6A,20,00,07,9A,
5837453,00000130,false,Rx,0,8,F9,7F,1C,7D,00,01,08,B9,
5837688,00000140,false,Rx,0,8,FF,FF,01,6A,20,00,08,21,
5847437,00000130,false,Rx,0,8,F5,7F,2E,7D,00,01,09,E4,
5847682,00000140,false,Rx,0,8,FF,FF,01,6A,20,00,09,3C,
5857473,00000130,false,Rx,0,8,FC,7F,3F,7D,00,01,0A,C8,
5857709,00000140,false,Rx,0,8,FF,FF,01,6A,20,00,0A,1B,
5867468,00000130,false,Rx,0,8,01,80,2C,7D,00,01,0B,C3,
5867714,00000140,false,Rx,0,8,FF,FF,01,6A,20,00,0B,06,
5877317,00000500,false,Rx,0,1,0C,00,00,00,00,00,00,00,
5877562,00000130,false,Rx,0,8,04,80,1D,7D,00,01,0C,E1,
5877596,000005A0,false,Rx,1,8,00,00,00,C0,20,48,97,0C,
5877801,00000140,false,Rx,0,8,FF,FF,01,6A,20,00,0C,55,
5878040,00000495,false,Rx,0,8,00,00,12,8A,21,69,2C,64,
5887446,00000130,false,Rx,0,8,08,80,04,7D,00,01,0D,B4,
5887681,00000140,false,Rx,0,8,FF,FF,01,6A,20,00,0D,48,
5897450,00000130,false,Rx,0,8,0E,80,07,7D,00,01,0E,FE,
5897684,00000140,false,Rx,0,8,FF,FF,01,6A,20,00,0E,6F,
5907443,00000130,false,Rx,0,8,11,80,17,7D,00,01,0F,E8,
5907688,00000140,false,Rx,0,8,FF,FF,01,6A,20,00,0F,72,
5917448,00000130,false,Rx,0,8,0F,80,10,7D,00,01,00,E0,
5917693,00000140,false,Rx,0,8,FF,FF,01,6A,20,00,00,C9,
5927453,00000130,false,Rx,0,8,0C,80,07,7D,00,01,01,FF,
5927697,00000140,false,Rx,0,8,FF,FF,01,6A,20,00,01,D4,
5937510,00000130,false,Rx,0,8,02,80,08,7D,00,01,02,A5,
5937755,00000140,false,Rx,0,8,FF,FF,01,6A,20,00,02,F3,
5947443,00000130,false,Rx,0,8,FE,7F,15,7D,00,01,03,E5,
5947687,00000140,false,Rx,0,8,FF,FF,01,6A,20,00,03,EE,
5957449,00000130,false,Rx,0,8,09,80,1B,7D,00,01,04,8E,
5957693,00000140,false,Rx,0,8,FF,FF,01,6A,20,00,04,BD,
5967453,00000130,false,Rx,0,8,12,80,10,7D,00,01,05,D6,
5967688,00000140,false,Rx,0,8,FF,FF,01,6A,20,00,05,A0,
5977313,00000500,false,Rx,0,1,0C,00,00,00,00,00,00,00,
5977557,00000130,false,Rx,0,8,14,80,1A,7D,00,01,06,81,
5977795,00000140,false,Rx,0,8,FF,FF,01,6A,20,00,06,87,
5978033,00000495,false,Rx,0,8,00,00,12,8A,21,69,2C,64,
5987448,00000130,false,Rx,0,8,11,80,0F,7D,00,01,07,99,
5987692,00000140,false,Rx,0,8,FF,FF,01,6A,20,00,07,9A,
5997443,00000130,false,Rx,0,8,06,80,19,7D,00,01,08,9A,
5997687,00000140,false,Rx,0,8,FF,FF,01,6A,20,00,08,21,
6007439,00000130,false,Rx,0,8,04,80,30,7D,00,01,09,E1,
6007683,00000140,false,Rx,0,8,FF,FF,01,6A,20,00,09,3C,
6017443,00000130,false,Rx,0,8,0F,80,40,7D,00,01,0A,43,
6017687,00000140,false,Rx,0,8,FF,FF,01,6A,20,00,0A,1B,
6027459,00000130,false,Rx,0,8,15,80,3B,7D,00,01,0B,F6,
6027693,00000140,false,Rx,0,8,FF,FF,01,6A,20,00,0B,06,
6037454,00000130,false,Rx,0,8,0C,80,2F,7D,00,01,0C,C8,
6037698,00000140,false,Rx,0,8,FF,FF,01,6A,20,00,0C,55,
6047448,00000130,false,Rx,0,8,0E,80,25,7D,00,01,0D,CC,
6047682,00000140,false,Rx,0,8,FF,FF,01,6A,20,00,0D,48,
6057474,00000130,false,Rx,0,8,13,80,1F,7D,00,01,0E,38,
6057718,00000140,false,Rx,0,8,FF,FF,01,6A,20,00,0E,6F,
6067448,00000130,false,Rx,0,8,09,80,27,7D,00,01,0F,AC,
6067692,00000140,false,Rx,0,8,FF,FF,01,6A,20,00,0F,72,
6077328,00000500,false,Rx,0,1,0C,00,00,00,00,00,00,00,
6077561,00000130,false,Rx,0,8,05,80,2B,7D,00,01,00,6E,
6077799,00000140,false,Rx,0,8,FF,FF,01,6A,20,00,00,C9,
6078039,00000495,false,Rx,0,8,00,00,12,8A,21,69,2C,64,
6087453,00000130,false,Rx,0,8,09,80,2E,7D,00,01,01,17,
6087698,00000140,false,Rx,0,8,FF,FF,01,6A,20,00,01,D4,
6097448,00000130,false,Rx,0,8,03,80,2C,7D,00,01,02,8C,
6097682,00000140,false,Rx,0,8,FF,FF,01,6A,20,00,02,F3,
6107443,00000130,false,Rx,0,8,02,80,2A,7D,00,01,03,AD,
6107687,00000140,false,Rx,0,8,FF,FF,01,6A,20,00,03,EE,
6117448,00000130,false,Rx,0,8,02,80,13,7D,00,01,04,CC,
6117682,00000140,false,Rx,0,8,FF,FF,01,6A,20,00,04,BD,
6127452,00000130,false,Rx,0,8,02,80,FD,7C,00,01,05,27,
6127697,00000140,false,Rx,0,8,FF,FF,01,6A,20,00,05,A0,
6137592,00000130,false,Rx,0,8,03,80,0E,7D,00,01,06,ED,
6137827,00000140,false,Rx,0,8,FF,FF,01,6A,20,00,06,87,
6147453,00000130,false,Rx,0,8,07,80,1B,7D,00,01,07,A8,
6147687,00000140,false,Rx,0,8,FF,FF,01,6A,20,00,07,9A,
6157446,00000130,false,Rx,0,8,09,80,20,7D,00,01,08,F4,
6157690,00000140,false,Rx,0,8,FF,FF,01,6A,20,00,08,21,
6167449,00000130,false,Rx,0,8,10,80,0F,7D,00,01,09,62,
6167683,00000140,false,Rx,0,8,FF,FF,01,6A,20,00,09,3C,
6177317,00000500,false,Rx,0,1,0C,00,00,00,00,00,00,00,
6177551,00000130,false,Rx,0,8,13,80,02,7D,00,01,0A,0A,
6177790,00000140,false,Rx,0,8,FF,FF,01,6A,20,00,0A,1B,
6178028,00000495,false,Rx,0,8,00,00,12,8A,21,69,2C,64,
6187443,00000130,false,Rx,0,8,14,80,12,7D,00,01,0B,77,
6187688,00000140,false,Rx,0,8,FF,FF,01,6A,20,00,0B,06,
6197447,00000130,false,Rx,0,8,13,80,11,7D,00,01,0C,14,
6197692,00000140,false,Rx,0,8,FF,FF,01,6A,20,00,0C,55,
6207443,00000130,false,Rx,0,8,16,80,F2,7C,00,01,0D,63,
6207677,00000140,false,Rx,0,8,FF,FF,01,6A,20,00,0D,48,
6217437,00000130,false,Rx,0,8,19,80,E8,7C,00,01,0E,55,
6217681,00000140,false,Rx,0,8,FF,FF,01,6A,20,00,0E,6F,
6227453,00000130,false,Rx,0,8,1E,80,05,7D,00,01,0F,8E,
6227688,00000140,false,Rx,0,8,FF,FF,01,6A,20,00,0F,72,
6237447,00000130,false,Rx,0,8,20,80,25,7D,00,01,00,23,
6237693,00000140,false,Rx,0,8,FF,FF,01,6A,20,00,00,C9,
6247442,00000130,false,Rx,0,8,19,80,31,7D,00,01,01,3C,
6247688,00000140,false,Rx,0,8,FF,FF,01,6A,20,00,01,D4,
6257468,00000130,false,Rx,0,8,14,80,20,7D,00,01,02,79,
6257713,00000140,false,Rx,0,8,FF,FF,01,6A,20,00,02,F3,
6267443,00000130,false,Rx,0,8,14,80,0B,7D,00,01,03,6C,
6267688,00000140,false,Rx,0,8,FF,FF,01,6A,20,00,03,EE,
6277311,00000500,false,Rx,0,1,0C,00,00,00,00,00,00,00,
6277555,00000130,false,Rx,0,8,18,80,0A,7D,00,01,04,EE,
6277794,00000140,false,Rx,0,8,FF,FF,01,6A,20,00,04,BD,
6278032,00000495,false,Rx,0,8,00,00,12,8A,21,69,2C,64,
6287447,00000130,false,Rx,0,8,20,80,1B,7D,00,01,05,73,
6287693,00000140,false,Rx,0,8,FF,FF,01,6A,20,00,05,A0,
6297442,00000130,false,Rx,0,8,1E,80,24,7D,00,01,06,D0,
6297680,00000140,false,Rx,0,8,FF,FF,01,6A,20,00,06,87,
6307457,00000130,false,Rx,0,8,0F,80,19,7D,00,01,07,AE,
6307693,00000140,false,Rx,0,8,FF,FF,01,6A,20,00,07,9A,
6317443,00000130,false,Rx,0,8,08,80,FE,7C,00,01,08,70,
6317688,00000140,false,Rx,0,8,FF,FF,01,6A,20,00,08,21,
6327447,00000130,false,Rx,0,8,08,80,0D,7D,00,01,09,DD,
6327683,00000140,false,Rx,0,8,FF,FF,01,6A,20,00,09,3C,
6337588,00000130,false,Rx,0,8,07,80,1E,7D,00,01,0A,F6,
6337832,00000140,false,Rx,0,8,FF,FF,01,6A,20,00,0A,1B,
6347445,00000130,false,Rx,0,8,06,80,23,7D,00,01,0B,31,
6347680,00000140,false,Rx,0,8,FF,FF,01,6A,20,00,0B,06,
6357449,00000130,false,Rx,0,8,04,80,13,7D,00,01,0C,F7,
6357694,00000140,false,Rx,0,8,FF,FF,01,6A,20,00,0C,55,
6367474,00000130,false,Rx,0,8,09,80,19,7D,00,01,0D,AF,
6367708,00000140,false,Rx,0,8,FF,FF,01,6A,20,00,0D,48,
6377322,00000500,false,Rx,0,1,0C,00,00,00,00,00,00,00,
6377556,00000130,false,Rx,0,8,0D,80,20,7D,00,01,0E,D3,
6377794,00000140,false,Rx,0,8,FF,FF,01,6A,20,00,0E,6F,
6378033,00000495,false,Rx,0,8,00,00,12,8A,21,69,2C,64,
6387448,00000130,false,Rx,0,8,12,80,27,7D,00,01,0F,20,
6387682,00000140,false,Rx,0,8,FF,FF,01,6A,20,00,0F,72,
6397443,00000130,false,Rx,0,8,16,80,28,7D,00,01,00,8E,
6397687,00000140,false,Rx,0,8,FF,FF,01,6A,20,00,00,C9,
6407449,00000130,false,Rx,0,8,04,80,2E,7D,00,01,01,F1,
6407683,00000140,false,Rx,0,8,FF,FF,01,6A,20,00,01,D4,
6417443,00000130,false,Rx,0,8,FD,7F,16,7D,00,01,02,A1,
6417677,00000140,false,Rx,0,8,FF,FF,01,6A,20,00,02,F3,
6427449,00000130,false,Rx,0,8,FE,7F,04,7D,00,01,03,61,
6427693,00000140,false,Rx,0,8,FF,FF,01,6A,20,00,03,EE,
6437453,00000130,false,Rx,0,8,02,80,07,7D,00,01,04,97,
6437687,00000140,false,Rx,0,8,FF,FF,01,6A,20,00,04,BD,
6447449,00000130,false,Rx,0,8,03,80,16,7D,00,01,05,53,
6447683,00000140,false,Rx,0,8,FF,FF,01,6A,20,00,05,A0,
6457463,00000130,false,Rx,0,8,04,80,18,7D,00,01,06,EC,
6457708,00000140,false,Rx,0,8,FF,FF,01,6A,20,00,06,87,
6467448,00000130,false,Rx,0,8,0A,80,0F,7D,00,01,07,15,
6467692,00000140,false,Rx,0,8,FF,FF,01,6A,20,00,07,9A,
6477318,00000500,false,Rx,0,1,0C,00,00,00,00,00,00,00,
6477551,00000130,false,Rx,0,8,13,80,01,7D,00,01,08,8E,
6477789,00000140,false,Rx,0,8,FF,FF,01,6A,20,00,08,21,
6478027,00000495,false,Rx,0,8,00,00,12,8A,21,69,2C,64,
6487443,00000130,false,Rx,0,8,10,80,0D,7D,00,01,09,B6,
6487677,00000140,false,Rx,0,8,FF,FF,01,6A,20,00,09,3C,
6497449,00000130,false,Rx,0,8,11,80,17,7D,00,01,0A,81,
6497683,00000140,false,Rx,0,8,FF,FF,01,6A,20,00,0A,1B,
6507443,00000130,false,Rx,0,8,1B,80,0E,7D,00,01,0B,07,
6507687,00000140,false,Rx,0,8,FF,FF,01,6A,20,00,0B,06,
6517438,00000130,false,Rx,0,8,19,80,12,7D,00,01,0C,C2,
6517682,00000140,false,Rx,0,8,FF,FF,01,6A,20,00,0C,55,
6527443,00000130,false,Rx,0,8,0B,80,1F,7D,00,01,0D,74,
6527687,00000140,false,Rx,0,8,FF,FF,01,6A,20,00,0D,48,
6537509,00000130,false,Rx,0,8,13,80,1D,7D,00,01,0E,EC,
6537754,00000140,false,Rx,0,8,FF,FF,01,6A,20,00,0E,6F,
6547443,00000130,false,Rx,0,8,14,80,0C,7D,00,01,0F,FB,
6547687,00000140,false,Rx,0,8,FF,FF,01,6A,20,00,0F,72,
6557448,00000130,false,Rx,0,8,11,80,11,7D,00,01,00,32,
6557693,00000140,false,Rx,0,8,FF,FF,01,6A,20,00,00,C9,
6567443,00000130,false,Rx,0,8,14,80,1A,7D,00,01,01,D2,
6567687,00000140,false,Rx,0,8,FF,FF,01,6A,20,00,01,D4,
6577312,00000500,false,Rx,0,1,0C,00,00,00,00,00,00,00,
6577555,00000130,false,Rx,0,8,17,80,17,7D,00,01,02,BA,
6577794,00000140,false,Rx,0,8,FF,FF,01,6A,20,00,02,F3,
6578033,00000495,false,Rx,0,8,00,00,12,8A,21,69,2C,64,
6587448,00000130,false,Rx,0,8,18,80,25,7D,00,01,03,00,
6587682,00000140,false,Rx,0,8,FF,FF,01,6A,20,00,03,EE,
6597442,00000130,false,Rx,0,8,0D,80,2C,7D,00,01,04,C3,
6597676,00000140,false,Rx,0,8,FF,FF,01,6A,20,00,04,BD,
6607437,00000130,false,Rx,0,8,11,80,24,7D,00,01,05,AB,
6607681,00000140,false,Rx,0,8,FF,FF,01,6A,20,00,05,A0,
6617443,00000130,false,Rx,0,8,11,80,0D,7D,00,01,06,50,
6617687,00000140,false,Rx,0,8,FF,FF,01,6A,20,00,06,87,
6627458,00000130,false,Rx,0,8,0C,80,16,7D,00,01,07,35,
6627692,00000140,false,Rx,0,8,FF,FF,01,6A,20,00,07,9A,
6637453,00000130,false,Rx,0,8,0C,80,0F,7D,00,01,08,7D,
6637687,00000140,false,Rx,0,8,FF,FF,01,6A,20,00,08,21,
6647448,00000130,false,Rx,0,8,0D,80,0E,7D,00,01,09,57,
6647682,00000140,false,Rx,0,8,FF,FF,01,6A,20,00,09,3C,
6657473,00000130,false,Rx,0,8,0A,80,20,7D,00,01,0A,29,
6657707,00000140,false,Rx,0,8,FF,FF,01,6A,20,00,0A,1B,
6667447,00000130,false,Rx,0,8,08,80,2D,7D,00,01,0B,26,
6667692,00000140,false,Rx,0,8,FF,FF,01,6A,20,00,0B,06,
6677317,00000500,false,Rx,0,1,0C,00,00,00,00,00,00,00,
6677561,00000130,false,Rx,0,8,0B,80,2C,7D,00,01,0C,F8,
6677800,00000140,false,Rx,0,8,FF,FF,01,6A,20,00,0C,55,
6678038,00000495,false,Rx,0,8,00,00,12,8A,21,69,2C,64,
6687453,00000130,false,Rx,0,8,10,80,1E,7D,00,01,0D,92,
6687687,00000140,false,Rx,0,8,FF,FF,01,6A,20,00,0D,48,
6697437,00000130,false,Rx,0,8,17,80,16,7D,00,01,0E,4C,
6697682,00000140,false,Rx,0,8,FF,FF,01,6A,20,00,0E,6F,
6707442,00000130,false,Rx,0,8,19,80,24,7D,00,01,0F,AB,
6707677,00000140,false,Rx,0,8,FF,FF,01,6A,20,00,0F,72,
6717437,00000130,false,Rx,0,8,16,80,21,7D,00,01,00,93,
6717683,00000140,false,Rx,0,8,FF,FF,01,6A,20,00,00,C9,
6727453,00000130,false,Rx,0,8,1E,80,1D,7D,00,01,01,B1,
6727688,00000140,false,Rx,0,8,FF,FF,01,6A,20,00,01,D4,
6737581,00000130,false,Rx,0,8,22,80,14,7D,00,01,02,E6,
6737827,00000140,false,Rx,0,8,FF,FF,01,6A,20,00,02,F3,
6747442,00000130,false,Rx,0,8,1E,80,08,7D,00,01,03,BA,
6747688,00000140,false,Rx,0,8,FF,FF,01,6A,20,00,03,EE,
6757447,00000130,false,Rx,0,8,17,80,F7,7C,00,01,04,14,
6757682,00000140,false,Rx,0,8,FF,FF,01,6A,20,00,04,BD,
6767442,00000130,false,Rx,0,8,10,80,07,7D,00,01,05,89,
6767688,00000140,false,Rx,0,8,FF,FF,01,6A,20,00,05,A0,
6777312,00000500,false,Rx,0,1,0C,00,00,00,00,00,00,00,
6777545,00000130,false,Rx,0,8,0A,80,22,7D,00,01,06,61,
6777784,00000140,false,Rx,0,8,FF,FF,01,6A,20,00,06,87,
6778022,00000495,false,Rx,0,8,00,00,12,8A,21,69,2C,64,
6787447,00000130,false,Rx,0,8,01,80,2F,7D,00,01,07,E1,
6787682,00000140,false,Rx,0,8,FF,FF,01,6A,20,00,07,9A,
6797432,00000130,false,Rx,0,8,FC,7F,2C,7D,00,01,08,A2,
6797677,00000140,false,Rx,0,8,FF,FF,01,6A,20,00,08,21,
6807437,00000130,false,Rx,0,8,00,80,28,7D,00,01,09,11,
6807672,00000140,false,Rx,0,8,FF,FF,01,6A,20,00,09,3C,
6817431,00000130,false,Rx,0,8,08,80,24,7D,00,01,0A,26,
6817677,00000140,false,Rx,0,8,FF,FF,01,6A,20,00,0A,1B,
6827447,00000130,false,Rx,0,8,08,80,1F,7D,00,01,0B,DD,
6827682,00000140,false,Rx,0,8,FF,FF,01,6A,20,00,0B,06,
6837442,00000130,false,Rx,0,8,14,80,25,7D,00,01,0C,00,
6837688,00000140,false,Rx,0,8,FF,FF,01,6A,20,00,0C,55,
6847447,00000130,false,Rx,0,8,1A,80,28,7D,00,01,0D,B4,
6847683,00000140,false,Rx,0,8,FF,FF,01,6A,20,00,0D,48,
6857464,00000130,false,Rx,0,8,12,80,25,7D,00,01,0E,E9,
6857698,00000140,false,Rx,0,8,FF,FF,01,6A,20,00,0E,6F,
6867469,00000130,false,Rx,0,8,16,80,13,7D,00,01,0F,D3,
6867703,00000140,false,Rx,0,8,FF,FF,01,6A,20,00,0F,72,
6877317,00000500,false,Rx,0,1,0C,00,00,00,00,00,00,00,
6877551,00000130,false,Rx,0,8,10,80,13,7D,00,01,00,BB,
6877585,000005A0,false,Rx,1,8,00,00,00,C0,20,78,93,0C,
6877791,00000140,false,Rx,0,8,FF,FF,01,6A,20,00,00,C9,
6878029,00000495,false,Rx,0,8,00,00,12,8A,21,69,2C,64,
6887446,00000130,false,Rx,0,8,00,80,13,7D,00,01,01,1F,
6887690,00000140,false,Rx,0,8,FF,FF,01,6A,20,00,01,D4,
6897450,00000130,false,Rx,0,8,01,80,0B,7D,00,01,02,FC,
6897684,00000140,false,Rx,0,8,FF,FF,01,6A,20,00,02,F3,
6907443,00000130,false,Rx,0,8,00,80,13,7D,00,01,03,25,
6907677,00000140,false,Rx,0,8,FF,FF,01,6A,20,00,03,EE,
6917438,00000130,false,Rx,0,8,0A,80,19,7D,00,01,04,BD,
6917683,00000140,false,Rx,0,8,FF,FF,01,6A,20,00,04,BD,
6927453,00000130,false,Rx,0,8,0F,80,21,7D,00,01,05,CC,
6927687,00000140,false,Rx,0,8,FF,FF,01,6A,20,00,05,A0,
6937582,00000130,false,Rx,0,8,1C,80,23,7D,00,01,06,61,
6937826,00000140,false,Rx,0,8,FF,FF,01,6A,20,00,06,87,
6947443,00000130,false,Rx,0,8,1E,80,17,7D,00,01,07,5C,
6947687,00000140,false,Rx,0,8,FF,FF,01,6A,20,00,07,9A,
6957448,00000130,false,Rx,0,8,10,80,21,7D,00,01,08,A8,
6957683,00000140,false,Rx,0,8,FF,FF,01,6A,20,00,08,21,
6967443,00000130,false,Rx,0,8,0C,80,2B,7D,00,01,09,14,
6967687,00000140,false,Rx,0,8,FF,FF,01,6A,20,00,09,3C,
6977313,00000500,false,Rx,0,1,0C,00,00,00,00,00,00,00,
6977556,00000130,false,Rx,0,8,0A,80,19,7D,00,01,0A,1B,
6977794,00000140,false,Rx,0,8,FF,FF,01,6A,20,00,0A,1B,
6978023,00000495,false,Rx,0,8,00,00,12,8A,21,69,2C,64,
6987447,00000130,false,Rx,0,8,06,80,11,7D,00,01,0B,CA,
6987681,00000140,false,Rx,0,8,FF,FF,01,6A,20,00,0B,06,
6997443,00000130,false,Rx,0,8,05,80,1E,7D,00,01,0C,02,
6997687,00000140,false,Rx,0,8,FF,FF,01,6A,20,00,0C,55,
7007438,00000130,false,Rx,0,8,08,80,15,7D,00,01,0D,30,
7007682,00000140,false,Rx,0,8,FF,FF,01,6A,20,00,0D,48,
7017443,00000130,false,Rx,0,8,0F,80,19,7D,00,01,0E,5B,
7017687,00000140,false,Rx,0,8,FF,FF,01,6A,20,00,0E,6F,
7027448,00000130,false,Rx,0,8,11,80,29,7D,00,01,0F,D1,
7027682,00000140,false,Rx,0,8,FF,FF,01,6A,20,00,0F,72,
7037443,00000130,false,Rx,0,8,0E,80,38,7D,00,01,00,0B,
7037687,00000140,false,Rx,0,8,FF,FF,01,6A,20,00,00,C9,
7047437,00000130,false,Rx,0,8,0E,80,25,7D,00,01,01,50,
7047681,00000140,false,Rx,0,8,FF,FF,01,6A,20,00,01,D4,
7057463,00000130,false,Rx,0,8,0D,80,1F,7D,00,01,02,1C,
7057708,00000140,false,Rx,0,8,FF,FF,01,6A,20,00,02,F3,
7067448,00000130,false,Rx,0,8,0A,80,1A,7D,00,01,03,50,
7067682,00000140,false,Rx,0,8,FF,FF,01,6A,20,00,03,EE,
7077317,00000500,false,Rx,0,1,0C,00,00,00,00,00,00,00,
7077551,00000130,false,Rx,0,8,0C,80,0F,7D,00,01,04,E1,
7077789,00000140,false,Rx,0,8,FF,FF,01,6A,20,00,04,BD,
7078028,00000495,false,Rx,0,8,00,00,12,8A,21,69,2C,64,
7087442,00000130,false,Rx,0,8,05,80,0C,7D,00,01,05,CD,
7087687,00000140,false,Rx,0,8,FF,FF,01,6A,20,00,05,A0,
7097446,00000130,false,Rx,0,8,00,80,07,7D,00,01,06,17,
7097680,00000140,false,Rx,0,8,FF,FF,01,6A,20,00,06,87,
7107442,00000130,false,Rx,0,8,FF,7F,1C,7D,00,01,07,D1,
7107676,00000140,false,Rx,0,8,FF,FF,01,6A,20,00,07,9A,
7117437,00000130,false,Rx,0,8,02,80,23,7D,00,01,08,7F,
7117682,00000140,false,Rx,0,8,FF,FF,01,6A,20,00,08,21,
7127442,00000130,false,Rx,0,8,0A,80,13,7D,00,01,09,9F,
7127687,00000140,false,Rx,0,8,FF,FF,01,6A,20,00,09,3C,
7137508,00000130,false,Rx,0,8,0F,80,1F,7D,00,01,0A,4E,
7137754,00000140,false,Rx,0,8,FF,FF,01,6A,20,00,0A,1B,
7147440,00000130,false,Rx,0,8,04,80,2D,7D,00,01,0B,9D,
7147674,00000140,false,Rx,0,8,FF,FF,01,6A,20,00,0B,06,
7157433,00000130,false,Rx,0,8,F7,7F,2E,7D,00,01,0C,37,
7157677,00000140,false,Rx,0,8,FF,FF,01,6A,20,00,0C,55,
7167437,00000130,false,Rx,0,8,FB,7F,12,7D,00,01,0D,7C,
7167671,00000140,false,Rx,0,8,FF,FF,01,6A,20,00,0D,48,
7177306,00000500,false,Rx,0,1,0C,00,00,00,00,00,00,00,
7177550,00000130,false,Rx,0,8,08,80,FA,7C,00,01,0E,8B,
7177789,00000140,false,Rx,0,8,FF,FF,01,6A,20,00,0E,6F,
7178017,00000495,false,Rx,0,8,00,00,12,8A,21,69,2C,64,
7187442,00000130,false,Rx,0,8,FF,7F,F4,7C,00,01,0F,AE,
7187677,00000140,false,Rx,0,8,FF,FF,01,6A,20,00,0F,72,
7197437,00000130,false,Rx,0,8,FC,7F,12,7D,00,01,00,73,
7197672,00000140,false,Rx,0,8,FF,FF,01,6A,20,00,00,C9,
7207432,00000130,false,Rx,0,8,0E,80,13,7D,00,01,01,1E,
7207678,00000140,false,Rx,0,8,FF,FF,01,6A,20,00,01,D4,
7217437,00000130,false,Rx,0,8,16,80,05,7D,00,01,02,DD,
7217672,00000140,false,Rx,0,8,FF,FF,01,6A,20,00,02,F3,
7227453,00000130,false,Rx,0,8,09,80,14,7D,00,01,03,A1,
7227688,00000140,false,Rx,0,8,FF,FF,01,6A,20,00,03,EE,
7237447,00000130,false,Rx,0,8,0A,80,13,7D,00,01,04,1E,
7237682,00000140,false,Rx,0,8,FF,FF,01,6A,20,00,04,BD,
7247442,00000130,false,Rx,0,8,14,80,0B,7D,00,01,05,22,
7247687,00000140,false,Rx,0,8,FF,FF,01,6A,20,00,05,A0,
7257468,00000130,false,Rx,0,8,14,80,07,7D,00,01,06,C7,
7257714,00000140,false,Rx,0,8,FF,FF,01,6A,20,00,06,87,
7267442,00000130,false,Rx,0,8,12,80,0A,7D,00,01,07,A1,
7267687,00000140,false,Rx,0,8,FF,FF,01,6A,20,00,07,9A,
7277312,00000500,false,Rx,0,1,0C,00,00,00,00,00,00,00,
7277556,00000130,false,Rx,0,8,15,80,09,7D,00,01,08,2A,
7277794,00000140,false,Rx,0,8,FF,FF,01,6A,20,00,08,21,
7278033,00000495,false,Rx,0,8,00,00,12,8A,21,69,2C,64,
7287447,00000130,false,Rx,0,8,11,80,1C,7D,00,01,09,6F,
7287682,00000140,false,Rx,0,8,FF,FF,01,6A,20,00,09,3C,
7297442,00000130,false,Rx,0,8,12,80,20,7D,00,01,0A,42,
7297677,00000140,false,Rx,0,8,FF,FF,01,6A,20,00,0A,1B,
7307447,00000130,false,Rx,0,8,16,80,1F,7D,00,01,0B,65,
7307682,00000140,false,Rx,0,8,FF,FF,01,6A,20,00,0B,06,
7317442,00000130,false,Rx,0,8,16,80,1C,7D,00,01,0C,88,
7317678,00000140,false,Rx,0,8,FF,FF,01,6A,20,00,0C,55,
7327437,00000130,false,Rx,0,8,07,80,0B,7D,00,01,0D,94,
7327683,00000140,false,Rx,0,8,FF,FF,01,6A,20,00,0D,48,
7337588,00000130,false,Rx,0,8,01,80,02,7D,00,01,0E,7D,
7337822,00000140,false,Rx,0,8,FF,FF,01,6A,20,00,0E,6F,
7347438,00000130,false,Rx,0,8,0E,80,08,7D,00,01,0F,9F,
7347683,00000140,false,Rx,0,8,FF,FF,01,6A,20,00,0F,72,
7357443,00000130,false,Rx,0,8,06,80,1C,7D,00,01,00,AD,
7357687,00000140,false,Rx,0,8,FF,FF,01,6A,20,00,00,C9,
7367449,00000130,false,Rx,0,8,F7,7F,27,7D,00,01,01,AB,
7367693,00000140,false,Rx,0,8,FF,FF,01,6A,20,00,01,D4,
7377306,00000500,false,Rx,0,1,0C,00,00,00,00,00,00,00,
7377551,00000130,false,Rx,0,8,01,80,18,7D,00,01,02,AC,
7377789,00000140,false,Rx,0,8,FF,FF,01,6A,20,00,02,F3,
7378017,00000495,false,Rx,0,8,00,00,12,8A,21,69,2C,64,
7387453,00000130,false,Rx,0,8,08,80,26,7D,00,01,03,07,
7387687,00000140,false,Rx,0,8,FF,FF,01,6A,20,00,03,EE,
7397437,00000130,false,Rx,0,8,08,80,23,7D,00,01,04,8B,
7397671,00000140,false,Rx,0,8,FF,FF,01,6A,20,00,04,BD,
7407433,00000130,false,Rx,0,8,0A,80,0E,7D,00,01,05,45,
7407677,00000140,false,Rx,0,8,FF,FF,01,6A,20,00,05,A0,
7417437,00000130,false,Rx,0,8,0D,80,0B,7D,00,01,06,33,
7417682,00000140,false,Rx,0,8,FF,FF,01,6A,20,00,06,87,
7427443,00000130,false,Rx,0,8,06,80,12,7D,00,01,07,E8,
7427687,00000140,false,Rx,0,8,FF,FF,01,6A,20,00,07,9A,
7437438,00000130,false,Rx,0,8,FF,7F,16,7D,00,01,08,C9,
7437682,00000140,false,Rx,0,8,FF,FF,01,6A,20,00,08,21,
7447432,00000130,false,Rx,0,8,0A,80,21,7D,00,01,09,64,
7447667,00000140,false,Rx,0,8,FF,FF,01,6A,20,00,09,3C,
7457458,00000130,false,Rx,0,8,16,80,26,7D,00,01,0A,4A,
7457693,00000140,false,Rx,0,8,FF,FF,01,6A,20,00,0A,1B,
7467433,00000130,false,Rx,0,8,16,80,22,7D,00,01,0B,E2,
7467677,00000140,false,Rx,0,8,FF,FF,01,6A,20,00,0B,06,
7477312,00000500,false,Rx,0,1,0C,00,00,00,00,00,00,00,
7477545,00000130,false,Rx,0,8,17,80,20,7D,00,01,0C,38,
7477794,00000140,false,Rx,0,8,FF,FF,01,6A,20,00,0C,55,
7478023,00000495,false,Rx,0,8,00,00,12,8A,21,69,2C,64,
7487438,00000130,false,Rx,0,8,15,80,0A,7D,00,01,0D,FD,
7487672,00000140,false,Rx,0,8,FF,FF,01,6A,20,00,0D,48,
7497432,00000130,false,Rx,0,8,10,80,0E,7D,00,01,0E,5B,
7497677,00000140,false,Rx,0,8,FF,FF,01,6A,20,00,0E,6F,
7507427,00000130,false,Rx,0,8,0D,80,2A,7D,00,01,0F,6D,
7507671,00000140,false,Rx,0,8,FF,FF,01,6A,20,00,0F,72,
7517443,00000130,false,Rx,0,8,11,80,28,7D,00,01,00,00,
7517677,00000140,false,Rx,0,8,FF,FF,01,6A,20,00,00,C9,
7527448,00000130,false,Rx,0,8,19,80,0E,7D,00,01,01,6F,
7527692,00000140,false,Rx,0,8,FF,FF,01,6A,20,00,01,D4,
7537588,00000130,false,Rx,0,8,19,80,15,7D,00,01,02,6F,
7537822,00000140,false,Rx,0,8,FF,FF,01,6A,20,00,02,F3,
7547448,00000130,false,Rx,0,8,1D,80,10,7D,00,01,03,C4,
7547682,00000140,false,Rx,0,8,FF,FF,01,6A,20,00,03,EE,
7557442,00000130,false,Rx,0,8,1E,80,0D,7D,00,01,04,36,
7557687,00000140,false,Rx,0,8,FF,FF,01,6A,20,00,04,BD,
7567447,00000130,false,Rx,0,8,19,80,1D,7D,00,01,05,4B,
7567682,00000140,false,Rx,0,8,FF,FF,01,6A,20,00,05,A0,
7577318,00000500,false,Rx,0,1,0C,00,00,00,00,00,00,00,
7577551,00000130,false,Rx,0,8,19,80,0B,7D,00,01,06,E3,
7577790,00000140,false,Rx,0,8,FF,FF,01,6A,20,00,06,87,
7578029,00000495,false,Rx,0,8,00,00,12,8A,21,69,2C,64,
7587442,00000130,false,Rx,0,8,14,80,16,7D,00,01,07,5E,
7587687,00000140,false,Rx,0,8,FF,FF,01,6A,20,00,07,9A,
7597446,00000130,false,Rx,0,8,10,80,18,7D,00,01,08,9A,
7597680,00000140,false,Rx,0,8,FF,FF,01,6A,20,00,08,21,
7607439,00000130,false,Rx,0,8,09,80,14,7D,00,01,09,73,
7607673,00000140,false,Rx,0,8,FF,FF,01,6A,20,00,09,3C,
7617432,00000130,false,Rx,0,8,01,80,22,7D,00,01,0A,C8,
7617676,00000140,false,Rx,0,8,FF,FF,01,6A,20,00,0A,1B,
7627448,00000130,false,Rx,0,8,03,80,30,7D,00,01,0B,55,
7627682,00000140,false,Rx,0,8,FF,FF,01,6A,20,00,0B,06,
7637442,00000130,false,Rx,0,8,08,80,2A,7D,00,01,0C,7E,
7637676,00000140,false,Rx,0,8,FF,FF,01,6A,20,00,0C,55,
7647437,00000130,false,Rx,0,8,0F,80,1A,7D,00,01,0D,C2,
7647671,00000140,false,Rx,0,8,FF,FF,01,6A,20,00,0D,48,
7657463,00000130,false,Rx,0,8,0A,80,0B,7D,00,01,0E,55,
7657709,00000140,false,Rx,0,8,FF,FF,01,6A,20,00,0E,6F,
7667438,00000130,false,Rx,0,8,0C,80,10,7D,00,01,0F,BC,
7667683,00000140,false,Rx,0,8,FF,FF,01,6A,20,00,0F,72,
7677307,00000500,false,Rx,0,1,0C,00,00,00,00,00,00,00,
7677550,00000130,false,Rx,0,8,11,80,17,7D,00,01,00,53,
7677789,00000140,false,Rx,0,8,FF,FF,01,6A,20,00,00,C9,
7678028,00000495,false,Rx,0,8,00,00,12,8A,21,69,2C,64,
7687442,00000130,false,Rx,0,8,10,80,03,7D,00,01,01,48,
7687678,00000140,false,Rx,0,8,FF,FF,01,6A,20,00,01,D4,
7697437,00000130,false,Rx,0,8,0A,80,F2,7C,00,01,02,DA,
7697672,00000140,false,Rx,0,8,FF,FF,01,6A,20,00,02,F3,
7707432,00000130,false,Rx,0,8,0A,80,12,7D,00,01,03,27,
7707678,00000140,false,Rx,0,8,FF,FF,01,6A,20,00,03,EE,
7717427,00000130,false,Rx,0,8,10,80,24,7D,00,01,04,EB,
7717672,00000140,false,Rx,0,8,FF,FF,01,6A,20,00,04,BD,
7727442,00000130,false,Rx,0,8,10,80,0F,7D,00,01,05,FE,
7727688,00000140,false,Rx,0,8,FF,FF,01,6A,20,00,05,A0,
7737509,00000130,false,Rx,0,8,0F,80,FE,7C,00,01,06,58,
7737744,00000140,false,Rx,0,8,FF,FF,01,6A,20,00,06,87,
7747443,00000130,false,Rx,0,8,0B,80,EF,7C,00,01,07,A8,
7747678,00000140,false,Rx,0,8,FF,FF,01,6A,20,00,07,9A,
7757437,00000130,false,Rx,0,8,05,80,01,7D,00,01,08,E4,
7757682,00000140,false,Rx,0,8,FF,FF,01,6A,20,00,08,21,
7767432,00000130,false,Rx,0,8,07,80,11,7D,00,01,09,AD,
7767677,00000140,false,Rx,0,8,FF,FF,01,6A,20,00,09,3C,
7777301,00000500,false,Rx,0,1,0C,00,00,00,00,00,00,00,
7777545,00000130,false,Rx,0,8,0D,80,07,7D,00,01,0A,6D,
7777783,00000140,false,Rx,0,8,FF,FF,01,6A,20,00,0A,1B,
7778011,00000495,false,Rx,0,8,00,00,12,8A,21,69,2C,64,
7787437,00000130,false,Rx,0,8,15,80,17,7D,00,01,0B,F5,
7787673,00000140,false,Rx,0,8,FF,FF,01,6A,20,00,0B,06,
7797432,00000130,false,Rx,0,8,1D,80,30,7D,00,01,0C,BE,
7797678,00000140,false,Rx,0,8,FF,FF,01,6A,20,00,0C,55,
7807427,00000130,false,Rx,0,8,16,80,1D,7D,00,01,0D,FF,
7807672,00000140,false,Rx,0,8,FF,FF,01,6A,20,00,0D,48,
7817433,00000130,false,Rx,0,8,0B,80,11,7D,00,01,0E,45,
7817677,00000140,false,Rx,0,8,FF,FF,01,6A,20,00,0E,6F,
7827448,00000130,false,Rx,0,8,0A,80,0F,7D,00,01,0F,FD,
7827682,00000140,false,Rx,0,8,FF,FF,01,6A,20,00,0F,72,
7837443,00000130,false,Rx,0,8,0E,80,1E,7D,00,01,00,AB,
7837687,00000140,false,Rx,0,8,FF,FF,01,6A,20,00,00,C9,
7847439,00000130,false,Rx,0,8,0C,80,2D,7D,00,01,01,9D,
7847683,00000140,false,Rx,0,8,FF,FF,01,6A,20,00,01,D4,
7857464,00000130,false,Rx,0,8,07,80,27,7D,00,01,02,2C,
7857708,00000140,false,Rx,0,8,FF,FF,01,6A,20,00,02,F3,
7867459,00000130,false,Rx,0,8,06,80,1E,7D,00,01,03,5E,
7867704,00000140,false,Rx,0,8,FF,FF,01,6A,20,00,03,EE,
7877317,00000500,false,Rx,0,1,0C,00,00,00,00,00,00,00,
7877551,00000130,false,Rx,0,8,05,80,2F,7D,00,01,04,AF,
7877595,000005A0,false,Rx,1,8,00,00,00,C0,20,82,93,0C,
7877791,00000140,false,Rx,0,8,FF,FF,01,6A,20,00,04,BD,
7878029,00000495,false,Rx,0,8,00,00,12,8A,21,69,2C,64,
7887439,00000130,false,Rx,0,8,03,80,37,7D,00,01,05,F8,
7887683,00000140,false,Rx,0,8,FF,FF,01,6A,20,00,05,A0,
7897432,00000130,false,Rx,0,8,02,80,2E,7D,00,01,06,71,
7897677,00000140,false,Rx,0,8,FF,FF,01,6A,20,00,06,87,
7907438,00000130,false,Rx,0,8,15,80,1D,7D,00,01,07,CA,
7907682,00000140,false,Rx,0,8,FF,FF,01,6A,20,00,07,9A,
7917433,00000130,false,Rx,0,8,18,80,20,7D,00,01,08,10,
7917677,00000140,false,Rx,0,8,FF,FF,01,6A,20,00,08,21,
7927448,00000130,false,Rx,0,8,0D,80,28,7D,00,01,09,F7,
7927682,00000140,false,Rx,0,8,FF,FF,01,6A,20,00,09,3C,
7937577,00000130,false,Rx,0,8,08,80,1F,7D,00,01,0A,C0,
7937822,00000140,false,Rx,0,8,FF,FF,01,6A,20,00,0A,1B,
7947428,00000130,false,Rx,0,8,0D,80,22,7D,00,01,0B,6E,
7947672,00000140,false,Rx,0,8,FF,FF,01,6A,20,00,0B,06,
7957432,00000130,false,Rx,0,8,1D,80,26,7D,00,01,0C,31,
7957677,00000140,false,Rx,0,8,FF,FF,01,6A,20,00,0C,55,
7967438,00000130,false,Rx,0,8,1C,80,2E,7D,00,01,0D,06,
7967672,00000140,false,Rx,0,8,FF,FF,01,6A,20,00,0D,48,
7977307,00000500,false,Rx,0,1,0C,00,00,00,00,00,00,00,
7977541,00000130,false,Rx,0,8,19,80,34,7D,00,01,0E,58,
7977779,00000140,false,Rx,0,8,FF,FF,01,6A,20,00,0E,6F,
7978018,00000495,false,Rx,0,8,00,00,12,8A,21,69,2C,64,
7987433,00000130,false,Rx,0,8,1B,80,2D,7D,00,01,0F,0C,
7987667,00000140,false,Rx,0,8,FF,FF,01,6A,20,00,0F,72,
7997437,00000130,false,Rx,0,8,17,80,23,7D,00,01,00,1A,
7997671,00000140,false,Rx,0,8,FF,FF,01,6A,20,00,00,C9,
8007432,00000130,false,Rx,0,8,0A,80,1A,7D,00,01,01,6A,
8007677,00000140,false,Rx,0,8,FF,FF,01,6A,20,00,01,D4,
8017427,00000130,false,Rx,0,8,09,80,11,7D,00,01,02,63,
8017671,00000140,false,Rx,0,8,FF,FF,01,6A,20,00,02,F3,
8027442,00000130,false,Rx,0,8,0B,80,16,7D,00,01,03,CF,
8027676,00000140,false,Rx,0,8,FF,FF,01,6A,20,00,03,EE,
8037437,00000130,false,Rx,0,8,08,80,1D,7D,00,01,04,B2,
8037671,00000140,false,Rx,0,8,FF,FF,01,6A,20,00,04,BD,
8047432,00000130,false,Rx,0,8,08,80,11,7D,00,01,05,6D,
8047677,00000140,false,Rx,0,8,FF,FF,01,6A,20,00,05,A0,
8057458,00000130,false,Rx,0,8,0B,80,1E,7D,00,01,06,D1,
8057703,00000140,false,Rx,0,8,FF,FF,01,6A,20,00,06,87,
8067431,00000130,false,Rx,0,8,04,80,2F,7D,00,01,07,D5,
8067676,00000140,false,Rx,0,8,FF,FF,01,6A,20,00,07,9A,
8077302,00000500,false,Rx,0,1,0C,00,00,00,00,00,00,00,
8077545,00000130,false,Rx,0,8,FD,7F,1E,7D,00,01,08,04,
8077783,00000140,false,Rx,0,8,FF,FF,01,6A,20,00,08,21,
8078023,00000495,false,Rx,0,8,00,00,12,8A,21,69,2C,64,
8087438,00000130,false,Rx,0,8,04,80,F8,7C,00,01,09,B7,
8087672,00000140,false,Rx,0,8,FF,FF,01,6A,20,00,09,3C,
8097431,00000130,false,Rx,0,8,10,80,04,7D,00,01,0A,8C,
8097666,00000140,false,Rx,0,8,FF,FF,01,6A,20,00,0A,1B,
8107427,00000130,false,Rx,0,8,0E,80,15,7D,00,01,0B,AD,
8107671,00000140,false,Rx,0,8,FF,FF,01,6A,20,00,0B,06,
8117432,00000130,false,Rx,0,8,04,80,20,7D,00,01,0C,66,
8117676,00000140,false,Rx,0,8,FF,FF,01,6A,20,00,0C,55,
8127437,00000130,false,Rx,0,8,00,80,1E,7D,00,01,0D,2B,
8127682,00000140,false,Rx,0,8,FF,FF,01,6A,20,00,0D,48,
8137587,00000130,false,Rx,0,8,06,80,18,7D,00,01,0E,BE,
8137822,00000140,false,Rx,0,8,FF,FF,01,6A,20,00,0E,6F,
8147447,00000130,false,Rx,0,8,00,80,22,7D,00,01,0F,FC,
8147683,00000140,false,Rx,0,8,FF,FF,01,6A,20,00,0F,72,
8157442,00000130,false,Rx,0,8,FC,7F,1A,7D,00,01,00,04,
8157688,00000140,false,Rx,0,8,FF,FF,01,6A,20,00,00,C9,
8167437,00000130,false,Rx,0,8,FF,7F,1B,7D,00,01,01,94,
8167683,00000140,false,Rx,0,8,FF,FF,01,6A,20,00,01,D4,
8177307,00000500,false,Rx,0,1,0C,00,00,00,00,00,00,00,
8177551,00000130,false,Rx,0,8,05,80,1F,7D,00,01,02,CE,
8177790,00000140,false,Rx,0,8,FF,FF,01,6A,20,00,02,F3,
8178018,00000495,false,Rx,0,8,00,00,12,8A,21,69,2C,64,
8187442,00000130,false,Rx,0,8,14,80,0F,7D,00,01,03,D9,
8187678,00000140,false,Rx,0,8,FF,FF,01,6A,20,00,03,EE,
8197447,00000130,false,Rx,0,8,15,80,FF,7C,00,01,04,D9,
8197683,00000140,false,Rx,0,8,FF,FF,01,6A,20,00,04,BD,
8207432,00000130,false,Rx,0,8,05,80,12,7D,00,01,05,35,
8207677,00000140,false,Rx,0,8,FF,FF,01,6A,20,00,05,A0,
8217437,00000130,false,Rx,0,8,03,80,21,7D,00,01,06,50,
8217672,00000140,false,Rx,0,8,FF,FF,01,6A,20,00,06,87,
8227442,00000130,false,Rx,0,8,09,80,1B,7D,00,01,07,A9,
8227678,00000140,false,Rx,0,8,FF,FF,01,6A,20,00,07,9A,
8237437,00000130,false,Rx,0,8,07,80,1A,7D,00,01,08,79,
8237682,00000140,false,Rx,0,8,FF,FF,01,6A,20,00,08,21,
8247431,00000130,false,Rx,0,8,0F,80,17,7D,00,01,09,1E,
8247667,00000140,false,Rx,0,8,FF,FF,01,6A,20,00,09,3C,
8257458,00000130,false,Rx,0,8,18,80,0D,7D,00,01,0A,43,
8257693,00000140,false,Rx,0,8,FF,FF,01,6A,20,00,0A,1B,
8267432,00000130,false,Rx,0,8,18,80,06,7D,00,01,0B,97,
8267667,00000140,false,Rx,0,8,FF,FF,01,6A,20,00,0B,06,
8277301,00000500,false,Rx,0,1,0C,00,00,00,00,00,00,00,
8277546,00000130,false,Rx,0,8,0F,80,10,7D,00,01,0C,7C,
8277784,00000140,false,Rx,0,8,FF,FF,01,6A,20,00,0C,55,
8278023,00000495,false,Rx,0,8,00,00,12,8A,21,69,2C,64,
8287437,00000130,false,Rx,0,8,10,80,17,7D,00,01,0D,8F,
8287672,00000140,false,Rx,0,8,FF,FF,01,6A,20,00,0D,48,
8297431,00000130,false,Rx,0,8,13,80,1A,7D,00,01,0E,E7,
8297677,00000140,false,Rx,0,8,FF,FF,01,6A,20,00,0E,6F,
8307438,00000130,false,Rx,0,8,0D,80,17,7D,00,01,0F,EA,
8307672,00000140,false,Rx,0,8,FF,FF,01,6A,20,00,0F,72,
8317433,00000130,false,Rx,0,8,13,80,14,7D,00,01,00,57,
8317667,00000140,false,Rx,0,8,FF,FF,01,6A,20,00,00,C9,
8327438,00000130,false,Rx,0,8,11,80,26,7D,00,01,01,0B,
8327673,00000140,false,Rx,0,8,FF,FF,01,6A,20,00,01,D4,
8337495,00000130,false,Rx,0,8,0D,80,28,7D,00,01,02,38,
8337739,00000140,false,Rx,0,8,FF,FF,01,6A,20,00,02,F3,
8347428,00000130,false,Rx,0,8,10,80,26,7D,00,01,03,6C,
8347672,00000140,false,Rx,0,8,FF,FF,01,6A,20,00,03,EE,
8357443,00000130,false,Rx,0,8,0D,80,23,7D,00,01,04,BF,
8357677,00000140,false,Rx,0,8,FF,FF,01,6A,20,00,04,BD,
8367448,00000130,false,Rx,0,8,10,80,1B,7D,00,01,05,A5,
8367692,00000140,false,Rx,0,8,FF,FF,01,6A,20,00,05,A0,
8377295,00000500,false,Rx,0,1,0C,00,00,00,00,00,00,00,
8377540,00000130,false,Rx,0,8,0F,80,19,7D,00,01,06,B3,
8377789,00000140,false,Rx,0,8,FF,FF,01,6A,20,00,06,87,
8378017,00000495,false,Rx,0,8,00,00,12,8A,21,69,2C,64,
8387432,00000130,false,Rx,0,8,0E,80,1D,7D,00,01,07,46,
8387677,00000140,false,Rx,0,8,FF,FF,01,6A,20,00,07,9A,
8397428,00000130,false,Rx,0,8,14,80,1E,7D,00,01,08,92,
8397672,00000140,false,Rx,0,8,FF,FF,01,6A,20,00,08,21,
8407422,00000130,false,Rx,0,8,1A,80,12,7D,00,01,09,4C,
8407667,00000140,false,Rx,0,8,FF,FF,01,6A,20,00,09,3C,
8417438,00000130,false,Rx,0,8,19,80,18,7D,00,01,0A,2F,
8417672,00000140,false,Rx,0,8,FF,FF,01,6A,20,00,0A,1B,
8427433,00000130,false,Rx,0,8,0C,80,19,7D,00,01,0B,D5,
8427677,00000140,false,Rx,0,8,FF,FF,01,6A,20,00,0B,06,
8437438,00000130,false,Rx,0,8,0C,80,0B,7D,00,01,0C,BC,
8437682,00000140,false,Rx,0,8,FF,FF,01,6A,20,00,0C,55,
8447432,00000130,false,Rx,0,8,11,80,03,7D,00,01,0D,89,
8447666,00000140,false,Rx,0,8,FF,FF,01,6A,20,00,0D,48,
8457458,00000130,false,Rx,0,8,14,80,0E,7D,00,01,0E,32,
8457702,00000140,false,Rx,0,8,FF,FF,01,6A,20,00,0E,6F,
8467443,00000130,false,Rx,0,8,10,80,07,7D,00,01,0F,5B,
8467677,00000140,false,Rx,0,8,FF,FF,01,6A,20,00,0F,72,
8477312,00000500,false,Rx,0,1,0C,00,00,00,00,00,00,00,
8477545,00000130,false,Rx,0,8,08,80,0B,7D,00,01,00,49,
8477794,00000140,false,Rx,0,8,FF,FF,01,6A,20,00,00,C9,
8478023,00000495,false,Rx,0,8,00,00,12,8A,21,69,2C,64,
8487437,00000130,false,Rx,0,8,0E,80,19,7D,00,01,01,BD,
8487681,00000140,false,Rx,0,8,FF,FF,01,6A,20,00,01,D4,
8497431,00000130,false,Rx,0,8,0F,80,2A,7D,00,01,02,56,
8497676,00000140,false,Rx,0,8,FF,FF,01,6A,20,00,02,F3,
8507427,00000130,false,Rx,0,8,0C,80,2A,7D,00,01,03,AC,
8507671,00000140,false,Rx,0,8,FF,FF,01,6A,20,00,03,EE,
8517432,00000130,false,Rx,0,8,08,80,27,7D,00,01,04,3E,
8517666,00000140,false,Rx,0,8,FF,FF,01,6A,20,00,04,BD,
8527438,00000130,false,Rx,0,8,07,80,3C,7D,00,01,05,58,
8527672,00000140,false,Rx,0,8,FF,FF,01,6A,20,00,05,A0,
8537577,00000130,false,Rx,0,8,07,80,40,7D,00,01,06,0D,
8537822,00000140,false,Rx,0,8,FF,FF,01,6A,20,00,06,87,
8547437,00000130,false,Rx,0,8,09,80,2C,7D,00,01,07,8D,
8547671,00000140,false,Rx,0,8,FF,FF,01,6A,20,00,07,9A,
8557432,00000130,false,Rx,0,8,15,80,11,7D,00,01,08,B3,
8557677,00000140,false,Rx,0,8,FF,FF,01,6A,20,00,08,21,
8567427,00000130,false,Rx,0,8,08,80,13,7D,00,01,09,25,
8567671,00000140,false,Rx,0,8,FF,FF,01,6A,20,00,09,3C,
8577296,00000500,false,Rx,0,1,0C,00,00,00,00,00,00,00,
8577540,00000130,false,Rx,0,8,01,80,1F,7D,00,01,0A,4F,
8577779,00000140,false,Rx,0,8,FF,FF,01,6A,20,00,0A,1B,
8578018,00000495,false,Rx,0,8,00,00,12,8A,21,69,2C,64,
8587432,00000130,false,Rx,0,8,02,80,1A,7D,00,01,0B,6A,
8587666,00000140,false,Rx,0,8,FF,FF,01,6A,20,00,0B,06,
8597426,00000130,false,Rx,0,8,F9,7F,1A,7D,00,01,0C,AC,
8597671,00000140,false,Rx,0,8,FF,FF,01,6A,20,00,0C,55,
8607422,00000130,false,Rx,0,8,FB,7F,12,7D,00,01,0D,7C,
8607666,00000140,false,Rx,0,8,FF,FF,01,6A,20,00,0D,48,
8617427,00000130,false,Rx,0,8,06,80,F8,7C,00,01,0E,5E,
8617671,00000140,false,Rx,0,8,FF,FF,01,6A,20,00,0E,6F,
8627431,00000130,false,Rx,0,8,10,80,DE,7C,00,01,0F,89,
8627677,00000140,false,Rx,0,8,FF,FF,01,6A,20,00,0F,72,
8637427,00000130,false,Rx,0,8,0D,80,EC,7C,00,01,00,96,
8637673,00000140,false,Rx,0,8,FF,FF,01,6A,20,00,00,C9,
8647431,00000130,false,Rx,0,8,0B,80,F8,7C,00,01,01,03,
8647677,00000140,false,Rx,0,8,FF,FF,01,6A,20,00,01,D4,
8657458,00000130,false,Rx,0,8,0B,80,FC,7C,00,01,02,91,
8657693,00000140,false,Rx,0,8,FF,FF,01,6A,20,00,02,F3,
8667432,00000130,false,Rx,0,8,0C,80,13,7D,00,01,03,9E,
8667677,00000140,false,Rx,0,8,FF,FF,01,6A,20,00,03,EE,
8677301,00000500,false,Rx,0,1,0C,00,00,00,00,00,00,00,
8677544,00000130,false,Rx,0,8,01,80,1A,7D,00,01,04,36,
8677784,00000140,false,Rx,0,8,FF,FF,01,6A,20,00,04,BD,
8678022,00000495,false,Rx,0,8,00,00,12,8A,21,69,2C,64,
8687427,00000130,false,Rx,0,8,F2,7F,14,7D,00,01,05,7A,
8687672,00000140,false,Rx,0,8,FF,FF,01,6A,20,00,05,A0,
8697422,00000130,false,Rx,0,8,F6,7F,1A,7D,00,01,06,22,
8697667,00000140,false,Rx,0,8,FF,FF,01,6A,20,00,06,87,
8707427,00000130,false,Rx,0,8,0B,80,1E,7D,00,01,07,CC,
8707672,00000140,false,Rx,0,8,FF,FF,01,6A,20,00,07,9A,
8717432,00000130,false,Rx,0,8,13,80,24,7D,00,01,08,90,
8717667,00000140,false,Rx,0,8,FF,FF,01,6A,20,00,08,21,
8727437,00000130,false,Rx,0,8,05,80,28,7D,00,01,09,25,
8727672,00000140,false,Rx,0,8,FF,FF,01,6A,20,00,09,3C,
8737588,00000130,false,Rx,0,8,09,80,11,7D,00,01,0A,8B,
8737822,00000140,false,Rx,0,8,FF,FF,01,6A,20,00,0A,1B,
8747437,00000130,false,Rx,0,8,13,80,0A,7D,00,01,0B,60,
8747683,00000140,false,Rx,0,8,FF,FF,01,6A,20,00,0B,06,
8757442,00000130,false,Rx,0,8,0D,80,06,7D,00,01,0C,49,
8757677,00000140,false,Rx,0,8,FF,FF,01,6A,20,00,0C,55,
8767437,00000130,false,Rx,0,8,0A,80,01,7D,00,01,0D,D1,
8767672,00000140,false,Rx,0,8,FF,FF,01,6A,20,00,0D,48,
8777307,00000500,false,Rx,0,1,0C,00,00,00,00,00,00,00,
8777541,00000130,false,Rx,0,8,0A,80,FD,7C,00,01,0E,3A,
8777779,00000140,false,Rx,0,8,FF,FF,01,6A,20,00,0E,6F,
8778018,00000495,false,Rx,0,8,00,00,12,8A,21,69,2C,64,
8787433,00000130,false,Rx,0,8,05,80,11,7D,00,01,0F,59,
8787677,00000140,false,Rx,0,8,FF,FF,01,6A,20,00,0F,72,
8797428,00000130,false,Rx,0,8,05,80,20,7D,00,01,00,A7,
8797672,00000140,false,Rx,0,8,FF,FF,01,6A,20,00,00,C9,
8807432,00000130,false,Rx,0,8,06,80,15,7D,00,01,01,AD,
8807677,00000140,false,Rx,0,8,FF,FF,01,6A,20,00,01,D4,
8817428,00000130,false,Rx,0,8,08,80,0F,7D,00,01,02,C6,
8817662,00000140,false,Rx,0,8,FF,FF,01,6A,20,00,02,F3,
8827443,00000130,false,Rx,0,8,0A,80,17,7D,00,01,03,F8,
8827677,00000140,false,Rx,0,8,FF,FF,01,6A,20,00,03,EE,
8837438,00000130,false,Rx,0,8,13,80,12,7D,00,01,04,42,
8837672,00000140,false,Rx,0,8,FF,FF,01,6A,20,00,04,BD,
8847433,00000130,false,Rx,0,8,17,80,12,7D,00,01,05,36,
8847677,00000140,false,Rx,0,8,FF,FF,01,6A,20,00,05,A0,
8857459,00000130,false,Rx,0,8,1A,80,0E,7D,00,01,06,DB,
8857693,00000140,false,Rx,0,8,FF,FF,01,6A,20,00,06,87,
8867453,00000130,false,Rx,0,8,13,80,06,7D,00,01,07,3E,
8867687,00000140,false,Rx,0,8,FF,FF,01,6A,20,00,07,9A,
8877302,00000500,false,Rx,0,1,0C,00,00,00,00,00,00,00,
8877545,00000130,false,Rx,0,8,10,80,15,7D,00,01,08,32,
8877579,000005A0,false,Rx,1,8,00,00,00,C0,20,73,94,0C,
8877785,00000140,false,Rx,0,8,FF,FF,01,6A,20,00,08,21,
8878023,00000495,false,Rx,0,8,00,00,12,8A,21,69,2C,64,
8887429,00000130,false,Rx,0,8,0B,80,2A,7D,00,01,09,F0,
8887664,00000140,false,Rx,0,8,FF,FF,01,6A,20,00,09,3C,
8897423,00000130,false,Rx,0,8,FF,7F,20,7D,00,01,0A,BD,
8897667,00000140,false,Rx,0,8,FF,FF,01,6A,20,00,0A,1B,
8907427,00000130,false,Rx,0,8,04,80,21,7D,00,01,0B,5F,
8907661,00000140,false,Rx,0,8,FF,FF,01,6A,20,00,0B,06,
8917432,00000130,false,Rx,0,8,09,80,1F,7D,00,01,0C,D3,
8917666,00000140,false,Rx,0,8,FF,FF,01,6A,20,00,0C,55,
8927438,00000130,false,Rx,0,8,05,80,19,7D,00,01,0D,14,
8927672,00000140,false,Rx,0,8,FF,FF,01,6A,20,00,0D,48,
8937495,00000130,false,Rx,0,8,0A,80,13,7D,00,01,0E,CC,
8937739,00000140,false,Rx,0,8,FF,FF,01,6A,20,00,0E,6F,
8947438,00000130,false,Rx,0,8,0F,80,0B,7D,00,01,0F,7C,
8947672,00000140,false,Rx,0,8,FF,FF,01,6A,20,00,0F,72,
8957432,00000130,false,Rx,0,8,0C,80,05,7D,00,01,00,36,
8957677,00000140,false,Rx,0,8,FF,FF,01,6A,20,00,00,C9,
8967427,00000130,false,Rx,0,8,0D,80,FD,7C,00,01,01,0F,
8967671,00000140,false,Rx,0,8,FF,FF,01,6A,20,00,01,D4,
8977295,00000500,false,Rx,0,1,0C,00,00,00,00,00,00,00,
8977538,00000130,false,Rx,0,8,09,80,0A,7D,00,01,02,44,
8977776,00000140,false,Rx,0,8,FF,FF,01,6A,20,00,02,F3,
8978005,00000495,false,Rx,0,8,00,00,12,8A,21,69,2C,64,
8987429,00000130,false,Rx,0,8,FC,7F,21,7D,00,01,03,C5,
8987663,00000140,false,Rx,0,8,FF,FF,01,6A,20,00,03,EE,
8997422,00000130,false,Rx,0,8,02,80,2A,7D,00,01,04,FE,
8997667,00000140,false,Rx,0,8,FF,FF,01,6A,20,00,04,BD,
9007438,00000130,false,Rx,0,8,11,80,2A,7D,00,01,05,BD,
9007672,00000140,false,Rx,0,8,FF,FF,01,6A,20,00,05,A0,
9017422,00000130,false,Rx,0,8,0D,80,2D,7D,00,01,06,93,
9017666,00000140,false,Rx,0,8,FF,FF,01,6A,20,00,06,87,
9027437,00000130,false,Rx,0,8,02,80,2E,7D,00,01,07,6C,
9027671,00000140,false,Rx,0,8,FF,FF,01,6A,20,00,07,9A,
9037432,00000130,false,Rx,0,8,06,80,2A,7D,00,01,08,0B,
9037676,00000140,false,Rx,0,8,FF,FF,01,6A,20,00,08,21,
9047427,00000130,false,Rx,0,8,02,80,19,7D,00,01,09,EE,
9047671,00000140,false,Rx,0,8,FF,FF,01,6A,20,00,09,3C,
9057452,00000130,false,Rx,0,8,FC,7F,0B,7D,00,01,0A,52,
9057696,00000140,false,Rx,0,8,FF,FF,01,6A,20,00,0A,1B,
9067437,00000130,false,Rx,0,8,01,80,17,7D,00,01,0B,25,
9067682,00000140,false,Rx,0,8,FF,FF,01,6A,20,00,0B,06,
9077307,00000500,false,Rx,0,1,0C,00,00,00,00,00,00,00,
9077540,00000130,false,Rx,0,8,05,80,25,7D,00,01,0C,E4,
9077780,00000140,false,Rx,0,8,FF,FF,01,6A,20,00,0C,55,
9078018,00000495,false,Rx,0,8,00,00,12,8A,21,69,2C,64,
9087432,00000130,false,Rx,0,8,05,80,1C,7D,00,01,0D,CB,
9087666,00000140,false,Rx,0,8,FF,FF,01,6A,20,00,0D,48,
9097426,00000130,false,Rx,0,8,0F,80,17,7D,00,01,0E,4D,
9097670,00000140,false,Rx,0,8,FF,FF,01,6A,20,00,0E,6F,
9107432,00000130,false,Rx,0,8,13,80,1C,7D,00,01,0F,9B,
9107666,00000140,false,Rx,0,8,FF,FF,01,6A,20,00,0F,72,
9117427,00000130,false,Rx,0,8,10,80,30,7D,00,01,00,C4,
9117672,00000140,false,Rx,0,8,FF,FF,01,6A,20,00,00,C9,
9127431,00000130,false,Rx,0,8,0B,80,2A,7D,00,01,01,18,
9127667,00000140,false,Rx,0,8,FF,FF,01,6A,20,00,01,D4,
9137571,00000130,false,Rx,0,8,15,80,11,7D,00,01,02,61,
9137817,00000140,false,Rx,0,8,FF,FF,01,6A,20,00,02,F3,
9147432,00000130,false,Rx,0,8,23,80,03,7D,00,01,03,43,
9147667,00000140,false,Rx,0,8,FF,FF,01,6A,20,00,03,EE,
9157437,00000130,false,Rx,0,8,17,80,F9,7C,00,01,04,02,
9157672,00000140,false,Rx,0,8,FF,FF,01,6A,20,00,04,BD,
9167432,00000130,false,Rx,0,8,07,80,F7,7C,00,01,05,B0,
9167678,00000140,false,Rx,0,8,FF,FF,01,6A,20,00,05,A0,
9177291,00000500,false,Rx,0,1,0C,00,00,00,00,00,00,00,
9177534,00000130,false,Rx,0,8,07,80,FF,7C,00,01,06,E0,
9177774,00000140,false,Rx,0,8,FF,FF,01,6A,20,00,06,87,
9178012,00000495,false,Rx,0,8,00,00,12,8A,21,69,2C,64,
9187427,00000130,false,Rx,0,8,0C,80,0F,7D,00,01,07,C6,
9187673,00000140,false,Rx,0,8,FF,FF,01,6A,20,00,07,9A,
9197432,00000130,false,Rx,0,8,10,80,13,7D,00,01,08,53,
9197667,00000140,false,Rx,0,8,FF,FF,01,6A,20,00,08,21,
9207426,00000130,false,Rx,0,8,0B,80,1E,7D,00,01,09,6A,
9207662,00000140,false,Rx,0,8,FF,FF,01,6A,20,00,09,3C,
9217422,00000130,false,Rx,0,8,0B,80,19,7D,00,01,0A,46,
9217657,00000140,false,Rx,0,8,FF,FF,01,6A,20,00,0A,1B,
9227437,00000130,false,Rx,0,8,16,80,11,7D,00,01,0B,73,
9227672,00000140,false,Rx,0,8,FF,FF,01,6A,20,00,0B,06,
9237432,00000130,false,Rx,0,8,1D,80,1E,7D,00,01,0C,69,
9237667,00000140,false,Rx,0,8,FF,FF,01,6A,20,00,0C,55,
9247427,00000130,false,Rx,0,8,11,80,20,7D,00,01,0D,F6,
9247662,00000140,false,Rx,0,8,FF,FF,01,6A,20,00,0D,48,
9257454,00000130,false,Rx,0,8,07,80,19,7D,00,01,0E,89,
9257688,00000140,false,Rx,0,8,FF,FF,01,6A,20,00,0E,6F,
9267428,00000130,false,Rx,0,8,04,80,1B,7D,00,01,0F,A7,
9267662,00000140,false,Rx,0,8,FF,FF,01,6A,20,00,0F,72,
9277306,00000500,false,Rx,0,1,0C,00,00,00,00,00,00,00,
9277551,00000130,false,Rx,0,8,00,80,23,7D,00,01,00,2D,
9277789,00000140,false,Rx,0,8,FF,FF,01,6A,20,00,00,C9,
9278017,00000495,false,Rx,0,8,00,00,12,8A,21,69,2C,64,
9287433,00000130,false,Rx,0,8,04,80,28,7D,00,01,01,90,
9287667,00000140,false,Rx,0,8,FF,FF,01,6A,20,00,01,D4,
9297428,00000130,false,Rx,0,8,08,80,24,7D,00,01,02,CE,
9297662,00000140,false,Rx,0,8,FF,FF,01,6A,20,00,02,F3,
9307433,00000130,false,Rx,0,8,11,80,1F,7D,00,01,03,03,
9307667,00000140,false,Rx,0,8,FF,FF,01,6A,20,00,03,EE,
9317428,00000130,false,Rx,0,8,1A,80,1D,7D,00,01,04,B1,
9317662,00000140,false,Rx,0,8,FF,FF,01,6A,20,00,04,BD,
9327433,00000130,false,Rx,0,8,19,80,12,7D,00,01,05,37,
9327677,00000140,false,Rx,0,8,FF,FF,01,6A,20,00,05,A0,
9337573,00000130,false,Rx,0,8,09,80,0F,7D,00,01,06,EF,
9337817,00000140,false,Rx,0,8,FF,FF,01,6A,20,00,06,87,
9347433,00000130,false,Rx,0,8,03,80,15,7D,00,01,07,D7,
9347677,00000140,false,Rx,0,8,FF,FF,01,6A,20,00,07,9A,
9357438,00000130,false,Rx,0,8,03,80,19,7D,00,01,08,AE,
9357672,00000140,false,Rx,0,8,FF,FF,01,6A,20,00,08,21,
9367453,00000130,false,Rx,0,8,0C,80,09,7D,00,01,09,01,
9367687,00000140,false,Rx,0,8,FF,FF,01,6A,20,00,09,3C,
9377303,00000500,false,Rx,0,1,0C,00,00,00,00,00,00,00,
9377536,00000130,false,Rx,0,8,13,80,F6,7C,00,01,0A,B1,
9377774,00000140,false,Rx,0,8,FF,FF,01,6A,20,00,0A,1B,
9378013,00000495,false,Rx,0,8,00,00,12,8A,21,69,2C,64,
9387428,00000130,false,Rx,0,8,14,80,09,7D,00,01,0B,50,
9387672,00000140,false,Rx,0,8,FF,FF,01,6A,20,00,0B,06,
9397432,00000130,false,Rx,0,8,0F,80,1C,7D,00,01,0C,BE,
9397666,00000140,false,Rx,0,8,FF,FF,01,6A,20,00,0C,55,
9407427,00000130,false,Rx,0,8,08,80,1D,7D,00,01,0D,47,
9407661,00000140,false,Rx,0,8,FF,FF,01,6A,20,00,0D,48,
9417433,00000130,false,Rx,0,8,10,80,1F,7D,00,01,0E,DF,
9417667,00000140,false,Rx,0,8,FF,FF,01,6A,20,00,0E,6F,
9427437,00000130,false,Rx,0,8,0F,80,19,7D,00,01,0F,46,
9427671,00000140,false,Rx,0,8,FF,FF,01,6A,20,00,0F,72,
9437433,00000130,false,Rx,0,8,10,80,09,7D,00,01,00,F6,
9437677,00000140,false,Rx,0,8,FF,FF,01,6A,20,00,00,C9,
9447427,00000130,false,Rx,0,8,18,80,1D,7D,00,01,01,62,
9447661,00000140,false,Rx,0,8,FF,FF,01,6A,20,00,01,D4,
9457452,00000130,false,Rx,0,8,17,80,26,7D,00,01,02,FF,
9457686,00000140,false,Rx,0,8,FF,FF,01,6A,20,00,02,F3,
9467437,00000130,false,Rx,0,8,13,80,20,7D,00,01,03,EA,
9467671,00000140,false,Rx,0,8,FF,FF,01,6A,20,00,03,EE,
9477297,00000500,false,Rx,0,1,0C,00,00,00,00,00,00,00,
9477540,00000130,false,Rx,0,8,16,80,0D,7D,00,01,04,E4,
9477779,00000140,false,Rx,0,8,FF,FF,01,6A,20,00,04,BD,
9478008,00000495,false,Rx,0,8,00,00,12,8A,21,69,2C,64,
9487423,00000130,false,Rx,0,8,0C,80,08,7D,00,01,05,F7,
9487667,00000140,false,Rx,0,8,FF,FF,01,6A,20,00,05,A0,
9497427,00000130,false,Rx,0,8,01,80,18,7D,00,01,06,D8,
9497661,00000140,false,Rx,0,8,FF,FF,01,6A,20,00,06,87,
9507422,00000130,false,Rx,0,8,05,80,11,7D,00,01,07,B1,
9507666,00000140,false,Rx,0,8,FF,FF,01,6A,20,00,07,9A,
9517425,00000130,false,Rx,0,8,13,80,FE,7C,00,01,08,FC,
9517660,00000140,false,Rx,0,8,FF,FF,01,6A,20,00,08,21,
9527429,00000130,false,Rx,0,8,17,80,10,7D,00,01,09,7E,
9527673,00000140,false,Rx,0,8,FF,FF,01,6A,20,00,09,3C,
9537484,00000130,false,Rx,0,8,12,80,37,7D,00,01,0A,A7,
9537728,00000140,false,Rx,0,8,FF,FF,01,6A,20,00,0A,1B,
9547437,00000130,false,Rx,0,8,0E,80,3A,7D,00,01,0B,10,
9547671,00000140,false,Rx,0,8,FF,FF,01,6A,20,00,0B,06,
9557432,00000130,false,Rx,0,8,0C,80,2C,7D,00,01,0C,76,
9557666,00000140,false,Rx,0,8,FF,FF,01,6A,20,00,0C,55,
9567427,00000130,false,Rx,0,8,04,80,29,7D,00,01,0D,66,
9567661,00000140,false,Rx,0,8,FF,FF,01,6A,20,00,0D,48,
9577297,00000500,false,Rx,0,1,0C,00,00,00,00,00,00,00,
9577530,00000130,false,Rx,0,8,09,80,1A,7D,00,01,0E,36,
9577769,00000140,false,Rx,0,8,FF,FF,01,6A,20,00,0E,6F,
9578008,00000495,false,Rx,0,8,00,00,12,8A,21,69,2C,64,
9587422,00000130,false,Rx,0,8,1A,80,22,7D,00,01,0F,2D,
9587656,00000140,false,Rx,0,8,FF,FF,01,6A,20,00,0F,72,
9597427,00000130,false,Rx,0,8,1B,80,12,7D,00,01,00,E4,
9597662,00000140,false,Rx,0,8,FF,FF,01,6A,20,00,00,C9,
9607432,00000130,false,Rx,0,8,14,80,F8,7C,00,01,01,E6,
9607667,00000140,false,Rx,0,8,FF,FF,01,6A,20,00,01,D4,
9617427,00000130,false,Rx,0,8,12,80,FF,7C,00,01,02,19,
9617662,00000140,false,Rx,0,8,FF,FF,01,6A,20,00,02,F3,
9627433,00000130,false,Rx,0,8,17,80,0F,7D,00,01,03,3E,
9627678,00000140,false,Rx,0,8,FF,FF,01,6A,20,00,03,EE,
9637437,00000130,false,Rx,0,8,11,80,11,7D,00,01,04,46,
9637672,00000140,false,Rx,0,8,FF,FF,01,6A,20,00,04,BD,
9647432,00000130,false,Rx,0,8,0E,80,11,7D,00,01,05,BE,
9647667,00000140,false,Rx,0,8,FF,FF,01,6A,20,00,05,A0,
9657447,00000130,false,Rx,0,8,0A,80,1B,7D,00,01,06,53,
9657693,00000140,false,Rx,0,8,FF,FF,01,6A,20,00,06,87,
9667443,00000130,false,Rx,0,8,00,80,3D,7D,00,01,07,86,
9667678,00000140,false,Rx,0,8,FF,FF,01,6A,20,00,07,9A,
9677301,00000500,false,Rx,0,1,0C,00,00,00,00,00,00,00,
9677546,00000130,false,Rx,0,8,FF,7F,38,7D,00,01,08,1E,
9677784,00000140,false,Rx,0,8,FF,FF,01,6A,20,00,08,21,
9678012,00000495,false,Rx,0,8,00,00,12,8A,21,69,2C,64,
9687426,00000130,false,Rx,0,8,09,80,21,7D,00,01,09,83,
9687662,00000140,false,Rx,0,8,FF,FF,01,6A,20,00,09,3C,
9697422,00000130,false,Rx,0,8,1A,80,05,7D,00,01,0A,8E,
9697667,00000140,false,Rx,0,8,FF,FF,01,6A,20,00,0A,1B,
9707426,00000130,false,Rx,0,8,22,80,F7,7C,00,01,0B,4D,
9707662,00000140,false,Rx,0,8,FF,FF,01,6A,20,00,0B,06,
9717421,00000130,false,Rx,0,8,19,80,0B,7D,00,01,0C,31,
9717666,00000140,false,Rx,0,8,FF,FF,01,6A,20,00,0C,55,
9727427,00000130,false,Rx,0,8,0E,80,1B,7D,00,01,0D,F5,
9727662,00000140,false,Rx,0,8,FF,FF,01,6A,20,00,0D,48,
9737567,00000130,false,Rx,0,8,08,80,1C,7D,00,01,0E,0A,
9737812,00000140,false,Rx,0,8,FF,FF,01,6A,20,00,0E,6F,
9747428,00000130,false,Rx,0,8,08,80,17,7D,00,01,0F,DE,
9747662,00000140,false,Rx,0,8,FF,FF,01,6A,20,00,0F,72,
9757433,00000130,false,Rx,0,8,02,80,2E,7D,00,01,00,3F,
9757667,00000140,false,Rx,0,8,FF,FF,01,6A,20,00,00,C9,
9767427,00000130,false,Rx,0,8,04,80,26,7D,00,01,01,86,
9767662,00000140,false,Rx,0,8,FF,FF,01,6A,20,00,01,D4,
9777296,00000500,false,Rx,0,1,0C,00,00,00,00,00,00,00,
9777530,00000130,false,Rx,0,8,0D,80,0E,7D,00,01,02,98,
9777768,00000140,false,Rx,0,8,FF,FF,01,6A,20,00,02,F3,
9778006,00000495,false,Rx,0,8,00,00,12,8A,21,69,2C,64,
9787422,00000130,false,Rx,0,8,0E,80,0F,7D,00,01,03,08,
9787666,00000140,false,Rx,0,8,FF,FF,01,6A,20,00,03,EE,
9797427,00000130,false,Rx,0,8,09,80,13,7D,00,01,04,F9,
9797661,00000140,false,Rx,0,8,FF,FF,01,6A,20,00,04,BD,
9807422,00000130,false,Rx,0,8,07,80,0A,7D,00,01,05,16,
9807667,00000140,false,Rx,0,8,FF,FF,01,6A,20,00,05,A0,
9817427,00000130,false,Rx,0,8,07,80,0F,7D,00,01,06,EE,
9817671,00000140,false,Rx,0,8,FF,FF,01,6A,20,00,06,87,
9827432,00000130,false,Rx,0,8,0A,80,08,7D,00,01,07,1E,
9827667,00000140,false,Rx,0,8,FF,FF,01,6A,20,00,07,9A,
9837428,00000130,false,Rx,0,8,0B,80,F4,7C,00,01,08,34,
9837662,00000140,false,Rx,0,8,FF,FF,01,6A,20,00,08,21,
9847422,00000130,false,Rx,0,8,0D,80,13,7D,00,01,09,11,
9847656,00000140,false,Rx,0,8,FF,FF,01,6A,20,00,09,3C,
9857449,00000130,false,Rx,0,8,11,80,2E,7D,00,01,0A,B3,
9857683,00000140,false,Rx,0,8,FF,FF,01,6A,20,00,0A,1B,
9867443,00000130,false,Rx,0,8,10,80,2F,7D,00,01,0B,99,
9867677,00000140,false,Rx,0,8,FF,FF,01,6A,20,00,0B,06,
9877292,00000500,false,Rx,0,1,0C,00,00,00,00,00,00,00,
9877525,00000130,false,Rx,0,8,0E,80,2F,7D,00,01,0C,72,
9877569,000005A0,false,Rx,1,8,00,00,00,C0,20,77,94,0C,
9877775,00000140,false,Rx,0,8,FF,FF,01,6A,20,00,0C,55,
9878004,00000495,false,Rx,0,8,00,00,12,8A,21,69,2C,64,
9887422,00000130,false,Rx,0,8,0A,80,25,7D,00,01,0D,A5,
9887656,00000140,false,Rx,0,8,FF,FF,01,6A,20,00,0D,48,
9897416,00000130,false,Rx,0,8,06,80,23,7D,00,01,0E,58,
9897661,00000140,false,Rx,0,8,FF,FF,01,6A,20,00,0E,6F,
9907422,00000130,false,Rx,0,8,11,80,1D,7D,00,01,0F,4B,
9907656,00000140,false,Rx,0,8,FF,FF,01,6A,20,00,0F,72,
9917427,00000130,false,Rx,0,8,0E,80,19,7D,00,01,00,A0,
9917671,00000140,false,Rx,0,8,FF,FF,01,6A,20,00,00,C9,
9927433,00000130,false,Rx,0,8,02,80,14,7D,00,01,01,AE,
9927667,00000140,false,Rx,0,8,FF,FF,01,6A,20,00,01,D4,
9937572,00000130,false,Rx,0,8,06,80,0E,7D,00,01,02,AD,
9937806,00000140,false,Rx,0,8,FF,FF,01,6A,20,00,02,F3,
9947423,00000130,false,Rx,0,8,05,80,13,7D,00,01,03,11,
9947667,00000140,false,Rx,0,8,FF,FF,01,6A,20,00,03,EE,
9957427,00000130,false,Rx,0,8,0B,80,11,7D,00,01,04,97,
9957671,00000140,false,Rx,0,8,FF,FF,01,6A,20,00,04,BD,
9967432,00000130,false,Rx,0,8,0F,80,10,7D,00,01,05,89,
9967676,00000140,false,Rx,0,8,FF,FF,01,6A,20,00,05,A0,
9977292,00000500,false,Rx,0,1,0C,00,00,00,00,00,00,00,
9977535,00000130,false,Rx,0,8,0B,80,24,7D,00,01,06,5D,
9977773,00000140,false,Rx,0,8,FF,FF,01,6A,20,00,06,87,
9978013,00000495,false,Rx,0,8,00,00,12,8A,21,69,2C,64,
9987427,00000130,false,Rx,0,8,0B,80,2D,7D,00,01,07,5D,
9987661,00000140,false,Rx,0,8,FF,FF,01,6A,20,00,07,9A,
9997421,00000130,false,Rx,0,8,03,80,25,7D,00,01,08,43,
9997666,00000140,false,Rx,0,8,FF,FF,01,6A,20,00,08,21,
10007427,00000130,false,Rx,0,8,03,80,0E,7D,00,01,09,56,
10007661,00000140,false,Rx,0,8,FF,FF,01,6A,20,00,09,3C,
10017421,00000130,false,Rx,0,8,03,80,13,7D,00,01,0A,37,
10017655,00000140,false,Rx,0,8,FF,FF,01,6A,20,00,0A,1B,
10027427,00000130,false,Rx,0,8,06,80,29,7D,00,01,0B,92,
10027661,00000140,false,Rx,0,8,FF,FF,01,6A,20,00,0B,06,
10037422,00000130,false,Rx,0,8,0B,80,2C,7D,00,01,0C,F8,
10037666,00000140,false,Rx,0,8,FF,FF,01,6A,20,00,0C,55,
10047417,00000130,false,Rx,0,8,0A,80,26,7D,00,01,0D,1B,
10047661,00000140,false,Rx,0,8,FF,FF,01,6A,20,00,0D,48,
10057442,00000130,false,Rx,0,8,02,80,26,7D,00,01,0E,EE,
10057677,00000140,false,Rx,0,8,FF,FF,01,6A,20,00,0E,6F,
10067417,00000130,false,Rx,0,8,06,80,2B,7D,00,01,0F,32,
10067661,00000140,false,Rx,0,8,FF,FF,01,6A,20,00,0F,72,
10077296,00000500,false,Rx,0,1,0C,00,00,00,00,00,00,00,
10077529,00000130,false,Rx,0,8,13,80,2F,7D,00,01,00,B1,
10077769,00000140,false,Rx,0,8,FF,FF,01,6A,20,00,00,C9,
10078007,00000495,false,Rx,0,8,00,00,12,8A,21,69,2C,64,
10087432,00000130,false,Rx,0,8,0E,80,2C,7D,00,01,01,4D,
10087668,00000140,false,Rx,0,8,FF,FF,01,6A,20,00,01,D4,
10097426,00000130,false,Rx,0,8,10,80,1E,7D,00,01,02,29,
10097662,00000140,false,Rx,0,8,FF,FF,01,6A,20,00,02,F3,
10107422,00000130,false,Rx,0,8,15,80,21,7D,00,01,03,53,
10107657,00000140,false,Rx,0,8,FF,FF,01,6A,20,00,03,EE,
10117416,00000130,false,Rx,0,8,11,80,07,7D,00,01,04,C9,
10117652,00000140,false,Rx,0,8,FF,FF,01,6A,20,00,04,BD,
10127422,00000130,false,Rx,0,8,16,80,FF,7C,00,01,05,23,
10127667,00000140,false,Rx,0,8,FF,FF,01,6A,20,00,05,A0,
10137489,00000130,false,Rx,0,8,0E,80,FC,7C,00,01,06,D1,
10137734,00000140,false,Rx,0,8,FF,FF,01,6A,20,00,06,87,
10147422,00000130,false,Rx,0,8,0D,80,F9,7C,00,01,07,F4,
10147667,00000140,false,Rx,0,8,FF,FF,01,6A,20,00,07,9A,
10157426,00000130,false,Rx,0,8,15,80,0F,7D,00,01,08,4B,
10157662,00000140,false,Rx,0,8,FF,FF,01,6A,20,00,08,21,
10167421,00000130,false,Rx,0,8,11,80,23,7D,00,01,09,3C,
10167656,00000140,false,Rx,0,8,FF,FF,01,6A,20,00,09,3C,
10177290,00000500,false,Rx,0,1,0C,00,00,00,00,00,00,00,
10177524,00000130,false,Rx,0,8,0E,80,24,7D,00,01,0A,F5,
10177763,00000140,false,Rx,0,8,FF,FF,01,6A,20,00,0A,1B,
10178001,00000495,false,Rx,0,8,00,00,12,8A,21,69,2C,64,
10187426,00000130,false,Rx,0,8,0D,80,1F,7D,00,01,0B,E9,
10187662,00000140,false,Rx,0,8,FF,FF,01,6A,20,00,0B,06,
10197421,00000130,false,Rx,0,8,12,80,0B,7D,00,01,0C,04,
10197656,00000140,false,Rx,0,8,FF,FF,01,6A,20,00,0C,55,
10207416,00000130,false,Rx,0,8,0E,80,0E,7D,00,01,0D,C4,
10207652,00000140,false,Rx,0,8,FF,FF,01,6A,20,00,0D,48,
10217422,00000130,false,Rx,0,8,05,80,1C,7D,00,01,0E,EC,
10217657,00000140,false,Rx,0,8,FF,FF,01,6A,20,00,0E,6F,
10227428,00000130,false,Rx,0,8,0B,80,17,7D,00,01,0F,39,
10227662,00000140,false,Rx,0,8,FF,FF,01,6A,20,00,0F,72,
10237433,00000130,false,Rx,0,8,0C,80,0D,7D,00,01,00,41,
10237667,00000140,false,Rx,0,8,FF,FF,01,6A,20,00,00,C9,
10247428,00000130,false,Rx,0,8,02,80,18,7D,00,01,01,6C,
10247662,00000140,false,Rx,0,8,FF,FF,01,6A,20,00,01,D4,
10257454,00000130,false,Rx,0,8,F8,7F,1A,7D,00,01,02,57,
10257688,00000140,false,Rx,0,8,FF,FF,01,6A,20,00,02,F3,
10267428,00000130,false,Rx,0,8,FD,7F,0B,7D,00,01,03,FA,
10267672,00000140,false,Rx,0,8,FF,FF,01,6A,20,00,03,EE,
10277306,00000500,false,Rx,0,1,0C,00,00,00,00,00,00,00,
10277540,00000130,false,Rx,0,8,06,80,0B,7D,00,01,04,3C,
10277778,00000140,false,Rx,0,8,FF,FF,01,6A,20,00,04,BD,
10278017,00000495,false,Rx,0,8,00,00,12,8A,21,69,2C,64,
10287432,00000130,false,Rx,0,8,09,80,1E,7D,00,01,05,4C,
10287666,00000140,false,Rx,0,8,FF,FF,01,6A,20,00,05,A0,
10297417,00000130,false,Rx,0,8,0B,80,26,7D,00,01,06,89,
10297661,00000140,false,Rx,0,8,FF,FF,01,6A,20,00,06,87,
10307422,00000130,false,Rx,0,8,09,80,1C,7D,00,01,07,A2,
10307666,00000140,false,Rx,0,8,FF,FF,01,6A,20,00,07,9A,
10317417,00000130,false,Rx,0,8,0A,80,11,7D,00,01,08,56,
10317662,00000140,false,Rx,0,8,FF,FF,01,6A,20,00,08,21,
10327433,00000130,false,Rx,0,8,08,80,1F,7D,00,01,09,E7,
10327667,00000140,false,Rx,0,8,FF,FF,01,6A,20,00,09,3C,
10337562,00000130,false,Rx,0,8,03,80,1F,7D,00,01,0A,F5,
10337807,00000140,false,Rx,0,8,FF,FF,01,6A,20,00,0A,1B,
10347422,00000130,false,Rx,0,8,00,80,21,7D,00,01,0B,36,
10347656,00000140,false,Rx,0,8,FF,FF,01,6A,20,00,0B,06,
10357427,00000130,false,Rx,0,8,01,80,1D,7D,00,01,0C,D5,
10357672,00000140,false,Rx,0,8,FF,FF,01,6A,20,00,0C,55,
10367444,00000130,false,Rx,0,8,01,80,19,7D,00,01,0D,7D,
10367678,00000140,false,Rx,0,8,FF,FF,01,6A,20,00,0D,48,
10377292,00000500,false,Rx,0,1,0C,00,00,00,00,00,00,00,
10377525,00000130,false,Rx,0,8,09,80,19,7D,00,01,0E,88,
10377763,00000140,false,Rx,0,8,FF,FF,01,6A,20,00,0E,6F,
10378002,00000495,false,Rx,0,8,00,00,12,8A,21,69,2C,64,
10387417,00000130,false,Rx,0,8,0C,80,06,7D,00,01,0F,33,
10387661,00000140,false,Rx,0,8,FF,FF,01,6A,20,00,0F,72,
10397422,00000130,false,Rx,0,8,0A,80,07,7D,00,01,00,31,
10397656,00000140,false,Rx,0,8,FF,FF,01,6A,20,00,00,C9,
10407416,00000130,false,Rx,0,8,0E,80,1E,7D,00,01,01,B6,
10407661,00000140,false,Rx,0,8,FF,FF,01,6A,20,00,01,D4,
10417420,00000130,false,Rx,0,8,07,80,19,7D,00,01,02,15,
10417654,00000140,false,Rx,0,8,FF,FF,01,6A,20,00,02,F3,
10427423,00000130,false,Rx,0,8,FD,7F,22,7D,00,01,03,26,
10427668,00000140,false,Rx,0,8,FF,FF,01,6A,20,00,03,EE,
10437427,00000130,false,Rx,0,8,04,80,1F,7D,00,01,04,DD,
10437661,00000140,false,Rx,0,8,FF,FF,01,6A,20,00,04,BD,
10447422,00000130,false,Rx,0,8,07,80,21,7D,00,01,05,1E,
10447656,00000140,false,Rx,0,8,FF,FF,01,6A,20,00,05,A0,
10457448,00000130,false,Rx,0,8,07,80,2D,7D,00,01,06,FB,
10457682,00000140,false,Rx,0,8,FF,FF,01,6A,20,00,06,87,
10467421,00000130,false,Rx,0,8,0F,80,20,7D,00,01,07,9C,
10467665,00000140,false,Rx,0,8,FF,FF,01,6A,20,00,07,9A,
10477291,00000500,false,Rx,0,1,0C,00,00,00,00,00,00,00,
10477535,00000130,false,Rx,0,8,11,80,0C,7D,00,01,08,9C,
10477773,00000140,false,Rx,0,8,FF,FF,01,6A,20,00,08,21,
10478002,00000495,false,Rx,0,8,00,00,12,8A,21,69,2C,64,
10487416,00000130,false,Rx,0,8,11,80,FC,7C,00,01,09,8F,
10487661,00000140,false,Rx,0,8,FF,FF,01,6A,20,00,09,3C,
10497421,00000130,false,Rx,0,8,1B,80,FC,7C,00,01,0A,C0,
10497655,00000140,false,Rx,0,8,FF,FF,01,6A,20,00,0A,1B,
10507416,00000130,false,Rx,0,8,21,80,12,7D,00,01,0B,95,
10507651,00000140,false,Rx,0,8,FF,FF,01,6A,20,00,0B,06,
10517411,00000130,false,Rx,0,8,1A,80,29,7D,00,01,0C,C3,
10517656,00000140,false,Rx,0,8,FF,FF,01,6A,20,00,0C,55,
10527417,00000130,false,Rx,0,8,17,80,33,7D,00,01,0D,75,
10527661,00000140,false,Rx,0,8,FF,FF,01,6A,20,00,0D,48,
10537566,00000130,false,Rx,0,8,12,80,26,7D,00,01,0E,57,
10537802,00000140,false,Rx,0,8,FF,FF,01,6A,20,00,0E,6F,
10547427,00000130,false,Rx,0,8,10,80,0B,7D,00,01,0F,99,
10547661,00000140,false,Rx,0,8,FF,FF,01,6A,20,00,0F,72,
10557432,00000130,false,Rx,0,8,0F,80,0E,7D,00,01,00,18,
10557677,00000140,false,Rx,0,8,FF,FF,01,6A,20,00,00,C9,
10567427,00000130,false,Rx,0,8,11,80,1C,7D,00,01,01,87,
10567662,00000140,false,Rx,0,8,FF,FF,01,6A,20,00,01,D4,
10577296,00000500,false,Rx,0,1,0C,00,00,00,00,00,00,00,
10577529,00000130,false,Rx,0,8,0F,80,29,7D,00,01,02,E8,
10577768,00000140,false,Rx,0,8,FF,FF,01,6A,20,00,02,F3,
10578007,00000495,false,Rx,0,8,00,00,12,8A,21,69,2C,64,
10587422,00000130,false,Rx,0,8,12,80,2F,7D,00,01,03,CB,
10587667,00000140,false,Rx,0,8,FF,FF,01,6A,20,00,03,EE,
10597426,00000130,false,Rx,0,8,0E,80,39,7D,00,01,04,15,
10597662,00000140,false,Rx,0,8,FF,FF,01,6A,20,00,04,BD,
10607422,00000130,false,Rx,0,8,05,80,34,7D,00,01,05,95,
10607657,00000140,false,Rx,0,8,FF,FF,01,6A,20,00,05,A0,
10617416,00000130,false,Rx,0,8,05,80,38,7D,00,01,06,70,
10617662,00000140,false,Rx,0,8,FF,FF,01,6A,20,00,06,87,
10627443,00000130,false,Rx,0,8,0F,80,3D,7D,00,01,07,DA,
10627678,00000140,false,Rx,0,8,FF,FF,01,6A,20,00,07,9A,
10637427,00000130,false,Rx,0,8,0E,80,23,7D,00,01,08,C4,
10637662,00000140,false,Rx,0,8,FF,FF,01,6A,20,00,08,21,
10647411,00000130,false,Rx,0,8,0C,80,04,7D,00,01,09,A9,
10647657,00000140,false,Rx,0,8,FF,FF,01,6A,20,00,09,3C,
10657437,00000130,false,Rx,0,8,09,80,0E,7D,00,01,0A,19,
10657683,00000140,false,Rx,0,8,FF,FF,01,6A,20,00,0A,1B,
10667422,00000130,false,Rx,0,8,0A,80,1C,7D,00,01,0B,D9,
10667657,00000140,false,Rx,0,8,FF,FF,01,6A,20,00,0B,06,
10677291,00000500,false,Rx,0,1,0C,00,00,00,00,00,00,00,
10677525,00000130,false,Rx,0,8,08,80,23,7D,00,01,0C,63,
10677764,00000140,false,Rx,0,8,FF,FF,01,6A,20,00,0C,55,
10678002,00000495,false,Rx,0,8,00,00,12,8A,21,69,2C,64,
10687416,00000130,false,Rx,0,8,11,80,18,7D,00,01,0D,AE,
10687651,00000140,false,Rx,0,8,FF,FF,01,6A,20,00,0D,48,
10697422,00000130,false,Rx,0,8,0D,80,10,7D,00,01,0E,FC,
10697657,00000140,false,Rx,0,8,FF,FF,01,6A,20,00,0E,6F,
10707418,00000130,false,Rx,0,8,FC,7F,23,7D,00,01,0F,8D,
10707652,00000140,false,Rx,0,8,FF,FF,01,6A,20,00,0F,72,
10717412,00000130,false,Rx,0,8,FA,7F,1D,7D,00,01,00,DC,
10717656,00000140,false,Rx,0,8,FF,FF,01,6A,20,00,00,C9,
10727418,00000130,false,Rx,0,8,FF,7F,1F,7D,00,01,01,21,
10727662,00000140,false,Rx,0,8,FF,FF,01,6A,20,00,01,D4,
10737485,00000130,false,Rx,0,8,09,80,2B,7D,00,01,02,EF,
10737719,00000140,false,Rx,0,8,FF,FF,01,6A,20,00,02,F3,
10747418,00000130,false,Rx,0,8,13,80,16,7D,00,01,03,A4,
10747662,00000140,false,Rx,0,8,FF,FF,01,6A,20,00,03,EE,
10757423,00000130,false,Rx,0,8,0B,80,08,7D,00,01,04,64,
10757657,00000140,false,Rx,0,8,FF,FF,01,6A,20,00,04,BD,
10767417,00000130,false,Rx,0,8,09,80,FE,7C,00,01,05,AC,
10767661,00000140,false,Rx,0,8,FF,FF,01,6A,20,00,05,A0,
10777285,00000500,false,Rx,0,1,0C,00,00,00,00,00,00,00,
10777530,00000130,false,Rx,0,8,11,80,0A,7D,00,01,06,5B,
10777768,00000140,false,Rx,0,8,FF,FF,01,6A,20,00,06,87,
10778007,00000495,false,Rx,0,8,00,00,12,8A,21,69,2C,64,
10787422,00000130,false,Rx,0,8,0F,80,22,7D,00,01,07,48,
10787666,00000140,false,Rx,0,8,FF,FF,01,6A,20,00,07,9A,
10797417,00000130,false,Rx,0,8,0F,80,28,7D,00,01,08,50,
10797651,00000140,false,Rx,0,8,FF,FF,01,6A,20,00,08,21,
10807412,00000130,false,Rx,0,8,0D,80,1B,7D,00,01,09,66,
10807656,00000140,false,Rx,0,8,FF,FF,01,6A,20,00,09,3C,
10817427,00000130,false,Rx,0,8,0C,80,10,7D,00,01,0A,D5,
10817661,00000140,false,Rx,0,8,FF,FF,01,6A,20,00,0A,1B,
10827422,00000130,false,Rx,0,8,12,80,09,7D,00,01,0B,83,
10827666,00000140,false,Rx,0,8,FF,FF,01,6A,20,00,0B,06,
10837415,00000130,false,Rx,0,8,10,80,17,7D,00,01,0C,92,
10837660,00000140,false,Rx,0,8,FF,FF,01,6A,20,00,0C,55,
10847418,00000130,false,Rx,0,8,08,80,24,7D,00,01,0D,75,
10847653,00000140,false,Rx,0,8,FF,FF,01,6A,20,00,0D,48,
10857443,00000130,false,Rx,0,8,09,80,18,7D,00,01,0E,E2,
10857687,00000140,false,Rx,0,8,FF,FF,01,6A,20,00,0E,6F,
10867447,00000130,false,Rx,0,8,06,80,03,7D,00,01,0F,84,
10867682,00000140,false,Rx,0,8,FF,FF,01,6A,20,00,0F,72,
10877297,00000500,false,Rx,0,1,0C,00,00,00,00,00,00,00,
10877540,00000130,false,Rx,0,8,03,80,05,7D,00,01,00,6A,
10877574,000005A0,false,Rx,1,8,00,00,00,C0,24,02,91,0C,
10877780,00000140,false,Rx,0,8,FF,FF,01,6A,20,00,00,C9,
10878009,00000495,false,Rx,0,8,00,00,12,8A,21,69,2C,64,
10887426,00000130,false,Rx,0,8,10,80,20,7D,00,01,01,37,
10887670,00000140,false,Rx,0,8,FF,FF,01,6A,20,00,01,D4,
10897429,00000130,false,Rx,0,8,16,80,2F,7D,00,01,02,BF,
10897663,00000140,false,Rx,0,8,FF,FF,01,6A,20,00,02,F3,
10907412,00000130,false,Rx,0,8,11,80,1D,7D,00,01,03,D7,
10907657,00000140,false,Rx,0,8,FF,FF,01,6A,20,00,03,EE,
10917417,00000130,false,Rx,0,8,0F,80,03,7D,00,01,04,C4,
10917651,00000140,false,Rx,0,8,FF,FF,01,6A,20,00,04,BD,
10927422,00000130,false,Rx,0,8,08,80,0A,7D,00,01,05,4A,
10927666,00000140,false,Rx,0,8,FF,FF,01,6A,20,00,05,A0,
10937562,00000130,false,Rx,0,8,01,80,0E,7D,00,01,06,57,
10937806,00000140,false,Rx,0,8,FF,FF,01,6A,20,00,06,87,
10947421,00000130,false,Rx,0,8,02,80,16,7D,00,01,07,34,
10947655,00000140,false,Rx,0,8,FF,FF,01,6A,20,00,07,9A,
10957415,00000130,false,Rx,0,8,FC,7F,24,7D,00,01,08,D5,
10957660,00000140,false,Rx,0,8,FF,FF,01,6A,20,00,08,21,
10967419,00000130,false,Rx,0,8,FD,7F,2F,7D,00,01,09,5C,
10967653,00000140,false,Rx,0,8,FF,FF,01,6A,20,00,09,3C,
10977287,00000500,false,Rx,0,1,0C,00,00,00,00,00,00,00,
10977520,00000130,false,Rx,0,8,02,80,24,7D,00,01,0A,4E,
10977759,00000140,false,Rx,0,8,FF,FF,01,6A,20,00,0A,1B,
10977987,00000495,false,Rx,0,8,00,00,12,8A,21,69,2C,64,
10987411,00000130,false,Rx,0,8,00,80,2B,7D,00,01,0B,95,
10987656,00000140,false,Rx,0,8,FF,FF,01,6A,20,00,0B,06,
10997417,00000130,false,Rx,0,8,03,80,23,7D,00,01,0C,56,
10997651,00000140,false,Rx,0,8,FF,FF,01,6A,20,00,0C,55,
11007411,00000130,false,Rx,0,8,0C,80,1A,7D,00,01,0D,25,
11007646,00000140,false,Rx,0,8,FF,FF,01,6A,20,00,0D,48,
11017416,00000130,false,Rx,0,8,14,80,21,7D,00,01,0E,8F,
11017651,00000140,false,Rx,0,8,FF,FF,01,6A,20,00,0E,6F,
11027421,00000130,false,Rx,0,8,1A,80,26,7D,00,01,0F,98,
11027655,00000140,false,Rx,0,8,FF,FF,01,6A,20,00,0F,72,
11037417,00000130,false,Rx,0,8,1B,80,16,7D,00,01,00,51,
11037662,00000140,false,Rx,0,8,FF,FF,01,6A,20,00,00,C9,
11047412,00000130,false,Rx,0,8,12,80,11,7D,00,01,01,C8,
11047657,00000140,false,Rx,0,8,FF,FF,01,6A,20,00,01,D4,
11057437,00000130,false,Rx,0,8,0F,80,1E,7D,00,01,02,CC,
11057683,00000140,false,Rx,0,8,FF,FF,01,6A,20,00,02,F3,
11067411,00000130,false,Rx,0,8,12,80,29,7D,00,01,03,AA,
11067657,00000140,false,Rx,0,8,FF,FF,01,6A,20,00,03,EE,
11077291,00000500,false,Rx,0,1,0C,00,00,00,00,00,00,00,
11077534,00000130,false,Rx,0,8,0D,80,2E,7D,00,01,04,17,
11077764,00000140,false,Rx,0,8,FF,FF,01,6A,20,00,04,BD,
11078002,00000495,false,Rx,0,8,00,00,12,8A,21,69,2C,64,
11087416,00000130,false,Rx,0,8,08,80,31,7D,00,01,05,AC,
11087662,00000140,false,Rx,0,8,FF,FF,01,6A,20,00,05,A0,
11097411,00000130,false,Rx,0,8,0A,80,23,7D,00,01,06,0B,
11097657,00000140,false,Rx,0,8,FF,FF,01,6A,20,00,06,87,
11107417,00000130,false,Rx,0,8,0F,80,18,7D,00,01,07,C4,
11107662,00000140,false,Rx,0,8,FF,FF,01,6A,20,00,07,9A,
11117411,00000130,false,Rx,0,8,09,80,11,7D,00,01,08,B1,
11117657,00000140,false,Rx,0,8,FF,FF,01,6A,20,00,08,21,
11127416,00000130,false,Rx,0,8,08,80,06,7D,00,01,09,14,
11127662,00000140,false,Rx,0,8,FF,FF,01,6A,20,00,09,3C,
11137557,00000130,false,Rx,0,8,18,80,16,7D,00,01,0A,64,
11137802,00000140,false,Rx,0,8,FF,FF,01,6A,20,00,0A,1B,
11147417,00000130,false,Rx,0,8,12,80,1F,7D,00,01,0B,0C,
11147662,00000140,false,Rx,0,8,FF,FF,01,6A,20,00,0B,06,
11157422,00000130,false,Rx,0,8,FE,7F,2D,7D,00,01,0C,06,
11157657,00000140,false,Rx,0,8,FF,FF,01,6A,20,00,0C,55,
11167426,00000130,false,Rx,0,8,03,80,2A,7D,00,01,0D,56,
11167662,00000140,false,Rx,0,8,FF,FF,01,6A,20,00,0D,48,
11177286,00000500,false,Rx,0,1,0C,00,00,00,00,00,00,00,
11177521,00000130,false,Rx,0,8,0D,80,35,7D,00,01,0E,E2,
11177769,00000140,false,Rx,0,8,FF,FF,01,6A,20,00,0E,6F,
11177997,00000495,false,Rx,0,8,00,00,12,8A,21,69,2C,64,
11187422,00000130,false,Rx,0,8,0F,80,3F,7D,00,01,0F,E6,
11187656,00000140,false,Rx,0,8,FF,FF,01,6A,20,00,0F,72,
11197417,00000130,false,Rx,0,8,11,80,2E,7D,00,01,00,61,
11197651,00000140,false,Rx,0,8,FF,FF,01,6A,20,00,00,C9,
11207412,00000130,false,Rx,0,8,0B,80,1C,7D,00,01,01,56,
11207656,00000140,false,Rx,0,8,FF,FF,01,6A,20,00,01,D4,
11217417,00000130,false,Rx,0,8,0C,80,0E,7D,00,01,02,C5,
11217651,00000140,false,Rx,0,8,FF,FF,01,6A,20,00,02,F3,
11227422,00000130,false,Rx,0,8,0B,80,F8,7C,00,01,03,39,
11227667,00000140,false,Rx,0,8,FF,FF,01,6A,20,00,03,EE,
11237418,00000130,false,Rx,0,8,06,80,04,7D,00,01,04,40,
11237662,00000140,false,Rx,0,8,FF,FF,01,6A,20,00,04,BD,
11247412,00000130,false,Rx,0,8,00,80,1B,7D,00,01,05,1C,
11247656,00000140,false,Rx,0,8,FF,FF,01,6A,20,00,05,A0,
11257437,00000130,false,Rx,0,8,05,80,11,7D,00,01,06,AC,
11257682,00000140,false,Rx,0,8,FF,FF,01,6A,20,00,06,87,
11267422,00000130,false,Rx,0,8,0E,80,13,7D,00,01,07,50,
11267656,00000140,false,Rx,0,8,FF,FF,01,6A,20,00,07,9A,
11277292,00000500,false,Rx,0,1,0C,00,00,00,00,00,00,00,
11277525,00000130,false,Rx,0,8,10,80,20,7D,00,01,08,C2,
11277763,00000140,false,Rx,0,8,FF,FF,01,6A,20,00,08,21,
11278001,00000495,false,Rx,0,8,00,00,12,8A,21,69,2C,64,
11287418,00000130,false,Rx,0,8,12,80,16,7D,00,01,09,2B,
11287652,00000140,false,Rx,0,8,FF,FF,01,6A,20,00,09,3C,
11297412,00000130,false,Rx,0,8,14,80,1C,7D,00,01,0A,7C,
11297646,00000140,false,Rx,0,8,FF,FF,01,6A,20,00,0A,1B,
11307406,00000130,false,Rx,0,8,18,80,24,7D,00,01,0B,82,
11307650,00000140,false,Rx,0,8,FF,FF,01,6A,20,00,0B,06,
11317411,00000130,false,Rx,0,8,12,80,21,7D,00,01,0C,66,
11317645,00000140,false,Rx,0,8,FF,FF,01,6A,20,00,0C,55,
11327417,00000130,false,Rx,0,8,10,80,1F,7D,00,01,0D,F8,
11327661,00000140,false,Rx,0,8,FF,FF,01,6A,20,00,0D,48,
11337484,00000130,false,Rx,0,8,0E,80,16,7D,00,01,0E,7A,
11337718,00000140,false,Rx,0,8,FF,FF,01,6A,20,00,0E,6F,
11347417,00000130,false,Rx,0,8,0C,80,0F,7D,00,01,0F,2E,
11347651,00000140,false,Rx,0,8,FF,FF,01,6A,20,00,0F,72,
11357422,00000130,false,Rx,0,8,0C,80,16,7D,00,01,00,66,
11357666,00000140,false,Rx,0,8,FF,FF,01,6A,20,00,00,C9,
11367427,00000130,false,Rx,0,8,09,80,22,7D,00,01,01,D5,
11367671,00000140,false,Rx,0,8,FF,FF,01,6A,20,00,01,D4,
11377286,00000500,false,Rx,0,1,0C,00,00,00,00,00,00,00,
11377519,00000130,false,Rx,0,8,10,80,1E,7D,00,01,02,29,
11377758,00000140,false,Rx,0,8,FF,FF,01,6A,20,00,02,F3,
11377997,00000495,false,Rx,0,8,00,00,12,8A,21,69,2C,64,
11387412,00000130,false,Rx,0,8,14,80,0E,7D,00,01,03,B3,
11387657,00000140,false,Rx,0,8,FF,FF,01,6A,20,00,03,EE,
11397417,00000130,false,Rx,0,8,06,80,0A,7D,00,01,04,56,
11397651,00000140,false,Rx,0,8,FF,FF,01,6A,20,00,04,BD,
11407412,00000130,false,Rx,0,8,06,80,21,7D,00,01,05,43,
11407656,00000140,false,Rx,0,8,FF,FF,01,6A,20,00,05,A0,
11417417,00000130,false,Rx,0,8,04,80,20,7D,00,01,06,B4,
11417651,00000140,false,Rx,0,8,FF,FF,01,6A,20,00,06,87,
11427422,00000130,false,Rx,0,8,FF,7F,24,7D,00,01,07,89,
11427656,00000140,false,Rx,0,8,FF,FF,01,6A,20,00,07,9A,
11437417,00000130,false,Rx,0,8,04,80,22,7D,00,01,08,C6,
11437661,00000140,false,Rx,0,8,FF,FF,01,6A,20,00,08,21,
11447411,00000130,false,Rx,0,8,05,80,12,7D,00,01,09,A9,
11447655,00000140,false,Rx,0,8,FF,FF,01,6A,20,00,09,3C,
11457436,00000130,false,Rx,0,8,07,80,1C,7D,00,01,0A,22,
11457680,00000140,false,Rx,0,8,FF,FF,01,6A,20,00,0A,1B,
11467422,00000130,false,Rx,0,8,0A,80,25,7D,00,01,0B,EB,
11467656,00000140,false,Rx,0,8,FF,FF,01,6A,20,00,0B,06,
11477290,00000500,false,Rx,0,1,0C,00,00,00,00,00,00,00,
11477534,00000130,false,Rx,0,8,08,80,1C,7D,00,01,0C,30,
11477773,00000140,false,Rx,0,8,FF,FF,01,6A,20,00,0C,55,
11478001,00000495,false,Rx,0,8,00,00,12,8A,21,69,2C,64,
11487417,00000130,false,Rx,0,8,13,80,21,7D,00,01,0D,26,
11487651,00000140,false,Rx,0,8,FF,FF,01,6A,20,00,0D,48,
11497411,00000130,false,Rx,0,8,15,80,14,7D,00,01,0E,22,
11497656,00000140,false,Rx,0,8,FF,FF,01,6A,20,00,0E,6F,
11507417,00000130,false,Rx,0,8,0C,80,0D,7D,00,01,0F,FA,
11507651,00000140,false,Rx,0,8,FF,FF,01,6A,20,00,0F,72,
11517411,00000130,false,Rx,0,8,12,80,16,7D,00,01,00,DE,
11517655,00000140,false,Rx,0,8,FF,FF,01,6A,20,00,00,C9,
11527416,00000130,false,Rx,0,8,0D,80,22,7D,00,01,01,BC,
11527662,00000140,false,Rx,0,8,FF,FF,01,6A,20,00,01,D4,
11537556,00000130,false,Rx,0,8,0C,80,27,7D,00,01,02,19,
11537792,00000140,false,Rx,0,8,FF,FF,01,6A,20,00,02,F3,
11547416,00000130,false,Rx,0,8,08,80,1F,7D,00,01,03,35,
11547651,00000140,false,Rx,0,8,FF,FF,01,6A,20,00,03,EE,
11557421,00000130,false,Rx,0,8,0D,80,14,7D,00,01,04,9B,
11557656,00000140,false,Rx,0,8,FF,FF,01,6A,20,00,04,BD,
11567416,00000130,false,Rx,0,8,15,80,15,7D,00,01,05,87,
11567662,00000140,false,Rx,0,8,FF,FF,01,6A,20,00,05,A0,
11577286,00000500,false,Rx,0,1,0C,00,00,00,00,00,00,00,
11577519,00000130,false,Rx,0,8,1B,80,12,7D,00,01,06,AA,
11577758,00000140,false,Rx,0,8,FF,FF,01,6A,20,00,06,87,
11577997,00000495,false,Rx,0,8,00,00,12,8A,21,69,2C,64,
11587412,00000130,false,Rx,0,8,1B,80,23,7D,00,01,07,F2,
11587657,00000140,false,Rx,0,8,FF,FF,01,6A,20,00,07,9A,
11597416,00000130,false,Rx,0,8,12,80,32,7D,00,01,08,42,
11597651,00000140,false,Rx,0,8,FF,FF,01,6A,20,00,08,21,
11607411,00000130,false,Rx,0,8,0A,80,1D,7D,00,01,09,89,
11607646,00000140,false,Rx,0,8,FF,FF,01,6A,20,00,09,3C,
11617416,00000130,false,Rx,0,8,0F,80,04,7D,00,01,0A,69,
11617652,00000140,false,Rx,0,8,FF,FF,01,6A,20,00,0A,1B,
11627421,00000130,false,Rx,0,8,10,80,11,7D,00,01,0B,A0,
11627657,00000140,false,Rx,0,8,FF,FF,01,6A,20,00,0B,06,
11637416,00000130,false,Rx,0,8,14,80,26,7D,00,01,0C,BE,
11637652,00000140,false,Rx,0,8,FF,FF,01,6A,20,00,0C,55,
11647411,00000130,false,Rx,0,8,14,80,26,7D,00,01,0D,A3,
11647647,00000140,false,Rx,0,8,FF,FF,01,6A,20,00,0D,48,
11657438,00000130,false,Rx,0,8,13,80,20,7D,00,01,0E,6B,
11657672,00000140,false,Rx,0,8,FF,FF,01,6A,20,00,0E,6F,
11667411,00000130,false,Rx,0,8,1C,80,1B,7D,00,01,0F,CC,
11667656,00000140,false,Rx,0,8,FF,FF,01,6A,20,00,0F,72,
11677280,00000500,false,Rx,0,1,0C,00,00,00,00,00,00,00,
11677525,00000130,false,Rx,0,8,13,80,2B,7D,00,01,00,04,
11677763,00000140,false,Rx,0,8,FF,FF,01,6A,20,00,00,C9,
11678001,00000495,false,Rx,0,8,00,00,12,8A,21,69,2C,64,
11687418,00000130,false,Rx,0,8,0F,80,2C,7D,00,01,01,10,
11687652,00000140,false,Rx,0,8,FF,FF,01,6A,20,00,01,D4,
11697412,00000130,false,Rx,0,8,09,80,21,7D,00,01,02,4C,
11697646,00000140,false,Rx,0,8,FF,FF,01,6A,20,00,02,F3,
11707418,00000130,false,Rx,0,8,08,80,20,7D,00,01,03,66,
11707652,00000140,false,Rx,0,8,FF,FF,01,6A,20,00,03,EE,
11717412,00000130,false,Rx,0,8,0B,80,12,7D,00,01,04,29,
11717646,00000140,false,Rx,0,8,FF,FF,01,6A,20,00,04,BD,
11727417,00000130,false,Rx,0,8,16,80,0D,7D,00,01,05,F9,
11727661,00000140,false,Rx,0,8,FF,FF,01,6A,20,00,05,A0,
11737557,00000130,false,Rx,0,8,20,80,09,7D,00,01,06,6E,
11737801,00000140,false,Rx,0,8,FF,FF,01,6A,20,00,06,87,
11747417,00000130,false,Rx,0,8,1C,80,1A,7D,00,01,07,4E,
11747661,00000140,false,Rx,0,8,FF,FF,01,6A,20,00,07,9A,
11757422,00000130,false,Rx,0,8,0C,80,26,7D,00,01,08,A1,
11757656,00000140,false,Rx,0,8,FF,FF,01,6A,20,00,08,21,
11767417,00000130,false,Rx,0,8,FE,7F,22,7D,00,01,09,13,
11767651,00000140,false,Rx,0,8,FF,FF,01,6A,20,00,09,3C,
11777287,00000500,false,Rx,0,1,0C,00,00,00,00,00,00,00,
11777520,00000130,false,Rx,0,8,03,80,15,7D,00,01,0A,56,
11777758,00000140,false,Rx,0,8,FF,FF,01,6A,20,00,0A,1B,
11777996,00000495,false,Rx,0,8,00,00,12,8A,21,69,2C,64,
11787412,00000130,false,Rx,0,8,0C,80,2A,7D,00,01,0B,44,
11787656,00000140,false,Rx,0,8,FF,FF,01,6A,20,00,0B,06,
11797407,00000130,false,Rx,0,8,13,80,2A,7D,00,01,0C,F2,
11797651,00000140,false,Rx,0,8,FF,FF,01,6A,20,00,0C,55,
11807412,00000130,false,Rx,0,8,0F,80,23,7D,00,01,0D,F0,
11807656,00000140,false,Rx,0,8,FF,FF,01,6A,20,00,0D,48,
11817406,00000130,false,Rx,0,8,12,80,2A,7D,00,01,0E,95,
11817650,00000140,false,Rx,0,8,FF,FF,01,6A,20,00,0E,6F,
11827420,00000130,false,Rx,0,8,11,80,1F,7D,00,01,0F,9F,
11827664,00000140,false,Rx,0,8,FF,FF,01,6A,20,00,0F,72,
11837413,00000130,false,Rx,0,8,14,80,1B,7D,00,01,00,A5,
11837657,00000140,false,Rx,0,8,FF,FF,01,6A,20,00,00,C9,
11847416,00000130,false,Rx,0,8,19,80,0E,7D,00,01,01,6F,
11847651,00000140,false,Rx,0,8,FF,FF,01,6A,20,00,01,D4,
11857431,00000130,false,Rx,0,8,1C,80,FC,7C,00,01,02,A6,
11857676,00000140,false,Rx,0,8,FF,FF,01,6A,20,00,02,F3,
11867438,00000130,false,Rx,0,8,12,80,F6,7C,00,01,03,19,
11867672,00000140,false,Rx,0,8,FF,FF,01,6A,20,00,03,EE,
11877276,00000500,false,Rx,0,1,0C,00,00,00,00,00,00,00,
11877520,00000130,false,Rx,0,8,08,80,04,7D,00,01,04,41,
11877564,000005A0,false,Rx,1,8,00,00,00,C0,20,50,96,0C,
11877760,00000140,false,Rx,0,8,FF,FF,01,6A,20,00,04,BD,
11877999,00000495,false,Rx,0,8,00,00,12,8A,21,69,2C,64,
11887416,00000130,false,Rx,0,8,07,80,05,7D,00,01,05,6A,
11887661,00000140,false,Rx,0,8,FF,FF,01,6A,20,00,05,A0,
11897411,00000130,false,Rx,0,8,0F,80,10,7D,00,01,06,AE,
11897656,00000140,false,Rx,0,8,FF,FF,01,6A,20,00,06,87,
11907407,00000130,false,Rx,0,8,10,80,1F,7D,00,01,07,2A,
11907651,00000140,false,Rx,0,8,FF,FF,01,6A,20,00,07,9A,
11917401,00000130,false,Rx,0,8,0F,80,28,7D,00,01,08,50,
11917646,00000140,false,Rx,0,8,FF,FF,01,6A,20,00,08,21,
11927417,00000130,false,Rx,0,8,0C,80,12,7D,00,01,09,26,
11927651,00000140,false,Rx,0,8,FF,FF,01,6A,20,00,09,3C,
11937484,00000130,false,Rx,0,8,12,80,F8,7C,00,01,0A,FA,
11937718,00000140,false,Rx,0,8,FF,FF,01,6A,20,00,0A,1B,
11947416,00000130,false,Rx,0,8,20,80,FA,7C,00,01,0B,5F,
11947651,00000140,false,Rx,0,8,FF,FF,01,6A,20,00,0B,06,
11957411,00000130,false,Rx,0,8,1C,80,FF,7C,00,01,0C,BE,
11957656,00000140,false,Rx,0,8,FF,FF,01,6A,20,00,0C,55,
11967406,00000130,false,Rx,0,8,14,80,FA,7C,00,01,0D,AE,
11967651,00000140,false,Rx,0,8,FF,FF,01,6A,20,00,0D,48,
11977286,00000500,false,Rx,0,1,0C,00,00,00,00,00,00,00,
11977520,00000130,false,Rx,0,8,10,80,FE,7C,00,01,0E,55,
11977759,00000140,false,Rx,0,8,FF,FF,01,6A,20,00,0E,6F,
11977997,00000495,false,Rx,0,8,00,00,12,8A,21,69,2C,64,
11987421,00000130,false,Rx,0,8,08,80,02,7D,00,01,0F,EF,
11987656,00000140,false,Rx,0,8,FF,FF,01,6A,20,00,0F,72,
11997406,00000130,false,Rx,0,8,FB,7F,1A,7D,00,01,00,8A,
11997651,00000140,false,Rx,0,8,FF,FF,01,6A,20,00,00,C9,
12007411,00000130,false,Rx,0,8,F3,7F,20,7D,00,01,01,C9,
12007647,00000140,false,Rx,0,8,FF,FF,01,6A,20,00,01,D4,
12017406,00000130,false,Rx,0,8,02,80,23,7D,00,01,02,AD,
12017642,00000140,false,Rx,0,8,FF,FF,01,6A,20,00,02,F3,
12027422,00000130,false,Rx,0,8,13,80,12,7D,00,01,03,11,
12027657,00000140,false,Rx,0,8,FF,FF,01,6A,20,00,03,EE,
12037416,00000130,false,Rx,0,8,15,80,06,7D,00,01,04,CA,
12037652,00000140,false,Rx,0,8,FF,FF,01,6A,20,00,04,BD,
12047411,00000130,false,Rx,0,8,07,80,11,7D,00,01,05,31,
12047657,00000140,false,Rx,0,8,FF,FF,01,6A,20,00,05,A0,
12057437,00000130,false,Rx,0,8,03,80,21,7D,00,01,06,50,
12057683,00000140,false,Rx,0,8,FF,FF,01,6A,20,00,06,87,
12067411,00000130,false,Rx,0,8,08,80,29,7D,00,01,07,0F,
12067657,00000140,false,Rx,0,8,FF,FF,01,6A,20,00,07,9A,
12077291,00000500,false,Rx,0,1,0C,00,00,00,00,00,00,00,
12077524,00000130,false,Rx,0,8,0A,80,22,7D,00,01,08,C7,
12077764,00000140,false,Rx,0,8,FF,FF,01,6A,20,00,08,21,
12078002,00000495,false,Rx,0,8,00,00,12,8A,21,69,2C,64,
12087416,00000130,false,Rx,0,8,0C,80,1E,7D,00,01,09,E4,
12087651,00000140,false,Rx,0,8,FF,FF,01,6A,20,00,09,3C,
12097411,00000130,false,Rx,0,8,06,80,29,7D,00,01,0A,8F,
12097646,00000140,false,Rx,0,8,FF,FF,01,6A,20,00,0A,1B,
12107406,00000130,false,Rx,0,8,03,80,29,7D,00,01,0B,A6,
12107641,00000140,false,Rx,0,8,FF,FF,01,6A,20,00,0B,06,
12117410,00000130,false,Rx,0,8,09,80,14,7D,00,01,0C,1A,
12117646,00000140,false,Rx,0,8,FF,FF,01,6A,20,00,0C,55,
12127416,00000130,false,Rx,0,8,0E,80,13,7D,00,01,0D,82,
12127652,00000140,false,Rx,0,8,FF,FF,01,6A,20,00,0D,48,
12137547,00000130,false,Rx,0,8,0B,80,18,7D,00,01,0E,58,
12137792,00000140,false,Rx,0,8,FF,FF,01,6A,20,00,0E,6F,
12147406,00000130,false,Rx,0,8,09,80,1A,7D,00,01,0F,2B,
12147652,00000140,false,Rx,0,8,FF,FF,01,6A,20,00,0F,72,
12157422,00000130,false,Rx,0,8,0A,80,06,7D,00,01,00,5B,
12157656,00000140,false,Rx,0,8,FF,FF,01,6A,20,00,00,C9,
12167418,00000130,false,Rx,0,8,0D,80,04,7D,00,01,01,1C,
12167662,00000140,false,Rx,0,8,FF,FF,01,6A,20,00,01,D4,
12177275,00000500,false,Rx,0,1,0C,00,00,00,00,00,00,00,
12177520,00000130,false,Rx,0,8,08,80,07,7D,00,01,02,B1,
12177758,00000140,false,Rx,0,8,FF,FF,01,6A,20,00,02,F3,
12177986,00000495,false,Rx,0,8,00,00,12,8A,21,69,2C,64,
12187411,00000130,false,Rx,0,8,08,80,08,7D,00,01,03,D0,
12187656,00000140,false,Rx,0,8,FF,FF,01,6A,20,00,03,EE,
12197406,00000130,false,Rx,0,8,0B,80,21,7D,00,01,04,B8,
12197640,00000140,false,Rx,0,8,FF,FF,01,6A,20,00,04,BD,
12207412,00000130,false,Rx,0,8,0F,80,34,7D,00,01,05,FD,
12207657,00000140,false,Rx,0,8,FF,FF,01,6A,20,00,05,A0,
12217408,00000130,false,Rx,0,8,0E,80,2E,7D,00,01,06,CA,
12217642,00000140,false,Rx,0,8,FF,FF,01,6A,20,00,06,87,
12227412,00000130,false,Rx,0,8,0C,80,1A,7D,00,01,07,F7,
12227656,00000140,false,Rx,0,8,FF,FF,01,6A,20,00,07,9A,
12237406,00000130,false,Rx,0,8,02,80,09,7D,00,01,08,1D,
12237651,00000140,false,Rx,0,8,FF,FF,01,6A,20,00,08,21,
12247412,00000130,false,Rx,0,8,FE,7F,18,7D,00,01,09,9F,
12247656,00000140,false,Rx,0,8,FF,FF,01,6A,20,00,09,3C,
12257427,00000130,false,Rx,0,8,02,80,16,7D,00,01,0A,B5,
12257671,00000140,false,Rx,0,8,FF,FF,01,6A,20,00,0A,1B,
12267402,00000130,false,Rx,0,8,0A,80,13,7D,00,01,0B,A5,
12267646,00000140,false,Rx,0,8,FF,FF,01,6A,20,00,0B,06,
12277281,00000500,false,Rx,0,1,0C,00,00,00,00,00,00,00,
12277515,00000130,false,Rx,0,8,12,80,2B,7D,00,01,0C,C5,
12277753,00000140,false,Rx,0,8,FF,FF,01,6A,20,00,0C,55,
12277992,00000495,false,Rx,0,8,00,00,12,8A,21,69,2C,64,
12287407,00000130,false,Rx,0,8,14,80,40,7D,00,01,0D,9C,
12287641,00000140,false,Rx,0,8,FF,FF,01,6A,20,00,0D,48,
12297402,00000130,false,Rx,0,8,12,80,2F,7D,00,01,0E,4A,
12297646,00000140,false,Rx,0,8,FF,FF,01,6A,20,00,0E,6F,
12307406,00000130,false,Rx,0,8,10,80,1F,7D,00,01,0F,C2,
12307640,00000140,false,Rx,0,8,FF,FF,01,6A,20,00,0F,72,
12317412,00000130,false,Rx,0,8,16,80,1F,7D,00,01,00,AA,
12317646,00000140,false,Rx,0,8,FF,FF,01,6A,20,00,00,C9,
12327416,00000130,false,Rx,0,8,13,80,29,7D,00,01,01,CD,
12327651,00000140,false,Rx,0,8,FF,FF,01,6A,20,00,01,D4,
12337556,00000130,false,Rx,0,8,05,80,23,7D,00,01,02,23,
12337790,00000140,false,Rx,0,8,FF,FF,01,6A,20,00,02,F3,
12347417,00000130,false,Rx,0,8,0D,80,1E,7D,00,01,03,6B,
12347651,00000140,false,Rx,0,8,FF,FF,01,6A,20,00,03,EE,
12357412,00000130,false,Rx,0,8,14,80,38,7D,00,01,04,AE,
12357656,00000140,false,Rx,0,8,FF,FF,01,6A,20,00,04,BD,
12367428,00000130,false,Rx,0,8,14,80,46,7D,00,01,05,15,
12367673,00000140,false,Rx,0,8,FF,FF,01,6A,20,00,05,A0,
12377286,00000500,false,Rx,0,1,0C,00,00,00,00,00,00,00,
12377520,00000130,false,Rx,0,8,0A,80,36,7D,00,01,06,3A,
12377758,00000140,false,Rx,0,8,FF,FF,01,6A,20,00,06,87,
12377997,00000495,false,Rx,0,8,00,00,12,8A,21,69,2C,64,
12387412,00000130,false,Rx,0,8,05,80,38,7D,00,01,07,6D,
12387656,00000140,false,Rx,0,8,FF,FF,01,6A,20,00,07,9A,
12397406,00000130,false,Rx,0,8,07,80,3E,7D,00,01,08,0D,
12397651,00000140,false,Rx,0,8,FF,FF,01,6A,20,00,08,21,
12407401,00000130,false,Rx,0,8,06,80,38,7D,00,01,09,2C,
12407646,00000140,false,Rx,0,8,FF,FF,01,6A,20,00,09,3C,
12417405,00000130,false,Rx,0,8,07,80,35,7D,00,01,0A,FE,
12417639,00000140,false,Rx,0,8,FF,FF,01,6A,20,00,0A,1B,
12427419,00000130,false,Rx,0,8,0F,80,3A,7D,00,01,0B,4D,
12427653,00000140,false,Rx,0,8,FF,FF,01,6A,20,00,0B,06,
12437412,00000130,false,Rx,0,8,19,80,33,7D,00,01,0C,69,
12437656,00000140,false,Rx,0,8,FF,FF,01,6A,20,00,0C,55,
12447406,00000130,false,Rx,0,8,0C,80,20,7D,00,01,0D,A9,
12447640,00000140,false,Rx,0,8,FF,FF,01,6A,20,00,0D,48,
12457432,00000130,false,Rx,0,8,01,80,29,7D,00,01,0E,75,
12457677,00000140,false,Rx,0,8,FF,FF,01,6A,20,00,0E,6F,
12467406,00000130,false,Rx,0,8,08,80,31,7D,00,01,0F,7E,
12467640,00000140,false,Rx,0,8,FF,FF,01,6A,20,00,0F,72,
12477275,00000500,false,Rx,0,1,0C,00,00,00,00,00,00,00,
12477519,00000130,false,Rx,0,8,0E,80,31,7D,00,01,00,16,
12477758,00000140,false,Rx,0,8,FF,FF,01,6A,20,00,00,C9,
12477996,00000495,false,Rx,0,8,00,00,12,8A,21,69,2C,64,
12487401,00000130,false,Rx,0,8,11,80,35,7D,00,01,01,5B,
12487646,00000140,false,Rx,0,8,FF,FF,01,6A,20,00,01,D4,
12497406,00000130,false,Rx,0,8,11,80,36,7D,00,01,02,C2,
12497641,00000140,false,Rx,0,8,FF,FF,01,6A,20,00,02,F3,
12507401,00000130,false,Rx,0,8,12,80,2D,7D,00,01,03,1F,
12507647,00000140,false,Rx,0,8,FF,FF,01,6A,20,00,03,EE,
12517416,00000130,false,Rx,0,8,12,80,1C,7D,00,01,04,09,
12517652,00000140,false,Rx,0,8,FF,FF,01,6A,20,00,04,BD,
12527411,00000130,false,Rx,0,8,16,80,12,7D,00,01,05,6B,
12527657,00000140,false,Rx,0,8,FF,FF,01,6A,20,00,05,A0,
12537478,00000130,false,Rx,0,8,15,80,09,7D,00,01,06,8C,
12537714,00000140,false,Rx,0,8,FF,FF,01,6A,20,00,06,87,
12547411,00000130,false,Rx,0,8,0A,80,FE,7C,00,01,07,71,
12547646,00000140,false,Rx,0,8,FF,FF,01,6A,20,00,07,9A,
12557416,00000130,false,Rx,0,8,0C,80,FD,7C,00,01,08,A7,
12557651,00000140,false,Rx,0,8,FF,FF,01,6A,20,00,08,21,
12567400,00000130,false,Rx,0,8,0A,80,F4,7C,00,01,09,74,
12567646,00000140,false,Rx,0,8,FF,FF,01,6A,20,00,09,3C,
12577269,00000500,false,Rx,0,1,0C,00,00,00,00,00,00,00,
12577514,00000130,false,Rx,0,8,FE,7F,F3,7C,00,01,0A,91,
12577752,00000140,false,Rx,0,8,FF,FF,01,6A,20,00,0A,1B,
12577980,00000495,false,Rx,0,8,00,00,12,8A,21,69,2C,64,
12587406,00000130,false,Rx,0,8,06,80,F9,7C,00,01,0B,5D,
12587641,00000140,false,Rx,0,8,FF,FF,01,6A,20,00,0B,06,
12597401,00000130,false,Rx,0,8,12,80,00,7D,00,01,0C,CD,
12597646,00000140,false,Rx,0,8,FF,FF,01,6A,20,00,0C,55,
12607406,00000130,false,Rx,0,8,19,80,0F,7D,00,01,0D,99,
12607641,00000140,false,Rx,0,8,FF,FF,01,6A,20,00,0D,48,
12617401,00000130,false,Rx,0,8,11,80,21,7D,00,01,0E,BB,
12617646,00000140,false,Rx,0,8,FF,FF,01,6A,20,00,0E,6F,
12627406,00000130,false,Rx,0,8,0A,80,27,7D,00,01,0F,4B,
12627651,00000140,false,Rx,0,8,FF,FF,01,6A,20,00,0F,72,
12637412,00000130,false,Rx,0,8,0C,80,1C,7D,00,01,00,C5,
12637656,00000140,false,Rx,0,8,FF,FF,01,6A,20,00,00,C9,
12647407,00000130,false,Rx,0,8,08,80,17,7D,00,01,01,78,
12647652,00000140,false,Rx,0,8,FF,FF,01,6A,20,00,01,D4,
12657433,00000130,false,Rx,0,8,0C,80,1E,7D,00,01,02,2B,
12657677,00000140,false,Rx,0,8,FF,FF,01,6A,20,00,02,F3,
12667418,00000130,false,Rx,0,8,13,80,2A,7D,00,01,03,49,
12667652,00000140,false,Rx,0,8,FF,FF,01,6A,20,00,03,EE,
12677286,00000500,false,Rx,0,1,0C,00,00,00,00,00,00,00,
12677520,00000130,false,Rx,0,8,1B,80,32,7D,00,01,04,51,
12677758,00000140,false,Rx,0,8,FF,FF,01,6A,20,00,04,BD,
12677997,00000495,false,Rx,0,8,00,00,12,8A,21,69,2C,64,
12687412,00000130,false,Rx,0,8,17,80,34,7D,00,01,05,96,
12687646,00000140,false,Rx,0,8,FF,FF,01,6A,20,00,05,A0,
12697407,00000130,false,Rx,0,8,14,80,2E,7D,00,01,06,1B,
12697641,00000140,false,Rx,0,8,FF,FF,01,6A,20,00,06,87,
12707412,00000130,false,Rx,0,8,0A,80,17,7D,00,01,07,8C,
12707656,00000140,false,Rx,0,8,FF,FF,01,6A,20,00,07,9A,
12717406,00000130,false,Rx,0,8,04,80,10,7D,00,01,08,3D,
12717651,00000140,false,Rx,0,8,FF,FF,01,6A,20,00,08,21,
12727401,00000130,false,Rx,0,8,F7,7F,17,7D,00,01,09,6C,
12727646,00000140,false,Rx,0,8,FF,FF,01,6A,20,00,09,3C,
12737551,00000130,false,Rx,0,8,FF,7F,0F,7D,00,01,0A,00,
12737785,00000140,false,Rx,0,8,FF,FF,01,6A,20,00,0A,1B,
12747402,00000130,false,Rx,0,8,12,80,FD,7C,00,01,0B,38,
12747646,00000140,false,Rx,0,8,FF,FF,01,6A,20,00,0B,06,
12757407,00000130,false,Rx,0,8,17,80,FF,7C,00,01,0C,8B,
12757651,00000140,false,Rx,0,8,FF,FF,01,6A,20,00,0C,55,
12767412,00000130,false,Rx,0,8,14,80,03,7D,00,01,0D,BD,
12767646,00000140,false,Rx,0,8,FF,FF,01,6A,20,00,0D,48,
12777270,00000500,false,Rx,0,1,0C,00,00,00,00,00,00,00,
12777514,00000130,false,Rx,0,8,00,80,0A,7D,00,01,0E,57,
12777752,00000140,false,Rx,0,8,FF,FF,01,6A,20,00,0E,6F,
12777992,00000495,false,Rx,0,8,00,00,12,8A,21,69,2C,64,
12787406,00000130,false,Rx,0,8,F8,7F,0D,7D,00,01,0F,33,
12787651,00000140,false,Rx,0,8,FF,FF,01,6A,20,00,0F,72,
12797401,00000130,false,Rx,0,8,03,80,13,7D,00,01,00,E5,
12797646,00000140,false,Rx,0,8,FF,FF,01,6A,20,00,00,C9,
12807406,00000130,false,Rx,0,8,06,80,1C,7D,00,01,01,B0,
12807640,00000140,false,Rx,0,8,FF,FF,01,6A,20,00,01,D4,
12817399,00000130,false,Rx,0,8,03,80,18,7D,00,01,02,16,
12817643,00000140,false,Rx,0,8,FF,FF,01,6A,20,00,02,F3,
12827413,00000130,false,Rx,0,8,0A,80,16,7D,00,01,03,92,
12827647,00000140,false,Rx,0,8,FF,FF,01,6A,20,00,03,EE,
12837406,00000130,false,Rx,0,8,09,80,0A,7D,00,01,04,0A,
12837651,00000140,false,Rx,0,8,FF,FF,01,6A,20,00,04,BD,
12847401,00000130,false,Rx,0,8,04,80,0B,7D,00,01,05,9B,
12847645,00000140,false,Rx,0,8,FF,FF,01,6A,20,00,05,A0,
12857427,00000130,false,Rx,0,8,0F,80,22,7D,00,01,06,55,
12857672,00000140,false,Rx,0,8,FF,FF,01,6A,20,00,06,87,
12867422,00000130,false,Rx,0,8,11,80,2D,7D,00,01,07,8C,
12867667,00000140,false,Rx,0,8,FF,FF,01,6A,20,00,07,9A,
12877281,00000500,false,Rx,0,1,0C,00,00,00,00,00,00,00,
12877514,00000130,false,Rx,0,8,0F,80,33,7D,00,01,08,77,
12877548,000005A0,false,Rx,1,8,00,00,00,C0,20,29,93,0C,
12877754,00000140,false,Rx,0,8,FF,FF,01,6A,20,00,08,21,
12877993,00000495,false,Rx,0,8,00,00,12,8A,21,69,2C,64,
12887401,00000130,false,Rx,0,8,14,80,27,7D,00,01,09,BD,
12887636,00000140,false,Rx,0,8,FF,FF,01,6A,20,00,09,3C,
12897396,00000130,false,Rx,0,8,02,80,21,7D,00,01,0A,91,
12897640,00000140,false,Rx,0,8,FF,FF,01,6A,20,00,0A,1B,
12907402,00000130,false,Rx,0,8,F9,7F,26,7D,00,01,0B,12,
12907636,00000140,false,Rx,0,8,FF,FF,01,6A,20,00,0B,06,
12917396,00000130,false,Rx,0,8,FF,7F,29,7D,00,01,0C,EE,
12917641,00000140,false,Rx,0,8,FF,FF,01,6A,20,00,0C,55,
12927411,00000130,false,Rx,0,8,09,80,2C,7D,00,01,0D,5F,
12927645,00000140,false,Rx,0,8,FF,FF,01,6A,20,00,0D,48,
12937551,00000130,false,Rx,0,8,0C,80,2E,7D,00,01,0E,98,
12937786,00000140,false,Rx,0,8,FF,FF,01,6A,20,00,0E,6F,
12947411,00000130,false,Rx,0,8,12,80,25,7D,00,01,0F,F4,
12947645,00000140,false,Rx,0,8,FF,FF,01,6A,20,00,0F,72,
