Time Stamp,ID,Extended,Dir,Bus,LEN,D1,D2,D3,D4,D5,D6,D7,D8
186834037,00000570,false,Rx,0,8,00,00,85,00,00,00,00,00,
186934742,00000570,false,Rx,0,8,00,00,85,00,00,00,00,00,
187034752,00000570,false,Rx,0,8,00,00,85,00,00,00,00,00,
187134772,00000570,false,Rx,0,8,00,00,85,00,00,00,00,00,
187234762,00000570,false,Rx,0,8,00,00,85,00,00,00,00,00,
187334753,00000570,false,Rx,0,8,00,00,85,00,00,00,00,00,
187434753,00000570,false,Rx,0,8,00,00,85,00,00,00,00,00,
187534752,00000570,false,Rx,0,8,00,00,85,00,00,00,00,00,
187634762,00000570,false,Rx,0,8,00,00,85,00,00,00,00,00,
187734777,00000570,false,Rx,0,8,00,00,85,00,00,00,00,00,
187834771,00000570,false,Rx,0,8,00,00,85,00,00,00,00,00,
187934773,00000570,false,Rx,0,8,00,00,85,00,00,00,00,00,
188034762,00000570,false,Rx,0,8,00,00,85,00,00,00,00,00,
188134772,00000570,false,Rx,0,8,00,00,85,00,00,00,00,00,
188234774,00000570,false,Rx,0,8,00,00,85,00,00,00,00,00,
188334794,00000570,false,Rx,0,8,00,00,85,00,00,00,00,00,
188434794,00000570,false,Rx,0,8,00,00,85,00,00,00,00,00,
188534783,00000570,false,Rx,0,8,00,00,85,00,00,00,00,00,
188634772,00000570,false,Rx,0,8,00,00,85,00,00,00,00,00,
188734777,00000570,false,Rx,0,8,00,00,85,00,00,00,00,00,
188834784,00000570,false,Rx,0,8,00,00,85,00,00,00,00,00,
188935052,00000570,false,Rx,0,8,00,00,85,00,00,00,00,00,
189035042,00000570,false,Rx,0,8,00,02,85,00,09,01,00,00,
189135042,00000570,false,Rx,0,8,00,09,85,00,0D,03,00,00,
189235036,00000570,false,Rx,0,8,00,0F,85,00,0F,04,00,00,
189335026,00000570,false,Rx,0,8,00,16,85,00,12,06,00,00,
189435018,00000570,false,Rx,0,8,00,1D,85,00,16,08,00,00,
189535007,00000570,false,Rx,0,8,00,27,85,00,19,09,00,00,
189635048,00000570,false,Rx,0,8,00,49,85,00,19,07,00,00,
189735053,00000570,false,Rx,0,8,00,49,85,00,19,05,00,00,
189835207,00000570,false,Rx,0,8,00,48,85,00,19,04,00,00,
189935201,00000570,false,Rx,0,8,00,50,85,00,1A,03,00,00,
190035197,00000570,false,Rx,0,8,00,5B,85,00,1E,02,00,00,
190135187,00000570,false,Rx,0,8,00,65,85,00,21,02,00,00,
190235181,00000570,false,Rx,0,8,00,6D,85,00,24,01,00,00,
190335236,00000570,false,Rx,0,8,00,75,85,00,27,01,00,00,
190435227,00000570,false,Rx,0,8,00,7B,85,00,29,01,00,00,
190535216,00000570,false,Rx,0,8,00,80,85,00,2B,01,00,00,
190635206,00000570,false,Rx,0,8,00,85,85,00,2D,01,00,00,
190735207,00000570,false,Rx,0,8,00,88,85,00,2E,01,00,00,
190835197,00000570,false,Rx,0,8,00,8B,85,00,2F,01,00,00,
190935198,00000570,false,Rx,0,8,00,8D,85,00,30,01,00,00,
191035239,00000570,false,Rx,0,8,00,8E,85,00,31,01,00,00,
191135239,00000570,false,Rx,0,8,00,8F,85,00,31,01,00,00,
191235231,00000570,false,Rx,0,8,00,90,85,00,31,01,00,00,
191335219,00000570,false,Rx,0,8,00,90,85,00,31,01,00,00,
191435210,00000570,false,Rx,0,8,00,8F,85,00,31,01,00,00,
191535207,00000570,false,Rx,0,8,00,8E,85,00,31,01,00,00,
191635248,00000570,false,Rx,0,8,00,8D,85,00,30,01,00,00,
191735253,00000570,false,Rx,0,8,00,8B,85,00,30,01,00,00,
191835245,00000570,false,Rx,0,8,00,8A,85,00,30,01,00,00,
191935236,00000570,false,Rx,0,8,00,89,85,00,2F,01,00,00,
192035224,00000570,false,Rx,0,8,00,89,85,00,2F,01,00,00,
192135224,00000570,false,Rx,0,8,00,88,85,00,2F,01,00,00,
192235218,00000570,false,Rx,0,8,00,87,85,00,2E,00,00,00,
192335270,00000570,false,Rx,0,8,00,86,85,00,2E,00,00,00,
192435252,00000570,false,Rx,0,8,00,85,85,00,2E,00,00,00,
192535249,00000570,false,Rx,0,8,00,84,85,00,2D,00,00,00,
192635238,00000570,false,Rx,0,8,00,82,85,00,2D,00,00,00,
192735233,00000570,false,Rx,0,8,00,81,85,00,2C,00,00,00,
192835237,00000570,false,Rx,0,8,00,7F,85,00,2C,00,00,00,
192935228,00000570,false,Rx,0,8,00,7E,85,00,2B,00,00,00,
193035280,00000570,false,Rx,0,8,00,7D,85,00,2B,00,00,00,
193135269,00000570,false,Rx,0,8,00,7C,85,00,2A,00,00,00,
193235252,00000570,false,Rx,0,8,00,7B,85,00,2A,00,00,00,
193335259,00000570,false,Rx,0,8,00,7A,85,00,2A,00,00,00,
193435250,00000570,false,Rx,0,8,00,7A,85,00,2A,00,00,00,
193535239,00000570,false,Rx,0,8,00,78,85,00,29,00,00,00,
193635290,00000570,false,Rx,0,8,00,77,85,00,29,00,00,00,
193735284,00000570,false,Rx,0,8,00,76,85,00,28,00,00,00,
193835270,00000570,false,Rx,0,8,00,75,85,00,28,00,00,00,
193935269,00000570,false,Rx,0,8,00,74,85,00,28,00,00,00,
194035259,00000570,false,Rx,0,8,00,72,85,00,27,00,00,00,
194135259,00000570,false,Rx,0,8,00,71,85,00,27,00,00,00,
194235295,00000570,false,Rx,0,8,00,70,85,00,26,00,00,00,
194335296,00000570,false,Rx,0,8,00,6F,85,00,26,00,00,00,
194435286,00000570,false,Rx,0,8,00,6F,85,00,26,00,00,00,
194535286,00000570,false,Rx,0,8,00,6E,85,00,26,00,00,00,
194635275,00000570,false,Rx,0,8,00,6D,85,00,25,00,00,00,
194735269,00000570,false,Rx,0,8,00,6C,85,00,25,00,00,00,
194835259,00000570,false,Rx,0,8,00,6B,85,00,24,00,00,00,
194935311,00000570,false,Rx,0,8,00,69,85,00,24,00,00,00,
195035300,00000570,false,Rx,0,8,00,68,85,00,24,00,00,00,
195135291,00000570,false,Rx,0,8,02,67,85,00,23,00,00,01,
195235285,00000570,false,Rx,0,8,02,5D,85,00,20,00,00,01,
195335278,00000570,false,Rx,0,8,02,51,85,00,1C,00,00,01,
195435278,00000570,false,Rx,0,8,02,45,85,00,18,00,00,01,
195535321,00000570,false,Rx,0,8,02,39,85,00,14,00,00,01,
195635311,00000570,false,Rx,0,8,02,2E,85,00,10,00,00,11,
195734897,00000570,false,Rx,0,8,02,10,85,00,06,00,00,11,
195834886,00000570,false,Rx,0,8,02,01,85,00,00,00,00,11,
195934887,00000570,false,Rx,0,8,02,00,85,00,00,00,00,11,
196034890,00000570,false,Rx,0,8,02,00,85,00,00,00,00,11,
196134897,00000570,false,Rx,0,8,02,00,85,00,00,00,00,11,
196234920,00000570,false,Rx,0,8,02,00,85,00,00,00,00,11,
196334908,00000570,false,Rx,0,8,02,00,85,00,00,00,00,11,
196434907,00000570,false,Rx,0,8,02,00,85,00,00,00,00,11,
196534897,00000570,false,Rx,0,8,02,00,85,00,00,00,00,11,
196634907,00000570,false,Rx,0,8,02,00,85,00,00,00,00,11,
196734907,00000570,false,Rx,0,8,02,00,85,00,00,00,00,11,
196834908,00000570,false,Rx,0,8,02,00,85,00,00,00,00,11,
196934929,00000570,false,Rx,0,8,02,00,85,00,00,00,00,11,
197034918,00000570,false,Rx,0,8,02,00,85,00,00,00,00,11,
197134918,00000570,false,Rx,0,8,02,00,85,00,00,00,00,11,
197234911,00000570,false,Rx,0,8,02,00,85,00,00,00,00,11,
197334914,00000570,false,Rx,0,8,02,00,85,00,00,00,00,11,
197434915,00000570,false,Rx,0,8,02,00,85,00,00,00,00,11,
197534946,00000570,false,Rx,0,8,02,00,85,00,00,00,00,11,
197634936,00000570,false,Rx,0,8,02,00,85,00,00,00,00,01,
197734926,00000570,false,Rx,0,8,02,00,85,00,00,00,00,01,
197834927,00000570,false,Rx,0,8,02,00,85,00,00,00,00,01,
197934927,00000570,false,Rx,0,8,02,00,85,00,00,00,00,01,
198034928,00000570,false,Rx,0,8,02,00,85,00,00,00,00,01,
198134927,00000570,false,Rx,0,8,02,00,85,00,00,00,00,01,
198234950,00000570,false,Rx,0,8,02,00,85,00,00,00,00,01,
198334939,00000570,false,Rx,0,8,02,00,85,00,00,00,00,01,
198434939,00000570,false,Rx,0,8,02,00,85,00,00,00,00,01,
198534938,00000570,false,Rx,0,8,02,00,85,00,00,00,00,01,
198634938,00000570,false,Rx,0,8,02,00,85,00,00,00,00,01,
198734939,00000570,false,Rx,0,8,02,00,85,00,00,00,00,01,
198834938,00000570,false,Rx,0,8,02,00,85,00,00,00,00,01,
198934959,00000570,false,Rx,0,8,02,00,85,00,00,00,00,01,
199034953,00000570,false,Rx,0,8,02,00,85,00,00,00,00,01,
199134944,00000570,false,Rx,0,8,02,00,85,00,00,00,00,01,
199234947,00000570,false,Rx,0,8,02,00,85,00,00,00,00,01,
199334955,00000570,false,Rx,0,8,02,00,85,00,00,00,00,01,
199434955,00000570,false,Rx,0,8,02,00,85,00,00,00,00,01,
199534979,00000570,false,Rx,0,8,02,00,85,00,00,00,00,01,
199634970,00000570,false,Rx,0,8,02,00,85,00,00,00,00,01,
199734961,00000570,false,Rx,0,8,02,00,85,00,00,00,00,01,
199834959,00000570,false,Rx,0,8,02,00,85,00,00,00,00,01,
199934959,00000570,false,Rx,0,8,02,00,85,00,00,00,00,01,
200034963,00000570,false,Rx,0,8,02,00,85,00,00,00,00,01,
200134968,00000570,false,Rx,0,8,02,00,85,00,00,00,00,01,
200234979,00000570,false,Rx,0,8,02,00,85,00,00,00,00,01,
200334980,00000570,false,Rx,0,8,02,00,85,00,00,00,00,01,
200434969,00000570,false,Rx,0,8,02,00,85,00,00,00,00,01,
200534972,00000570,false,Rx,0,8,02,00,85,00,00,00,00,01,
200634970,00000570,false,Rx,0,8,02,00,85,00,00,00,00,01,
200734971,00000570,false,Rx,0,8,02,00,85,00,00,00,00,01,
200835001,00000570,false,Rx,0,8,02,00,85,00,00,00,00,01,
200934990,00000570,false,Rx,0,8,02,00,85,00,00,00,00,01,
201034983,00000570,false,Rx,0,8,02,00,85,00,00,00,00,01,
201134980,00000570,false,Rx,0,8,02,00,85,00,00,00,00,01,
201234980,00000570,false,Rx,0,8,02,00,85,00,00,00,00,01,
201334990,00000570,false,Rx,0,8,02,00,85,00,00,00,00,01,
201434990,00000570,false,Rx,0,8,02,00,85,00,00,00,00,01,
201535005,00000570,false,Rx,0,8,02,00,85,00,00,00,00,01,
201634996,00000570,false,Rx,0,8,02,00,85,00,00,00,00,01,
201734996,00000570,false,Rx,0,8,02,00,85,00,00,00,00,01,
201834996,00000570,false,Rx,0,8,02,00,85,00,00,00,00,01,
201934996,00000570,false,Rx,0,8,02,00,85,00,00,00,00,01,
202035000,00000570,false,Rx,0,8,02,00,85,00,00,00,00,01,
202135022,00000570,false,Rx,0,8,02,00,85,00,00,00,00,01,
202235011,00000570,false,Rx,0,8,02,00,85,00,00,00,00,01,
202335011,00000570,false,Rx,0,8,02,00,85,00,00,00,00,01,
202435000,00000570,false,Rx,0,8,02,00,85,00,00,00,00,01,
202535001,00000570,false,Rx,0,8,02,00,85,00,00,00,00,01,
202635011,00000570,false,Rx,0,8,02,00,85,00,00,00,00,01,
202735011,00000570,false,Rx,0,8,02,00,85,00,00,00,00,01,
202835031,00000570,false,Rx,0,8,02,00,85,00,00,00,00,01,
202935020,00000570,false,Rx,0,8,02,00,85,00,00,00,00,01,
203035014,00000570,false,Rx,0,8,02,00,85,00,00,00,00,01,
203135011,00000570,false,Rx,0,8,02,00,85,00,00,00,00,01,
203235021,00000570,false,Rx,0,8,02,00,85,00,00,00,00,01,
203335021,00000570,false,Rx,0,8,02,00,85,00,00,00,00,01,
203435042,00000570,false,Rx,0,8,02,00,85,00,00,00,00,01,
203535036,00000570,false,Rx,0,8,02,00,85,00,00,00,00,01,
203635032,00000570,false,Rx,0,8,02,00,85,00,00,00,00,01,
203735031,00000570,false,Rx,0,8,02,00,85,00,00,00,00,01,
203835031,00000570,false,Rx,0,8,02,00,85,00,00,00,00,01,
203935032,00000570,false,Rx,0,8,02,00,85,00,00,00,00,01,
204035037,00000570,false,Rx,0,8,02,00,85,00,00,00,00,01,
204135048,00000570,false,Rx,0,8,02,00,85,00,00,00,00,01,
204235048,00000570,false,Rx,0,8,02,00,85,00,00,00,00,01,
204335037,00000570,false,Rx,0,8,02,00,85,00,00,00,00,01,
204435038,00000570,false,Rx,0,8,02,00,85,00,00,00,00,01,
204535041,00000570,false,Rx,0,8,02,00,85,00,00,00,00,01,
204635042,00000570,false,Rx,0,8,02,00,85,00,00,00,00,01,
204735062,00000570,false,Rx,0,8,02,00,85,00,00,00,00,01,
204835062,00000570,false,Rx,0,8,02,00,85,00,00,00,00,01,
204935053,00000570,false,Rx,0,8,02,00,85,00,00,00,00,01,
205035054,00000570,false,Rx,0,8,02,00,85,00,00,00,00,01,
205135052,00000570,false,Rx,0,8,02,00,85,00,00,00,00,01,
205235052,00000570,false,Rx,0,8,02,00,85,00,00,00,00,01,
205335051,00000570,false,Rx,0,8,02,00,85,00,00,00,00,01,
205435073,00000570,false,Rx,0,8,02,00,85,00,00,00,00,01,
205535073,00000570,false,Rx,0,8,02,00,85,00,00,00,00,01,
205635063,00000570,false,Rx,0,8,02,00,85,00,00,00,00,01,
205735062,00000570,false,Rx,0,8,02,00,85,00,00,00,00,01,
205835068,00000570,false,Rx,0,8,02,00,85,00,00,00,00,01,
205935068,00000570,false,Rx,0,8,02,00,85,00,00,00,00,01,
206035072,00000570,false,Rx,0,8,02,00,85,00,00,00,00,01,
206135083,00000570,false,Rx,0,8,02,00,85,00,00,00,00,01,
206235083,00000570,false,Rx,0,8,02,00,85,00,00,00,00,01,
206335074,00000570,false,Rx,0,8,02,00,85,00,00,00,00,01,
206435073,00000570,false,Rx,0,8,02,00,85,00,00,00,00,01,
206535077,00000570,false,Rx,0,8,02,00,85,00,00,00,00,01,
206635078,00000570,false,Rx,0,8,02,00,85,00,00,00,00,01,
206735099,00000570,false,Rx,0,8,02,00,85,00,00,00,00,01,
206835094,00000570,false,Rx,0,8,02,00,85,00,00,00,00,01,
206935084,00000570,false,Rx,0,8,02,00,85,00,00,00,00,01,
207035085,00000570,false,Rx,0,8,02,00,85,00,00,00,00,01,
207135083,00000570,false,Rx,0,8,02,00,85,00,00,00,00,01,
207235094,00000570,false,Rx,0,8,02,00,85,00,00,00,00,01,
207335088,00000570,false,Rx,0,8,02,00,85,00,00,00,00,01,
207435113,00000570,false,Rx,0,8,02,00,85,00,00,00,00,01,
207535104,00000570,false,Rx,0,8,02,00,85,00,00,00,00,01,
207635093,00000570,false,Rx,0,8,02,00,85,00,00,00,00,01,
207735094,00000570,false,Rx,0,8,02,00,85,00,00,00,00,01,
207835097,00000570,false,Rx,0,8,02,00,85,00,00,00,00,01,
207935094,00000570,false,Rx,0,8,02,00,85,00,00,00,00,01,
208035126,00000570,false,Rx,0,8,02,00,85,00,00,00,00,01,
208135114,00000570,false,Rx,0,8,02,00,85,00,00,00,00,01,
208235115,00000570,false,Rx,0,8,02,00,85,00,00,00,00,01,
208335108,00000570,false,Rx,0,8,02,00,85,00,00,00,00,01,
208435109,00000570,false,Rx,0,8,02,00,85,00,00,00,00,01,
208535112,00000570,false,Rx,0,8,02,00,85,00,00,00,00,01,
208635114,00000570,false,Rx,0,8,02,00,85,00,00,00,00,01,
208735135,00000570,false,Rx,0,8,02,00,85,00,00,00,00,01,
208835125,00000570,false,Rx,0,8,02,00,85,00,00,00,00,01,
208935115,00000570,false,Rx,0,8,02,00,85,00,00,00,00,01,
209035114,00000570,false,Rx,0,8,02,00,85,00,00,00,00,01,
209135126,00000570,false,Rx,0,8,02,00,85,00,00,00,00,01,
209235125,00000570,false,Rx,0,8,02,00,85,00,00,00,00,01,
209335150,00000570,false,Rx,0,8,02,00,85,00,00,00,00,01,
209435143,00000570,false,Rx,0,8,02,00,85,00,00,00,00,01,
209535133,00000570,false,Rx,0,8,02,00,85,00,00,00,00,01,
209635134,00000570,false,Rx,0,8,02,00,85,00,00,00,00,01,
209735134,00000570,false,Rx,0,8,02,00,85,00,00,00,00,01,
209835135,00000570,false,Rx,0,8,02,00,85,00,00,00,00,01,
209935135,00000570,false,Rx,0,8,02,00,85,00,00,00,00,01,
210035156,00000570,false,Rx,0,8,02,00,85,00,00,00,00,01,
210135166,00000570,false,Rx,0,8,00,00,85,00,00,00,00,00,
210235394,00000570,false,Rx,0,8,00,00,85,00,06,00,00,00,
210335386,00000570,false,Rx,0,8,00,05,85,00,0C,02,00,00,
210435374,00000570,false,Rx,0,8,00,0D,85,00,0E,04,00,00,
210535366,00000570,false,Rx,0,8,00,14,85,00,11,05,00,00,
210635414,00000570,false,Rx,0,8,00,1A,85,00,14,07,00,00,
210735404,00000570,false,Rx,0,8,00,20,85,00,18,09,00,00,
210835398,00000570,false,Rx,0,8,00,43,85,00,19,08,00,00,
210935389,00000570,false,Rx,0,8,00,4A,85,00,19,06,00,00,
211035389,00000570,false,Rx,0,8,00,49,85,00,19,04,00,00,
211135545,00000570,false,Rx,0,8,00,4C,85,00,1A,03,00,00,
211235545,00000570,false,Rx,0,8,00,56,85,00,1C,02,00,00,
211335588,00000570,false,Rx,0,8,00,5F,85,00,1F,02,00,00,
211435577,00000570,false,Rx,0,8,00,67,85,00,22,01,00,00,
211535578,00000570,false,Rx,0,8,00,6E,85,00,25,01,00,00,
211635577,00000570,false,Rx,0,8,00,74,85,00,27,01,00,00,
211735567,00000570,false,Rx,0,8,00,79,85,00,29,01,00,00,
211835561,00000570,false,Rx,0,8,00,7E,85,00,2B,01,00,00,
211935612,00000570,false,Rx,0,8,00,82,85,00,2C,01,00,00,
212035602,00000570,false,Rx,0,8,00,85,85,00,2D,01,00,00,
212135591,00000570,false,Rx,0,8,00,88,85,00,2E,01,00,00,
212235582,00000570,false,Rx,0,8,00,8A,85,00,2F,01,00,00,
212335576,00000570,false,Rx,0,8,00,8C,85,00,30,01,00,00,
212435569,00000570,false,Rx,0,8,00,8D,85,00,30,01,00,00,
212535622,00000570,false,Rx,0,8,00,8D,85,00,30,01,00,00,
212635622,00000570,false,Rx,0,8,00,8D,85,00,30,01,00,00,
212735613,00000570,false,Rx,0,8,00,8C,85,00,30,01,00,00,
212835606,00000570,false,Rx,0,8,00,8C,85,00,30,01,00,00,
212935592,00000570,false,Rx,0,8,00,8B,85,00,30,01,00,00,
213035591,00000570,false,Rx,0,8,00,89,85,00,2F,00,00,00,
213135581,00000570,false,Rx,0,8,00,88,85,00,2F,00,00,00,
213235623,00000570,false,Rx,0,8,00,87,85,00,2E,00,00,00,
213335623,00000570,false,Rx,0,8,00,85,85,00,2E,00,00,00,
213435612,00000570,false,Rx,0,8,00,84,85,00,2D,00,00,00,
213535612,00000570,false,Rx,0,8,00,82,85,00,2D,00,00,00,
213635603,00000570,false,Rx,0,8,00,81,85,00,2C,00,00,00,
213735603,00000570,false,Rx,0,8,00,7F,85,00,2C,00,00,00,
213835587,00000570,false,Rx,0,8,00,7D,85,00,2B,00,00,00,
213935639,00000570,false,Rx,0,8,00,7B,85,00,2A,00,00,00,
214035639,00000570,false,Rx,0,8,00,7A,85,00,2A,00,00,00,
214135630,00000570,false,Rx,0,8,00,78,85,00,29,00,00,00,
214235621,00000570,false,Rx,0,8,00,76,85,00,29,00,00,00,
214335612,00000570,false,Rx,0,8,00,75,85,00,28,00,00,00,
214435612,00000570,false,Rx,0,8,00,74,85,00,28,00,00,00,
214535602,00000570,false,Rx,0,8,00,72,85,00,27,00,00,00,
214635644,00000570,false,Rx,0,8,00,71,85,00,27,00,00,00,
214735643,00000570,false,Rx,0,8,00,70,85,00,26,00,00,00,
214835638,00000570,false,Rx,0,8,00,6E,85,00,26,00,00,00,
214935631,00000570,false,Rx,0,8,00,6D,85,00,25,00,00,00,
215035621,00000570,false,Rx,0,8,00,6B,85,00,25,00,00,00,
215135613,00000570,false,Rx,0,8,00,6A,85,00,24,00,00,00,
215235654,00000570,false,Rx,0,8,00,69,85,00,24,00,00,00,
215335657,00000570,false,Rx,0,8,00,68,85,00,24,00,00,00,
215435638,00000570,false,Rx,0,8,00,67,85,00,23,00,00,00,
215535639,00000570,false,Rx,0,8,00,67,85,00,23,00,00,00,
215635639,00000570,false,Rx,0,8,00,66,85,00,23,00,00,00,
215735628,00000570,false,Rx,0,8,00,65,85,00,23,00,00,00,
215835673,00000570,false,Rx,0,8,00,64,85,00,22,00,00,00,
215935674,00000570,false,Rx,0,8,00,64,85,00,22,00,00,00,
216035665,00000570,false,Rx,0,8,00,64,85,00,22,00,00,00,
216135665,00000570,false,Rx,0,8,00,64,85,00,22,00,00,00,
216235654,00000570,false,Rx,0,8,00,64,85,00,22,00,00,00,
216335648,00000570,false,Rx,0,8,00,63,85,00,22,00,00,00,
216435639,00000570,false,Rx,0,8,00,63,85,00,22,00,00,00,
216535692,00000570,false,Rx,0,8,00,64,85,00,22,00,00,00,
216635682,00000570,false,Rx,0,8,00,65,85,00,22,00,00,00,
216735672,00000570,false,Rx,0,8,02,62,85,00,21,00,00,10,
216835653,00000570,false,Rx,0,8,02,56,85,00,1D,00,00,10,
216935653,00000570,false,Rx,0,8,02,49,85,00,19,00,00,10,
217035644,00000570,false,Rx,0,8,02,3D,85,00,15,00,00,10,
217135643,00000570,false,Rx,0,8,02,32,85,00,11,00,00,10,
217235695,00000570,false,Rx,0,8,02,27,85,00,0E,00,00,10,
217335283,00000570,false,Rx,0,8,02,04,85,00,01,00,00,10,
217435270,00000570,false,Rx,0,8,02,00,85,00,00,00,00,10,
217535270,00000570,false,Rx,0,8,02,00,85,00,00,00,00,10,
217635269,00000570,false,Rx,0,8,02,00,85,00,00,00,00,10,
217735270,00000570,false,Rx,0,8,02,00,85,00,00,00,00,10,
217835292,00000570,false,Rx,0,8,02,00,85,00,00,00,00,10,
217935290,00000570,false,Rx,0,8,02,00,85,00,00,00,00,10,
218035290,00000570,false,Rx,0,8,02,00,85,00,00,00,00,10,
218135280,00000570,false,Rx,0,8,02,00,85,00,00,00,00,10,
218235280,00000570,false,Rx,0,8,02,00,85,00,00,00,00,10,
218335284,00000570,false,Rx,0,8,02,00,85,00,00,00,00,10,
218435311,00000570,false,Rx,0,8,02,00,85,00,00,00,00,10,
218535311,00000570,false,Rx,0,8,02,00,85,00,00,00,00,10,
218635301,00000570,false,Rx,0,8,02,00,85,00,00,00,00,10,
218735301,00000570,false,Rx,0,8,02,00,85,00,00,00,00,10,
218835534,00000570,false,Rx,0,8,02,00,85,00,07,01,00,10,
218935525,00000570,false,Rx,0,8,02,06,85,00,0C,02,00,10,
219035517,00000570,false,Rx,0,8,02,0E,85,00,0F,04,00,10,
219135561,00000570,false,Rx,0,8,02,14,85,00,11,05,00,10,
219235550,00000570,false,Rx,0,8,02,1B,85,00,14,07,00,10,
219335554,00000570,false,Rx,0,8,02,20,85,00,18,09,00,10,
219435539,00000570,false,Rx,0,8,02,46,85,00,19,08,00,10,
219535529,00000570,false,Rx,0,8,02,4A,85,00,19,06,00,10,
219635519,00000570,false,Rx,0,8,02,49,85,00,19,04,00,10,
219735746,00000570,false,Rx,0,8,02,4D,85,00,1A,03,00,10,
219835740,00000570,false,Rx,0,8,02,57,85,00,1C,02,00,10,
219935737,00000570,false,Rx,0,8,02,60,85,00,20,02,00,10,
220035726,00000570,false,Rx,0,8,02,68,85,00,22,01,00,10,
220135716,00000570,false,Rx,0,8,02,6E,85,00,25,01,00,10,
220235715,00000570,false,Rx,0,8,02,73,85,00,27,01,00,10,
220335709,00000570,false,Rx,0,8,02,78,85,00,29,01,00,10,
220435695,00000570,false,Rx,0,8,02,7C,85,00,2A,01,00,10,
220535747,00000570,false,Rx,0,8,02,7F,85,00,2B,01,00,10,
220635746,00000570,false,Rx,0,8,02,82,85,00,2C,01,00,10,
220735726,00000570,false,Rx,0,8,02,84,85,00,2D,01,00,10,
220835721,00000570,false,Rx,0,8,02,85,85,00,2D,01,00,10,
220935722,00000570,false,Rx,0,8,02,86,85,00,2E,01,00,10,
221035712,00000570,false,Rx,0,8,02,86,85,00,2E,01,00,10,
221135763,00000570,false,Rx,0,8,02,87,85,00,2E,01,00,10,
221235754,00000570,false,Rx,0,8,02,88,85,00,2E,01,00,10,
221335747,00000570,false,Rx,0,8,02,88,85,00,2E,01,00,10,
221435747,00000570,false,Rx,0,8,02,87,85,00,2E,00,00,10,
221535736,00000570,false,Rx,0,8,02,87,85,00,2E,00,00,10,
221635726,00000570,false,Rx,0,8,02,86,85,00,2E,00,00,10,
221735778,00000570,false,Rx,0,8,02,85,85,00,2E,00,00,10,
221835769,00000570,false,Rx,0,8,02,84,85,00,2D,00,00,10,
221935767,00000570,false,Rx,0,8,02,82,85,00,2D,00,00,10,
222035767,00000570,false,Rx,0,8,02,81,85,00,2C,00,00,10,
222135757,00000570,false,Rx,0,8,02,7F,85,00,2C,00,00,10,
222235747,00000570,false,Rx,0,8,02,7D,85,00,2B,00,00,10,
222335738,00000570,false,Rx,0,8,02,7C,85,00,2B,00,00,10,
222435789,00000570,false,Rx,0,8,02,7B,85,00,2A,00,00,10,
222535788,00000570,false,Rx,0,8,02,79,85,00,2A,00,00,10,
222635777,00000570,false,Rx,0,8,02,78,85,00,29,00,00,10,
222735768,00000570,false,Rx,0,8,02,75,85,00,28,00,00,10,
222835761,00000570,false,Rx,0,8,02,69,85,00,24,00,00,10,
222935747,00000570,false,Rx,0,8,02,5C,85,00,20,00,00,10,
223035746,00000570,false,Rx,0,8,02,4F,85,00,1B,00,00,10,
223135799,00000570,false,Rx,0,8,02,43,85,00,17,00,00,10,
223235778,00000570,false,Rx,0,8,02,37,85,00,13,00,00,10,
223335782,00000570,false,Rx,0,8,02,2C,85,00,0F,00,00,10,
223435379,00000570,false,Rx,0,8,02,08,85,00,03,00,00,10,
223535379,00000570,false,Rx,0,8,02,00,85,00,00,00,00,10,
223635379,00000570,false,Rx,0,8,02,00,85,00,00,00,00,10,
223735400,00000570,false,Rx,0,8,02,00,85,00,00,00,00,10,
223835392,00000570,false,Rx,0,8,02,00,85,00,00,00,00,10,
223935392,00000570,false,Rx,0,8,02,00,85,00,00,00,00,10,
224035382,00000570,false,Rx,0,8,02,00,85,00,00,00,00,10,
224135382,00000570,false,Rx,0,8,02,00,85,00,00,00,00,10,
224235382,00000570,false,Rx,0,8,02,00,85,00,00,00,00,10,
224335394,00000570,false,Rx,0,8,02,00,85,00,00,00,00,10,
224435415,00000570,false,Rx,0,8,02,00,85,00,00,00,00,10,
224535404,00000570,false,Rx,0,8,02,00,85,00,00,00,00,10,
224635404,00000570,false,Rx,0,8,02,00,85,00,00,00,00,10,
224735404,00000570,false,Rx,0,8,02,00,85,00,00,00,00,10,
224835624,00000570,false,Rx,0,8,02,00,85,00,05,00,00,10,
224935623,00000570,false,Rx,0,8,02,05,85,00,0B,02,00,10,
225035664,00000570,false,Rx,0,8,02,0C,85,00,0E,04,00,10,
225135665,00000570,false,Rx,0,8,02,13,85,00,11,05,00,10,
225235654,00000570,false,Rx,0,8,02,1A,85,00,14,07,00,10,
225335647,00000570,false,Rx,0,8,02,20,85,00,17,08,00,10,
225435628,00000570,false,Rx,0,8,02,43,85,00,1A,08,00,10,
225535638,00000570,false,Rx,0,8,02,4C,85,00,19,06,00,10,
225635629,00000570,false,Rx,0,8,02,4A,85,00,19,04,00,10,
225735846,00000570,false,Rx,0,8,02,4D,85,00,1A,03,00,10,
225835838,00000570,false,Rx,0,8,02,57,85,00,1D,02,00,10,
225935825,00000570,false,Rx,0,8,02,61,85,00,20,02,00,10,
226035826,00000570,false,Rx,0,8,02,69,85,00,23,01,00,10,
226135816,00000570,false,Rx,0,8,02,70,85,00,25,01,00,10,
226235817,00000570,false,Rx,0,8,02,76,85,00,28,01,00,10,
226335798,00000570,false,Rx,0,8,02,7B,85,00,29,01,00,10,
226435861,00000570,false,Rx,0,8,02,7F,85,00,2B,01,00,10,
226535851,00000570,false,Rx,0,8,02,82,85,00,2C,01,00,10,
226635830,00000570,false,Rx,0,8,02,86,85,00,2D,01,00,10,
226735829,00000570,false,Rx,0,8,02,87,85,00,2E,01,00,10,
226835823,00000570,false,Rx,0,8,02,89,85,00,2F,01,00,10,
226935813,00000570,false,Rx,0,8,02,89,85,00,2F,01,00,10,
227035866,00000570,false,Rx,0,8,02,89,85,00,2F,01,00,10,
227135860,00000570,false,Rx,0,8,02,89,85,00,2F,01,00,10,
227235850,00000570,false,Rx,0,8,02,88,85,00,2F,01,00,10,
227335840,00000570,false,Rx,0,8,02,88,85,00,2F,01,00,10,
227435830,00000570,false,Rx,0,8,02,87,85,00,2E,01,00,10,
227535830,00000570,false,Rx,0,8,02,86,85,00,2E,01,00,10,
227635881,00000570,false,Rx,0,8,02,85,85,00,2E,01,00,10,
227735871,00000570,false,Rx,0,8,02,84,85,00,2D,00,00,10,
227835865,00000570,false,Rx,0,8,02,83,85,00,2D,00,00,10,
227935856,00000570,false,Rx,0,8,02,82,85,00,2D,00,00,10,
228035856,00000570,false,Rx,0,8,02,80,85,00,2C,00,00,10,
228135856,00000570,false,Rx,0,8,02,7F,85,00,2C,00,00,10,
228235846,00000570,false,Rx,0,8,02,7E,85,00,2B,00,00,10,
228335891,00000570,false,Rx,0,8,02,7D,85,00,2B,00,00,10,
228435888,00000570,false,Rx,0,8,02,7B,85,00,2A,00,00,10,
228535867,00000570,false,Rx,0,8,02,7A,85,00,2A,00,00,10,
228635869,00000570,false,Rx,0,8,02,79,85,00,2A,00,00,10,
228735860,00000570,false,Rx,0,8,02,77,85,00,29,00,00,10,
228835854,00000570,false,Rx,0,8,02,6D,85,00,25,00,00,10,
228935903,00000570,false,Rx,0,8,02,5F,85,00,21,00,00,10,
229035902,00000570,false,Rx,0,8,02,53,85,00,1C,00,00,10,
229135891,00000570,false,Rx,0,8,02,46,85,00,18,00,00,10,
229235891,00000570,false,Rx,0,8,02,3A,85,00,14,00,00,10,
229335885,00000570,false,Rx,0,8,02,2F,85,00,10,00,00,10,
229435476,00000570,false,Rx,0,8,02,14,85,00,08,00,00,10,
229535487,00000570,false,Rx,0,8,02,01,85,00,00,00,00,10,
229635509,00000570,false,Rx,0,8,02,00,85,00,00,00,00,10,
229735499,00000570,false,Rx,0,8,02,00,85,00,00,00,00,10,
229835488,00000570,false,Rx,0,8,02,00,85,00,00,00,00,10,
229935486,00000570,false,Rx,0,8,02,00,85,00,00,00,00,10,
230035487,00000570,false,Rx,0,8,02,00,85,00,00,00,00,10,
230135487,00000570,false,Rx,0,8,02,00,85,00,00,00,00,10,
230235487,00000570,false,Rx,0,8,02,00,85,00,00,00,00,10,
230335513,00000570,false,Rx,0,8,02,00,85,00,00,00,00,10,
230435508,00000570,false,Rx,0,8,02,00,85,00,00,00,00,10,
230535499,00000570,false,Rx,0,8,02,00,85,00,00,00,00,10,
230635499,00000570,false,Rx,0,8,02,00,85,00,00,00,00,10,
230735509,00000570,false,Rx,0,8,02,00,85,00,00,00,00,10,
230835732,00000570,false,Rx,0,8,02,00,85,00,03,00,00,10,
230935774,00000570,false,Rx,0,8,02,04,85,00,0B,02,00,10,
231035765,00000570,false,Rx,0,8,02,0A,85,00,0E,03,00,10,
231135757,00000570,false,Rx,0,8,02,11,85,00,10,05,00,10,
231235746,00000570,false,Rx,0,8,02,19,85,00,13,06,00,10,
231335741,00000570,false,Rx,0,8,02,1F,85,00,17,08,00,10,
231435727,00000570,false,Rx,0,8,02,39,85,00,19,09,00,10,
231535726,00000570,false,Rx,0,8,02,4B,85,00,19,07,00,10,
231635778,00000570,false,Rx,0,8,02,4A,85,00,19,05,00,10,
231735944,00000570,false,Rx,0,8,02,4B,85,00,1A,03,00,10,
231835926,00000570,false,Rx,0,8,02,54,85,00,1C,02,00,10,
231935933,00000570,false,Rx,0,8,02,5E,85,00,1F,02,00,10,
232035912,00000570,false,Rx,0,8,02,67,85,00,22,01,00,10,
232135902,00000570,false,Rx,0,8,02,6E,85,00,25,01,00,10,
232235954,00000570,false,Rx,0,8,02,74,85,00,27,01,00,10,
232335957,00000570,false,Rx,0,8,02,79,85,00,29,01,00,10,
232435943,00000570,false,Rx,0,8,02,7E,85,00,2B,01,00,10,
232535933,00000570,false,Rx,0,8,02,81,85,00,2C,01,00,10,
232635934,00000570,false,Rx,0,8,02,84,85,00,2D,01,00,10,
232735923,00000570,false,Rx,0,8,02,86,85,00,2E,01,00,10,
232835968,00000570,false,Rx,0,8,02,88,85,00,2F,01,00,10,
232935970,00000570,false,Rx,0,8,02,8A,85,00,2F,01,00,10,
233035959,00000570,false,Rx,0,8,02,8B,85,00,30,01,00,10,
233135950,00000570,false,Rx,0,8,02,8B,85,00,30,01,00,10,
233235950,00000570,false,Rx,0,8,02,8C,85,00,30,01,00,10,
233335942,00000570,false,Rx,0,8,02,8C,85,00,30,01,00,10,
233435931,00000570,false,Rx,0,8,02,8B,85,00,30,01,00,10,
233535984,00000570,false,Rx,0,8,02,8A,85,00,2F,01,00,10,
233635985,00000570,false,Rx,0,8,02,8A,85,00,2F,01,00,10,
233735965,00000570,false,Rx,0,8,02,88,85,00,2F,01,00,10,
233835966,00000570,false,Rx,0,8,02,87,85,00,2E,00,00,10,
233935953,00000570,false,Rx,0,8,02,86,85,00,2E,00,00,10,
234035953,00000570,false,Rx,0,8,02,84,85,00,2D,00,00,10,
234135947,00000570,false,Rx,0,8,02,82,85,00,2D,00,00,10,
234235996,00000570,false,Rx,0,8,02,81,85,00,2C,00,00,10,
234335986,00000570,false,Rx,0,8,02,80,85,00,2C,00,00,10,
234435985,00000570,false,Rx,0,8,02,7E,85,00,2B,00,00,10,
234535965,00000570,false,Rx,0,8,02,7D,85,00,2B,00,00,10,
234635968,00000570,false,Rx,0,8,02,7B,85,00,2A,00,00,10,
234735964,00000570,false,Rx,0,8,00,79,85,00,2A,00,00,10,
234835998,00000570,false,Rx,0,8,00,71,85,00,27,00,00,10,
234936005,00000570,false,Rx,0,8,00,64,85,00,22,00,00,10,
235035996,00000570,false,Rx,0,8,00,57,85,00,1E,00,00,10,
235135985,00000570,false,Rx,0,8,00,4B,85,00,1A,00,00,10,
235235985,00000570,false,Rx,0,8,00,3F,85,00,16,00,00,10,
235335979,00000570,false,Rx,0,8,00,33,85,00,12,00,00,10,
235435970,00000570,false,Rx,0,8,00,28,85,00,0E,00,00,10,
235535608,00000570,false,Rx,0,8,00,02,85,00,01,00,00,10,
235635601,00000570,false,Rx,0,8,00,00,85,00,00,00,00,10,
235735592,00000570,false,Rx,0,8,00,00,85,00,00,00,00,10,
235835595,00000570,false,Rx,0,8,00,00,85,00,00,00,00,10,
235935592,00000570,false,Rx,0,8,00,00,85,00,00,00,00,10,
236035591,00000570,false,Rx,0,8,00,00,85,00,00,00,00,10,
236135596,00000570,false,Rx,0,8,00,00,85,00,00,00,00,10,
236235621,00000570,false,Rx,0,8,00,00,85,00,00,00,00,10,
236335612,00000570,false,Rx,0,8,00,00,85,00,00,00,00,10,
236435602,00000570,false,Rx,0,8,00,00,85,00,00,00,00,10,
236535602,00000570,false,Rx,0,8,00,00,85,00,00,00,00,10,
236635607,00000570,false,Rx,0,8,00,00,85,00,00,00,00,10,
236735639,00000570,false,Rx,0,8,00,00,85,00,00,00,00,10,
236835877,00000570,false,Rx,0,8,00,00,85,00,02,00,00,10,
236935866,00000570,false,Rx,0,8,00,03,85,00,0A,01,00,10,
237035867,00000570,false,Rx,0,8,00,09,85,00,0D,03,00,10,
237135850,00000570,false,Rx,0,8,00,10,85,00,10,05,00,10,
237235892,00000570,false,Rx,0,8,00,17,85,00,13,06,00,10,
237335843,00000570,false,Rx,0,8,00,1E,85,00,16,08,00,10,
237435886,00000570,false,Rx,0,8,00,2C,85,00,19,09,00,10,
237535877,00000570,false,Rx,0,8,00,4A,85,00,19,07,00,10,
237635877,00000570,false,Rx,0,8,00,49,85,00,19,05,00,10,
237736032,00000570,false,Rx,0,8,00,49,85,00,19,04,00,10,
237836024,00000570,false,Rx,0,8,00,51,85,00,1B,03,00,10,
237936023,00000570,false,Rx,0,8,00,5B,85,00,1E,02,00,10,
238036012,00000570,false,Rx,0,8,00,64,85,00,21,01,00,10,
238136064,00000570,false,Rx,0,8,00,6B,85,00,24,01,00,10,
238236055,00000570,false,Rx,0,8,00,71,85,00,26,01,00,10,
238336056,00000570,false,Rx,0,8,00,76,85,00,28,01,00,10,
238436046,00000570,false,Rx,0,8,00,7A,85,00,29,01,00,10,
238536046,00000570,false,Rx,0,8,00,7E,85,00,2B,01,00,10,
238636036,00000570,false,Rx,0,8,00,81,85,00,2C,01,00,10,
238736077,00000570,false,Rx,0,8,00,83,85,00,2D,01,00,10,
238836070,00000570,false,Rx,0,8,00,85,85,00,2D,01,00,10,
238936068,00000570,false,Rx,0,8,00,86,85,00,2E,01,00,10,
239036058,00000570,false,Rx,0,8,00,88,85,00,2E,01,00,10,
239136050,00000570,false,Rx,0,8,00,89,85,00,2F,01,00,10,
239236047,00000570,false,Rx,0,8,00,89,85,00,2F,01,00,10,
239336040,00000570,false,Rx,0,8,00,89,85,00,2F,01,00,10,
239436088,00000570,false,Rx,0,8,00,89,85,00,2F,01,00,10,
239536088,00000570,false,Rx,0,8,00,88,85,00,2F,01,00,10,
239636072,00000570,false,Rx,0,8,00,87,85,00,2E,00,00,10,
239736073,00000570,false,Rx,0,8,00,87,85,00,2E,00,00,10,
239836056,00000570,false,Rx,0,8,00,86,85,00,2E,00,00,10,
239936053,00000570,false,Rx,0,8,00,84,85,00,2D,00,00,10,
240036053,00000570,false,Rx,0,8,00,83,85,00,2D,00,00,10,
240136099,00000570,false,Rx,0,8,00,81,85,00,2C,00,00,10,
240236089,00000570,false,Rx,0,8,00,80,85,00,2C,00,00,10,
240336092,00000570,false,Rx,0,8,00,7F,85,00,2C,00,00,10,
240436078,00000570,false,Rx,0,8,00,7E,85,00,2B,00,00,10,
240536078,00000570,false,Rx,0,8,00,7C,85,00,2B,00,00,10,
240636068,00000570,false,Rx,0,8,00,7C,85,00,2A,00,00,10,
240736110,00000570,false,Rx,0,8,00,7B,85,00,2A,00,00,10,
240836110,00000570,false,Rx,0,8,00,7A,85,00,2A,00,00,10,
240936099,00000570,false,Rx,0,8,00,79,85,00,29,00,00,10,
241036098,00000570,false,Rx,0,8,00,78,85,00,29,00,00,10,
241136088,00000570,false,Rx,0,8,00,76,85,00,29,00,00,10,
241236078,00000570,false,Rx,0,8,00,75,85,00,28,00,00,10,
241336079,00000570,false,Rx,0,8,00,74,85,00,28,00,00,10,
241436120,00000570,false,Rx,0,8,00,73,85,00,27,00,00,10,
241536120,00000570,false,Rx,0,8,00,72,85,00,27,00,00,10,
241636102,00000570,false,Rx,0,8,00,71,85,00,27,00,00,10,
241736099,00000570,false,Rx,0,8,00,71,85,00,26,00,00,10,
241836100,00000570,false,Rx,0,8,00,70,85,00,26,00,00,10,
241936098,00000570,false,Rx,0,8,00,6F,85,00,26,00,00,10,
242036088,00000570,false,Rx,0,8,00,6F,85,00,26,00,00,10,
242136130,00000570,false,Rx,0,8,00,6F,85,00,26,00,00,10,
242236120,00000570,false,Rx,0,8,00,6E,85,00,26,00,00,10,
242336110,00000570,false,Rx,0,8,00,6E,85,00,26,00,00,10,
242436109,00000570,false,Rx,0,8,00,6E,85,00,25,00,00,10,
242536109,00000570,false,Rx,0,8,00,6E,85,00,25,00,00,10,
242636094,00000570,false,Rx,0,8,00,6D,85,00,25,00,00,10,
242736147,00000570,false,Rx,0,8,00,6D,85,00,25,00,00,10,
242836137,00000570,false,Rx,0,8,00,6D,85,00,25,00,00,10,
242936126,00000570,false,Rx,0,8,00,6C,85,00,25,00,00,10,
243036117,00000570,false,Rx,0,8,02,6C,85,00,25,00,00,11,
243136120,00000570,false,Rx,0,8,02,63,85,00,22,00,00,11,
243236161,00000570,false,Rx,0,8,02,56,85,00,1E,00,00,11,
243336151,00000570,false,Rx,0,8,02,4A,85,00,1A,00,00,11,
243436150,00000570,false,Rx,0,8,02,3F,85,00,16,00,00,11,
243536192,00000570,false,Rx,0,8,02,33,85,00,12,00,00,11,
243635730,00000570,false,Rx,0,8,02,1F,85,00,0B,00,00,01,
243735726,00000570,false,Rx,0,8,02,02,85,00,01,00,00,01,
243835727,00000570,false,Rx,0,8,02,00,85,00,00,00,00,01,
243935731,00000570,false,Rx,0,8,02,00,85,00,00,00,00,01,
244035763,00000570,false,Rx,0,8,02,00,85,00,00,00,00,01,
244135757,00000570,false,Rx,0,8,02,00,85,00,00,00,00,01,
244235746,00000570,false,Rx,0,8,02,00,85,00,00,00,00,01,
244335737,00000570,false,Rx,0,8,02,00,85,00,00,00,00,01,
244435747,00000570,false,Rx,0,8,02,00,85,00,00,00,00,01,
244535747,00000570,false,Rx,0,8,02,00,85,00,00,00,00,01,
244635740,00000570,false,Rx,0,8,02,00,85,00,00,00,00,01,
244735764,00000570,false,Rx,0,8,02,00,85,00,00,00,00,01,
244835763,00000570,false,Rx,0,8,02,00,85,00,00,00,00,01,
244935753,00000570,false,Rx,0,8,02,00,85,00,00,00,00,01,
245035753,00000570,false,Rx,0,8,02,00,85,00,00,00,00,01,
245135756,00000570,false,Rx,0,8,02,00,85,00,00,00,00,01,
245235758,00000570,false,Rx,0,8,02,00,85,00,00,00,00,01,
245335778,00000570,false,Rx,0,8,02,00,85,00,00,00,00,01,
245435778,00000570,false,Rx,0,8,02,00,85,00,00,00,00,01,
245535767,00000570,false,Rx,0,8,02,00,85,00,00,00,00,01,
245635760,00000570,false,Rx,0,8,02,00,85,00,00,00,00,01,
245735766,00000570,false,Rx,0,8,02,00,85,00,00,00,00,01,
245835766,00000570,false,Rx,0,8,02,00,85,00,00,00,00,01,
245935768,00000570,false,Rx,0,8,02,00,85,00,00,00,00,01,
246035788,00000570,false,Rx,0,8,02,00,85,00,00,00,00,01,
246135780,00000570,false,Rx,0,8,02,00,85,00,00,00,00,01,
246235779,00000570,false,Rx,0,8,02,00,85,00,00,00,00,01,
246335779,00000570,false,Rx,0,8,02,00,85,00,00,00,00,01,
246435778,00000570,false,Rx,0,8,02,00,85,00,00,00,00,01,
246535778,00000570,false,Rx,0,8,02,00,85,00,00,00,00,01,
246635801,00000570,false,Rx,0,8,02,00,85,00,00,00,00,01,
246735799,00000570,false,Rx,0,8,02,00,85,00,00,00,00,01,
246835788,00000570,false,Rx,0,8,02,00,85,00,00,00,00,01,
246935788,00000570,false,Rx,0,8,02,00,85,00,00,00,00,01,
247035788,00000570,false,Rx,0,8,02,00,85,00,00,00,00,01,
247135793,00000570,false,Rx,0,8,02,00,85,00,00,00,00,01,
247235794,00000570,false,Rx,0,8,02,00,85,00,00,00,00,01,
247335815,00000570,false,Rx,0,8,02,00,85,00,00,00,00,01,
247435805,00000570,false,Rx,0,8,02,00,85,00,00,00,00,01,
247535804,00000570,false,Rx,0,8,02,00,85,00,00,00,00,01,
247635798,00000570,false,Rx,0,8,02,00,85,00,00,00,00,01,
247735799,00000570,false,Rx,0,8,02,00,85,00,00,00,00,01,
247835799,00000570,false,Rx,0,8,02,00,85,00,00,00,00,01,
247935809,00000570,false,Rx,0,8,02,00,85,00,00,00,00,01,
248035819,00000570,false,Rx,0,8,02,00,85,00,00,00,00,01,
248135813,00000570,false,Rx,0,8,02,00,85,00,00,00,00,01,
248235809,00000570,false,Rx,0,8,02,00,85,00,00,00,00,01,
248335809,00000570,false,Rx,0,8,02,00,85,00,00,00,00,01,
248435814,00000570,false,Rx,0,8,02,00,85,00,00,00,00,01,
248535817,00000570,false,Rx,0,8,02,00,85,00,00,00,00,01,
248635840,00000570,false,Rx,0,8,02,00,85,00,00,00,00,01,
248735830,00000570,false,Rx,0,8,02,00,85,00,00,00,00,01,
248835820,00000570,false,Rx,0,8,02,00,85,00,00,00,00,01,
248935819,00000570,false,Rx,0,8,02,00,85,00,00,00,00,01,
249035830,00000570,false,Rx,0,8,02,00,85,00,00,00,00,01,
249135823,00000570,false,Rx,0,8,02,00,85,00,00,00,00,01,
249235829,00000570,false,Rx,0,8,02,00,85,00,00,00,00,01,
249335850,00000570,false,Rx,0,8,02,00,85,00,00,00,00,01,
249435845,00000570,false,Rx,0,8,02,00,85,00,00,00,00,01,
249535836,00000570,false,Rx,0,8,02,00,85,00,00,00,00,01,
249635838,00000570,false,Rx,0,8,02,00,85,00,00,00,00,01,
249735840,00000570,false,Rx,0,8,02,00,85,00,00,00,00,01,
249835840,00000570,false,Rx,0,8,02,00,85,00,00,00,00,01,
249935860,00000570,false,Rx,0,8,02,00,85,00,00,00,00,01,
250035851,00000570,false,Rx,0,8,02,00,85,00,00,00,00,01,
250135854,00000570,false,Rx,0,8,02,00,85,00,00,00,00,01,
250235846,00000570,false,Rx,0,8,02,00,85,00,00,00,00,01,
250335848,00000570,false,Rx,0,8,02,00,85,00,00,00,00,01,
250435850,00000570,false,Rx,0,8,02,00,85,00,00,00,00,01,
250535850,00000570,false,Rx,0,8,02,00,85,00,00,00,00,01,
250635872,00000570,false,Rx,0,8,02,00,85,00,00,00,00,01,
250735860,00000570,false,Rx,0,8,02,00,85,00,00,00,00,01,
250835860,00000570,false,Rx,0,8,02,00,85,00,00,00,00,01,
250935861,00000570,false,Rx,0,8,02,00,85,00,00,00,00,01,
251035861,00000570,false,Rx,0,8,02,00,85,00,00,00,00,01,
251135862,00000570,false,Rx,0,8,02,00,85,00,00,00,00,01,
251235882,00000570,false,Rx,0,8,02,00,85,00,00,00,00,01,
251335881,00000570,false,Rx,0,8,02,00,85,00,00,00,00,01,
251435872,00000570,false,Rx,0,8,02,00,85,00,00,00,00,01,
251535871,00000570,false,Rx,0,8,02,00,85,00,00,00,00,01,
251635873,00000570,false,Rx,0,8,02,00,85,00,00,00,00,01,
251735865,00000570,false,Rx,0,8,02,00,85,00,00,00,00,01,
251835876,00000570,false,Rx,0,8,02,00,85,00,00,00,00,01,
251935898,00000570,false,Rx,0,8,02,00,85,00,00,00,00,01,
252035887,00000570,false,Rx,0,8,02,00,85,00,00,00,00,01,
252135880,00000570,false,Rx,0,8,02,00,85,00,00,00,00,01,
252235881,00000570,false,Rx,0,8,02,00,85,00,00,00,00,01,
252335881,00000570,false,Rx,0,8,02,00,85,00,00,00,00,01,
252435882,00000570,false,Rx,0,8,02,00,85,00,00,00,00,01,
252535902,00000570,false,Rx,0,8,02,00,85,00,00,00,00,01,
252635904,00000570,false,Rx,0,8,02,00,85,00,00,00,00,01,
252735891,00000570,false,Rx,0,8,02,00,85,00,00,00,00,01,
252835892,00000570,false,Rx,0,8,02,00,85,00,00,00,00,01,
252935897,00000570,false,Rx,0,8,02,00,85,00,00,00,00,01,
253035890,00000570,false,Rx,0,8,02,00,85,00,00,00,00,01,
253135891,00000570,false,Rx,0,8,02,00,85,00,00,00,00,01,
253235922,00000570,false,Rx,0,8,02,00,85,00,00,00,00,01,
253335913,00000570,false,Rx,0,8,02,00,85,00,00,00,00,01,
253435903,00000570,false,Rx,0,8,02,00,85,00,00,00,00,01,
253535902,00000570,false,Rx,0,8,02,00,85,00,00,00,00,01,
253635902,00000570,false,Rx,0,8,02,00,85,00,00,00,00,01,
253735902,00000570,false,Rx,0,8,02,00,85,00,00,00,00,01,
253835934,00000570,false,Rx,0,8,02,00,85,00,00,00,00,01,
253935927,00000570,false,Rx,0,8,02,00,85,00,00,00,00,01,
254035918,00000570,false,Rx,0,8,02,00,85,00,00,00,00,01,
254135919,00000570,false,Rx,0,8,02,00,85,00,00,00,00,01,
254235918,00000570,false,Rx,0,8,02,00,85,00,00,00,00,01,
254335919,00000570,false,Rx,0,8,02,00,85,00,00,00,00,01,
254435922,00000570,false,Rx,0,8,02,00,85,00,00,00,00,01,
254535944,00000570,false,Rx,0,8,02,00,85,00,00,00,00,01,
254635933,00000570,false,Rx,0,8,02,00,85,00,00,00,00,01,
254735924,00000570,false,Rx,0,8,02,00,85,00,00,00,00,01,
254835923,00000570,false,Rx,0,8,02,00,85,00,00,00,00,01,
254935928,00000570,false,Rx,0,8,02,00,85,00,00,00,00,01,
255035931,00000570,false,Rx,0,8,02,00,85,00,00,00,00,01,
255135932,00000570,false,Rx,0,8,02,00,85,00,00,00,00,01,
255235954,00000570,false,Rx,0,8,02,00,85,00,00,00,00,01,
255335944,00000570,false,Rx,0,8,02,00,85,00,00,00,00,01,
255435934,00000570,false,Rx,0,8,02,00,85,00,00,00,00,01,
255535943,00000570,false,Rx,0,8,02,00,85,00,00,00,00,01,
255635943,00000570,false,Rx,0,8,02,00,85,00,00,00,00,01,
255735944,00000570,false,Rx,0,8,02,00,85,00,00,00,00,01,
255835965,00000570,false,Rx,0,8,02,00,85,00,00,00,00,01,
255935957,00000570,false,Rx,0,8,02,00,85,00,00,00,00,01,
256035954,00000570,false,Rx,0,8,02,00,85,00,00,00,00,01,
256135955,00000570,false,Rx,0,8,02,00,85,00,00,00,00,01,
256235954,00000570,false,Rx,0,8,02,00,85,00,00,00,00,01,
256335954,00000570,false,Rx,0,8,02,00,85,00,00,00,00,01,
256435957,00000570,false,Rx,0,8,02,00,85,00,00,00,00,01,
256535974,00000570,false,Rx,0,8,02,00,85,00,00,00,00,01,
256635965,00000570,false,Rx,0,8,02,00,85,00,00,00,00,01,
256735965,00000570,false,Rx,0,8,02,00,85,00,00,00,00,01,
256835964,00000570,false,Rx,0,8,02,00,85,00,00,00,00,01,
256935958,00000570,false,Rx,0,8,02,00,85,00,00,00,00,01,
257035959,00000570,false,Rx,0,8,02,00,85,00,00,00,00,01,
257135992,00000570,false,Rx,0,8,02,00,85,00,00,00,00,01,
257235981,00000570,false,Rx,0,8,02,00,85,00,00,00,00,01,
257335971,00000570,false,Rx,0,8,02,00,85,00,00,00,00,01,
257435973,00000570,false,Rx,0,8,02,00,85,00,00,00,00,01,
257535972,00000570,false,Rx,0,8,02,00,85,00,00,00,00,01,
257635973,00000570,false,Rx,0,8,02,00,85,00,00,00,00,01,
257735973,00000570,false,Rx,0,8,02,00,85,00,00,00,00,01,
257835994,00000570,false,Rx,0,8,02,00,85,00,00,00,00,01,
257935994,00000570,false,Rx,0,8,02,00,85,00,00,00,00,01,
258035996,00000570,false,Rx,0,8,00,00,85,00,00,00,00,00,
258136275,00000570,false,Rx,0,8,00,00,85,00,06,00,00,00,
258236212,00000570,false,Rx,0,8,00,05,85,00,0B,02,00,00,
258336202,00000570,false,Rx,0,8,00,0C,85,00,0E,04,00,00,
258436255,00000570,false,Rx,0,8,00,13,85,00,11,05,00,00,
258536254,00000570,false,Rx,0,8,00,1A,85,00,14,07,00,00,
258636244,00000570,false,Rx,0,8,00,20,85,00,17,08,00,00,
258736233,00000570,false,Rx,0,8,00,40,85,00,1A,08,00,00,
258836233,00000570,false,Rx,0,8,00,4B,85,00,19,06,00,00,
258936227,00000570,false,Rx,0,8,00,49,85,00,19,04,00,00,
259036383,00000570,false,Rx,0,8,00,4C,85,00,1A,03,00,00,
259136435,00000570,false,Rx,0,8,00,56,85,00,1C,02,00,00,
259236426,00000570,false,Rx,0,8,00,5F,85,00,1F,02,00,00,
259336426,00000570,false,Rx,0,8,00,67,85,00,22,01,00,00,
259436418,00000570,false,Rx,0,8,00,6E,85,00,25,01,00,00,
259536405,00000570,false,Rx,0,8,00,73,85,00,27,01,00,00,
259636394,00000570,false,Rx,0,8,00,78,85,00,29,01,00,00,
259736447,00000570,false,Rx,0,8,00,7C,85,00,2A,01,00,00,
259836438,00000570,false,Rx,0,8,00,80,85,00,2B,01,00,00,
259936439,00000570,false,Rx,0,8,00,83,85,00,2C,01,00,00,
260036428,00000570,false,Rx,0,8,00,85,85,00,2D,01,00,00,
260136418,00000570,false,Rx,0,8,00,87,85,00,2E,01,00,00,
260236420,00000570,false,Rx,0,8,00,88,85,00,2E,01,00,00,
260336409,00000570,false,Rx,0,8,00,89,85,00,2F,01,00,00,
260436454,00000570,false,Rx,0,8,00,89,85,00,2F,01,00,00,
260536450,00000570,false,Rx,0,8,00,89,85,00,2F,01,00,00,
260636441,00000570,false,Rx,0,8,00,89,85,00,2F,01,00,00,
260736431,00000570,false,Rx,0,8,00,88,85,00,2F,00,00,00,
260836430,00000570,false,Rx,0,8,00,87,85,00,2E,00,00,00,
260936421,00000570,false,Rx,0,8,00,86,85,00,2E,00,00,00,
261036419,00000570,false,Rx,0,8,00,85,85,00,2E,00,00,00,
261136461,00000570,false,Rx,0,8,00,84,85,00,2D,00,00,00,
261236461,00000570,false,Rx,0,8,00,83,85,00,2D,00,00,00,
261336451,00000570,false,Rx,0,8,00,81,85,00,2C,00,00,00,
261436444,00000570,false,Rx,0,8,00,80,85,00,2C,00,00,00,
261536445,00000570,false,Rx,0,8,00,7E,85,00,2B,00,00,00,
261636436,00000570,false,Rx,0,8,00,7D,85,00,2B,00,00,00,
261736478,00000570,false,Rx,0,8,00,7B,85,00,2A,00,00,00,
261836478,00000570,false,Rx,0,8,00,7A,85,00,2A,00,00,00,
261936470,00000570,false,Rx,0,8,00,79,85,00,29,00,00,00,
262036461,00000570,false,Rx,0,8,02,77,85,00,29,00,00,10,
262136504,00000570,false,Rx,0,8,02,6C,85,00,25,00,00,10,
262236441,00000570,false,Rx,0,8,02,5F,85,00,21,00,00,10,
262336493,00000570,false,Rx,0,8,02,52,85,00,1C,00,00,10,
262436486,00000570,false,Rx,0,8,02,45,85,00,18,00,00,10,
262536481,00000570,false,Rx,0,8,02,3A,85,00,14,00,00,10,
262636481,00000570,false,Rx,0,8,02,2E,85,00,10,00,00,10,
262736067,00000570,false,Rx,0,8,02,10,85,00,04,00,00,10,
262836068,00000570,false,Rx,0,8,02,01,85,00,00,00,00,10,
262936071,00000570,false,Rx,0,8,02,00,85,00,00,00,00,10,
263036089,00000570,false,Rx,0,8,02,00,85,00,00,00,00,10,
263136088,00000570,false,Rx,0,8,02,00,85,00,00,00,00,10,
263236078,00000570,false,Rx,0,8,02,00,85,00,00,00,00,10,
263336079,00000570,false,Rx,0,8,02,00,85,00,00,00,00,10,
263436080,00000570,false,Rx,0,8,02,00,85,00,00,00,00,10,
263536078,00000570,false,Rx,0,8,02,00,85,00,00,00,00,10,
263636077,00000570,false,Rx,0,8,02,00,85,00,00,00,00,10,
263736104,00000570,false,Rx,0,8,02,00,85,00,00,00,00,10,
263836094,00000570,false,Rx,0,8,02,00,85,00,00,00,00,10,
263936087,00000570,false,Rx,0,8,02,00,85,00,00,00,00,10,
264036094,00000570,false,Rx,0,8,02,00,85,00,00,00,00,10,
264136323,00000570,false,Rx,0,8,02,00,85,00,04,00,00,10,
264236317,00000570,false,Rx,0,8,02,04,85,00,0B,02,00,10,
264336358,00000570,false,Rx,0,8,02,0A,85,00,0E,03,00,10,
264436399,00000570,false,Rx,0,8,02,11,85,00,10,05,00,10,
264536348,00000570,false,Rx,0,8,02,19,85,00,13,06,00,10,
264636337,00000570,false,Rx,0,8,02,1F,85,00,17,08,00,10,
264736327,00000570,false,Rx,0,8,02,39,85,00,19,09,00,10,
264836316,00000570,false,Rx,0,8,02,4C,85,00,19,07,00,10,
264936369,00000570,false,Rx,0,8,02,4A,85,00,19,05,00,10,
265036535,00000570,false,Rx,0,8,02,4B,85,00,1A,03,00,10,
265136524,00000570,false,Rx,0,8,02,55,85,00,1C,02,00,10,
265236524,00000570,false,Rx,0,8,02,5E,85,00,1F,02,00,10,
265336513,00000570,false,Rx,0,8,02,66,85,00,22,01,00,10,
265436495,00000570,false,Rx,0,8,02,6D,85,00,25,01,00,10,
265536504,00000570,false,Rx,0,8,02,74,85,00,27,01,00,10,
265636545,00000570,false,Rx,0,8,02,79,85,00,29,01,00,10,
265736538,00000570,false,Rx,0,8,02,7E,85,00,2B,01,00,10,
265836534,00000570,false,Rx,0,8,02,82,85,00,2C,01,00,10,
265936526,00000570,false,Rx,0,8,02,85,85,00,2D,01,00,10,
266036514,00000570,false,Rx,0,8,02,88,85,00,2E,01,00,10,
266136514,00000570,false,Rx,0,8,02,89,85,00,2F,01,00,10,
266236519,00000570,false,Rx,0,8,02,8A,85,00,2F,01,00,10,
266336562,00000570,false,Rx,0,8,02,8B,85,00,30,01,00,10,
266436551,00000570,false,Rx,0,8,02,8C,85,00,30,01,00,10,
266536541,00000570,false,Rx,0,8,02,8C,85,00,30,01,00,10,
266636541,00000570,false,Rx,0,8,02,8C,85,00,30,01,00,10,
266736534,00000570,false,Rx,0,8,02,8C,85,00,30,01,00,10,
266836525,00000570,false,Rx,0,8,02,8B,85,00,30,01,00,10,
266936567,00000570,false,Rx,0,8,02,8A,85,00,2F,01,00,10,
267036566,00000570,false,Rx,0,8,02,89,85,00,2F,01,00,10,
267136555,00000570,false,Rx,0,8,02,87,85,00,2F,00,00,10,
267236549,00000570,false,Rx,0,8,02,86,85,00,2E,00,00,10,
267336544,00000570,false,Rx,0,8,02,85,85,00,2E,00,00,10,
267436544,00000570,false,Rx,0,8,02,84,85,00,2D,00,00,10,
267536587,00000570,false,Rx,0,8,02,82,85,00,2D,00,00,10,
267636586,00000570,false,Rx,0,8,02,81,85,00,2C,00,00,10,
267736581,00000570,false,Rx,0,8,02,7F,85,00,2C,00,00,10,
267836571,00000570,false,Rx,0,8,02,7D,85,00,2B,00,00,10,
267936563,00000570,false,Rx,0,8,02,7B,85,00,2A,00,00,10,
268036554,00000570,false,Rx,0,8,02,79,85,00,2A,00,00,10,
268136545,00000570,false,Rx,0,8,02,71,85,00,27,00,00,10,
268236591,00000570,false,Rx,0,8,02,64,85,00,22,00,00,10,
268336592,00000570,false,Rx,0,8,02,57,85,00,1E,00,00,10,
268436583,00000570,false,Rx,0,8,02,4B,85,00,1A,00,00,10,
268536581,00000570,false,Rx,0,8,02,3F,85,00,16,00,00,10,
268636571,00000570,false,Rx,0,8,02,34,85,00,12,00,00,10,
268736566,00000570,false,Rx,0,8,02,29,85,00,0E,00,00,10,
268836171,00000570,false,Rx,0,8,02,02,85,00,01,00,00,10,
268936194,00000570,false,Rx,0,8,02,00,85,00,00,00,00,10,
269036193,00000570,false,Rx,0,8,02,00,85,00,00,00,00,10,
269136182,00000570,false,Rx,0,8,02,00,85,00,00,00,00,10,
269236176,00000570,false,Rx,0,8,02,00,85,00,00,00,00,10,
269336177,00000570,false,Rx,0,8,02,00,85,00,00,00,00,10,
269436190,00000570,false,Rx,0,8,02,00,85,00,00,00,00,10,
269536211,00000570,false,Rx,0,8,02,00,85,00,00,00,00,10,
269636201,00000570,false,Rx,0,8,02,00,85,00,00,00,00,10,
269736202,00000570,false,Rx,0,8,02,00,85,00,00,00,00,10,
269836191,00000570,false,Rx,0,8,02,00,85,00,00,00,00,10,
269936192,00000570,false,Rx,0,8,02,00,85,00,00,00,00,10,
270036203,00000570,false,Rx,0,8,02,00,85,00,00,00,00,10,
270136471,00000570,false,Rx,0,8,02,00,85,00,02,00,00,10,
270236465,00000570,false,Rx,0,8,02,03,85,00,0A,02,00,10,
270336462,00000570,false,Rx,0,8,02,09,85,00,0D,03,00,10,
270436441,00000570,false,Rx,0,8,02,10,85,00,10,05,00,10,
270536493,00000570,false,Rx,0,8,02,17,85,00,13,06,00,10,
270636430,00000570,false,Rx,0,8,02,1E,85,00,16,08,00,10,
270736424,00000570,false,Rx,0,8,02,2C,85,00,19,09,00,10,
270836471,00000570,false,Rx,0,8,02,4A,85,00,19,07,00,10,
270936472,00000570,false,Rx,0,8,02,49,85,00,19,05,00,10,
271036627,00000570,false,Rx,0,8,02,49,85,00,19,04,00,10,
271136618,00000570,false,Rx,0,8,02,51,85,00,1B,03,00,10,
271236618,00000570,false,Rx,0,8,02,5B,85,00,1E,02,00,10,
271336608,00000570,false,Rx,0,8,02,63,85,00,21,01,00,10,
271436607,00000570,false,Rx,0,8,02,69,85,00,23,01,00,10,
271536660,00000570,false,Rx,0,8,02,6F,85,00,25,01,00,10,
271636639,00000570,false,Rx,0,8,02,74,85,00,27,01,00,10,
271736643,00000570,false,Rx,0,8,02,78,85,00,29,01,00,10,
271836636,00000570,false,Rx,0,8,02,7C,85,00,2A,01,00,10,
271936625,00000570,false,Rx,0,8,02,7F,85,00,2B,01,00,10,
272036627,00000570,false,Rx,0,8,02,82,85,00,2C,01,00,10,
272136659,00000570,false,Rx,0,8,02,84,85,00,2D,01,00,10,
272236659,00000570,false,Rx,0,8,02,85,85,00,2E,01,00,10,
272336648,00000570,false,Rx,0,8,02,86,85,00,2E,01,00,10,
272436648,00000570,false,Rx,0,8,02,87,85,00,2E,01,00,10,
272536639,00000570,false,Rx,0,8,02,87,85,00,2E,01,00,10,
272636639,00000570,false,Rx,0,8,02,87,85,00,2E,01,00,10,
272736621,00000570,false,Rx,0,8,02,87,85,00,2E,01,00,10,
272836680,00000570,false,Rx,0,8,02,86,85,00,2E,00,00,10,
272936669,00000570,false,Rx,0,8,02,86,85,00,2E,00,00,10,
273036659,00000570,false,Rx,0,8,02,85,85,00,2E,00,00,10,
273136659,00000570,false,Rx,0,8,02,85,85,00,2D,00,00,10,
273236643,00000570,false,Rx,0,8,02,84,85,00,2D,00,00,10,
273336643,00000570,false,Rx,0,8,02,83,85,00,2D,00,00,10,
273436633,00000570,false,Rx,0,8,02,82,85,00,2D,00,00,10,
273536686,00000570,false,Rx,0,8,02,81,85,00,2C,00,00,10,
273636686,00000570,false,Rx,0,8,02,80,85,00,2C,00,00,10,
273736679,00000570,false,Rx,0,8,02,7F,85,00,2C,00,00,10,
273836669,00000570,false,Rx,0,8,02,7E,85,00,2B,00,00,10,
273936660,00000570,false,Rx,0,8,02,7C,85,00,2B,00,00,10,
274036659,00000570,false,Rx,0,8,02,7B,85,00,2A,00,00,10,
274136700,00000570,false,Rx,0,8,02,75,85,00,28,00,00,10,
274236695,00000570,false,Rx,0,8,02,68,85,00,23,00,00,10,
274336686,00000570,false,Rx,0,8,02,5A,85,00,1F,00,00,10,
274436678,00000570,false,Rx,0,8,02,4E,85,00,1B,00,00,10,
274536670,00000570,false,Rx,0,8,02,42,85,00,17,00,00,10,
274636721,00000570,false,Rx,0,8,02,36,85,00,13,00,00,10,
274736659,00000570,false,Rx,0,8,02,2B,85,00,0F,00,00,10,
274836295,00000570,false,Rx,0,8,02,03,85,00,01,00,00,10,
274936295,00000570,false,Rx,0,8,02,00,85,00,00,00,00,10,
275036285,00000570,false,Rx,0,8,02,00,85,00,00,00,00,10,
275136286,00000570,false,Rx,0,8,02,00,85,00,00,00,00,10,
275236289,00000570,false,Rx,0,8,02,00,85,00,00,00,00,10,
275336285,00000570,false,Rx,0,8,02,00,85,00,00,00,00,10,
275436285,00000570,false,Rx,0,8,02,00,85,00,00,00,00,10,
275536305,00000570,false,Rx,0,8,02,00,85,00,00,00,00,10,
275636296,00000570,false,Rx,0,8,02,00,85,00,00,00,00,10,
275736299,00000570,false,Rx,0,8,02,00,85,00,00,00,00,10,
275836301,00000570,false,Rx,0,8,02,00,85,00,00,00,00,10,
275936301,00000570,false,Rx,0,8,02,00,85,00,00,00,00,10,
276036304,00000570,false,Rx,0,8,02,00,85,00,00,00,00,10,
276136576,00000570,false,Rx,0,8,02,00,85,00,00,00,00,10,
276236611,00000570,false,Rx,0,8,02,02,85,00,09,01,00,10,
276336550,00000570,false,Rx,0,8,02,08,85,00,0D,03,00,10,
276436542,00000570,false,Rx,0,8,02,0F,85,00,0F,04,00,10,
276536543,00000570,false,Rx,0,8,02,15,85,00,12,06,00,10,
276636532,00000570,false,Rx,0,8,02,1C,85,00,15,07,00,10,
276736574,00000570,false,Rx,0,8,02,25,85,00,19,09,00,10,
276836564,00000570,false,Rx,0,8,02,4B,85,00,1A,07,00,10,
276936565,00000570,false,Rx,0,8,02,4B,85,00,19,05,00,10,
277036721,00000570,false,Rx,0,8,02,4A,85,00,19,04,00,10,
277136721,00000570,false,Rx,0,8,02,51,85,00,1B,03,00,10,
277236711,00000570,false,Rx,0,8,02,5C,85,00,1E,02,00,10,
277336711,00000570,false,Rx,0,8,02,64,85,00,21,02,00,10,
277436752,00000570,false,Rx,0,8,02,6C,85,00,24,01,00,10,
277536752,00000570,false,Rx,0,8,02,72,85,00,26,01,00,10,
277636742,00000570,false,Rx,0,8,02,77,85,00,28,01,00,10,
277736734,00000570,false,Rx,0,8,02,7C,85,00,2A,01,00,10,
277836732,00000570,false,Rx,0,8,02,80,85,00,2B,01,00,10,
277936711,00000570,false,Rx,0,8,02,84,85,00,2D,01,00,10,
278036762,00000570,false,Rx,0,8,02,86,85,00,2E,01,00,10,
278136762,00000570,false,Rx,0,8,02,88,85,00,2E,01,00,10,
278236756,00000570,false,Rx,0,8,02,8A,85,00,2F,01,00,10,
278336752,00000570,false,Rx,0,8,02,8B,85,00,2F,01,00,10,
278436752,00000570,false,Rx,0,8,02,8B,85,00,30,01,00,10,
278536742,00000570,false,Rx,0,8,02,8B,85,00,30,01,00,10,
278636731,00000570,false,Rx,0,8,02,8B,85,00,30,01,00,10,
278736778,00000570,false,Rx,0,8,02,8A,85,00,2F,01,00,10,
278836769,00000570,false,Rx,0,8,02,89,85,00,2F,01,00,10,
278936770,00000570,false,Rx,0,8,02,88,85,00,2F,01,00,10,
279036762,00000570,false,Rx,0,8,02,87,85,00,2E,00,00,10,
279136751,00000570,false,Rx,0,8,02,86,85,00,2E,00,00,10,
279236746,00000570,false,Rx,0,8,02,84,85,00,2E,00,00,10,
279336742,00000570,false,Rx,0,8,02,83,85,00,2D,00,00,10,
279436793,00000570,false,Rx,0,8,02,81,85,00,2C,00,00,10,
279536788,00000570,false,Rx,0,8,02,80,85,00,2C,00,00,10,
279636772,00000570,false,Rx,0,8,02,7E,85,00,2B,00,00,10,
279736773,00000570,false,Rx,0,8,02,7D,85,00,2B,00,00,10,
279836763,00000570,false,Rx,0,8,02,7C,85,00,2A,00,00,10,
279936752,00000570,false,Rx,0,8,02,7B,85,00,2A,00,00,10,
280036804,00000570,false,Rx,0,8,02,7A,85,00,2A,00,00,10,
280136804,00000570,false,Rx,0,8,00,76,85,00,28,00,00,10,
280236787,00000570,false,Rx,0,8,00,6A,85,00,24,00,00,10,
280336788,00000570,false,Rx,0,8,00,5D,85,00,20,00,00,10,
280436778,00000570,false,Rx,0,8,00,51,85,00,1C,00,00,10,
280536772,00000570,false,Rx,0,8,00,45,85,00,18,00,00,10,
280636763,00000570,false,Rx,0,8,00,39,85,00,14,00,00,10,
280736818,00000570,false,Rx,0,8,00,2E,85,00,10,00,00,10,
280836405,00000570,false,Rx,0,8,00,09,85,00,02,00,00,10,
280936395,00000570,false,Rx,0,8,00,01,85,00,00,00,00,10,
281036385,00000570,false,Rx,0,8,00,00,85,00,00,00,00,10,
281136395,00000570,false,Rx,0,8,00,00,85,00,00,00,00,10,
281236387,00000570,false,Rx,0,8,00,00,85,00,00,00,00,10,
281336416,00000570,false,Rx,0,8,00,00,85,00,00,00,00,10,
281436407,00000570,false,Rx,0,8,00,00,85,00,00,00,00,10,
281536409,00000570,false,Rx,0,8,00,00,85,00,00,00,00,10,
281636399,00000570,false,Rx,0,8,00,00,85,00,00,00,00,10,
281736400,00000570,false,Rx,0,8,00,00,85,00,00,00,00,10,
281836399,00000570,false,Rx,0,8,00,00,85,00,00,00,00,10,
281936409,00000570,false,Rx,0,8,00,00,85,00,00,00,00,10,
282036433,00000570,false,Rx,0,8,00,00,85,00,00,00,00,10,
282136429,00000570,false,Rx,0,8,00,00,85,00,00,00,00,10,
282236660,00000570,false,Rx,0,8,00,00,85,00,07,01,00,10,
282336649,00000570,false,Rx,0,8,00,07,85,00,0C,03,00,10,
282436690,00000570,false,Rx,0,8,00,0E,85,00,0F,04,00,10,
282536642,00000570,false,Rx,0,8,00,14,85,00,11,06,00,10,
282636675,00000570,false,Rx,0,8,00,1B,85,00,15,07,00,10,
282736678,00000570,false,Rx,0,8,00,20,85,00,18,09,00,10,
282836669,00000570,false,Rx,0,8,00,46,85,00,19,08,00,10,
282936659,00000570,false,Rx,0,8,00,4A,85,00,19,06,00,10,
283036653,00000570,false,Rx,0,8,00,49,85,00,19,04,00,10,
283136820,00000570,false,Rx,0,8,00,4D,85,00,1A,03,00,10,
283236810,00000570,false,Rx,0,8,00,57,85,00,1D,02,00,10,
283336861,00000570,false,Rx,0,8,00,60,85,00,20,02,00,10,
283436852,00000570,false,Rx,0,8,00,67,85,00,22,01,00,10,
283536846,00000570,false,Rx,0,8,00,6E,85,00,25,01,00,10,
283636835,00000570,false,Rx,0,8,00,74,85,00,27,01,00,10,
283736826,00000570,false,Rx,0,8,00,79,85,00,29,01,00,10,
283836835,00000570,false,Rx,0,8,00,7D,85,00,2A,01,00,10,
283936825,00000570,false,Rx,0,8,00,81,85,00,2C,01,00,10,
284036871,00000570,false,Rx,0,8,00,84,85,00,2D,01,00,10,
284136854,00000570,false,Rx,0,8,00,86,85,00,2E,01,00,10,
284236855,00000570,false,Rx,0,8,00,88,85,00,2E,01,00,10,
284336845,00000570,false,Rx,0,8,00,89,85,00,2F,01,00,10,
284436835,00000570,false,Rx,0,8,00,8A,85,00,2F,01,00,10,
284536830,00000570,false,Rx,0,8,00,8A,85,00,2F,01,00,10,
284636881,00000570,false,Rx,0,8,00,8A,85,00,2F,01,00,10,
284736875,00000570,false,Rx,0,8,00,89,85,00,2F,01,00,10,
284836866,00000570,false,Rx,0,8,00,89,85,00,2F,01,00,10,
284936866,00000570,false,Rx,0,8,00,88,85,00,2F,01,00,10,
285036856,00000570,false,Rx,0,8,00,87,85,00,2E,00,00,10,
285136855,00000570,false,Rx,0,8,00,86,85,00,2E,00,00,10,
285236845,00000570,false,Rx,0,8,00,85,85,00,2E,00,00,10,
285336887,00000570,false,Rx,0,8,00,84,85,00,2D,00,00,10,
285436887,00000570,false,Rx,0,8,00,83,85,00,2D,00,00,10,
285536876,00000570,false,Rx,0,8,00,82,85,00,2C,00,00,10,
285636876,00000570,false,Rx,0,8,00,80,85,00,2C,00,00,10,
285736868,00000570,false,Rx,0,8,00,7F,85,00,2C,00,00,10,
285836856,00000570,false,Rx,0,8,00,7E,85,00,2B,00,00,10,
285936908,00000570,false,Rx,0,8,00,7C,85,00,2B,00,00,10,
286036902,00000570,false,Rx,0,8,00,7B,85,00,2A,00,00,10,
286136894,00000570,false,Rx,0,8,00,7A,85,00,2A,00,00,10,
286236885,00000570,false,Rx,0,8,00,79,85,00,29,00,00,10,
286336875,00000570,false,Rx,0,8,00,77,85,00,29,00,00,10,
286436875,00000570,false,Rx,0,8,00,76,85,00,28,00,00,10,
286536917,00000570,false,Rx,0,8,00,74,85,00,28,00,00,10,
286636907,00000570,false,Rx,0,8,00,73,85,00,27,00,00,10,
286736910,00000570,false,Rx,0,8,00,71,85,00,27,00,00,10,
286836907,00000570,false,Rx,0,8,00,71,85,00,27,00,00,10,
286936897,00000570,false,Rx,0,8,00,70,85,00,26,00,00,10,
287036887,00000570,false,Rx,0,8,00,6F,85,00,26,00,00,10,
287136887,00000570,false,Rx,0,8,00,6E,85,00,26,00,00,10,
287236930,00000570,false,Rx,0,8,00,6D,85,00,25,00,00,10,
287336928,00000570,false,Rx,0,8,00,6C,85,00,25,00,00,10,
287436918,00000570,false,Rx,0,8,00,6C,85,00,25,00,00,10,
287536907,00000570,false,Rx,0,8,00,6B,85,00,25,00,00,10,
287636907,00000570,false,Rx,0,8,00,6A,85,00,24,00,00,10,
287736899,00000570,false,Rx,0,8,00,69,85,00,24,00,00,10,
287836897,00000570,false,Rx,0,8,00,69,85,00,24,00,00,10,
287936938,00000570,false,Rx,0,8,00,69,85,00,24,00,00,10,
288036938,00000570,false,Rx,0,8,00,68,85,00,24,00,00,10,
288136928,00000570,false,Rx,0,8,00,67,85,00,23,00,00,10,
288236922,00000570,false,Rx,0,8,00,66,85,00,23,00,00,10,
288336908,00000570,false,Rx,0,8,00,66,85,00,23,00,00,10,
288436897,00000570,false,Rx,0,8,02,62,85,00,21,00,00,11,
288536948,00000570,false,Rx,0,8,02,56,85,00,1D,00,00,11,
288636949,00000570,false,Rx,0,8,02,4A,85,00,19,00,00,11,
288736942,00000570,false,Rx,0,8,02,3E,85,00,15,00,00,11,
288836928,00000570,false,Rx,0,8,02,32,85,00,11,00,00,11,
288936928,00000570,false,Rx,0,8,02,27,85,00,0E,00,00,11,
289036524,00000570,false,Rx,0,8,02,02,85,00,01,00,00,01,
289136535,00000570,false,Rx,0,8,02,00,85,00,00,00,00,01,
289236556,00000570,false,Rx,0,8,02,00,85,00,00,00,00,01,
289336544,00000570,false,Rx,0,8,02,00,85,00,00,00,00,01,
289436535,00000570,false,Rx,0,8,02,00,85,00,00,00,00,01,
289536539,00000570,false,Rx,0,8,02,00,85,00,00,00,00,01,
289636540,00000570,false,Rx,0,8,02,00,85,00,00,00,00,01,
289736541,00000570,false,Rx,0,8,02,00,85,00,00,00,00,01,
289836540,00000570,false,Rx,0,8,02,00,85,00,00,00,00,01,
289936561,00000570,false,Rx,0,8,02,00,85,00,00,00,00,01,
290036809,00000570,false,Rx,0,8,02,00,85,00,00,00,00,01,
