Time Stamp,ID,Extended,Dir,Bus,LEN,D1,D2,D3,D4,D5,D6,D7,D8
14246166,00000523,false,Tx,0,8,00,00,00,00,00,00,00,00,
14349409,00000523,false,Tx,0,8,00,00,00,00,00,00,00,00,
14473037,00000523,false,Tx,0,8,00,00,00,00,00,00,00,00,
14581243,00000523,false,Tx,0,8,00,00,00,00,00,00,00,00,
14690087,00000523,false,Tx,0,8,00,00,00,00,00,00,00,00,
14796598,00000523,false,Tx,0,8,00,00,00,00,00,00,00,00,
14916743,00000523,false,Tx,0,8,00,00,00,00,00,00,00,00,
15032137,00000523,false,Tx,0,8,00,00,00,00,00,00,00,00,
15138642,00000523,false,Tx,0,8,00,00,00,00,00,00,00,00,
15260605,00000523,false,Tx,0,8,00,00,00,00,00,00,00,00,
15370416,00000523,false,Tx,0,8,00,00,00,00,00,00,00,00,
15499906,00000523,false,Tx,0,8,00,00,00,00,00,00,00,00,
15602494,00000523,false,Tx,0,8,00,00,00,00,00,00,00,00,
15724508,00000523,false,Tx,0,8,00,00,00,00,00,00,00,00,
15825322,00000523,false,Tx,0,8,00,00,00,00,00,00,00,00,
15935118,00000523,false,Tx,0,8,00,00,00,00,00,00,00,00,
16047119,00000523,false,Tx,0,8,00,00,00,00,00,00,00,00,
16157474,00000523,false,Tx,0,8,00,00,00,00,00,00,00,00,
16263910,00000523,false,Tx,0,8,00,00,00,00,00,00,00,00,
16374861,00000523,false,Tx,0,8,00,00,00,00,00,00,00,00,
16479168,00000523,false,Tx,0,8,00,00,00,00,00,00,00,00,
16618738,00000523,false,Tx,0,8,00,00,00,00,00,00,00,00,
16711106,00000523,false,Tx,0,8,00,00,00,00,00,00,00,00,
16810989,00000523,false,Tx,0,8,00,00,00,00,00,00,00,00,
16925200,00000523,false,Tx,0,8,00,00,00,00,00,00,00,00,
17027055,00000523,false,Tx,0,8,00,00,00,00,00,00,00,00,
17134957,00000523,false,Tx,0,8,00,00,00,00,00,00,00,00,
17243211,00000523,false,Tx,0,8,00,00,00,00,00,00,00,00,
17371113,00000523,false,Tx,0,8,00,00,00,00,00,00,00,00,
17481547,00000523,false,Tx,0,8,00,00,00,00,00,00,00,00,
17622843,00000523,false,Tx,0,8,00,00,00,00,00,00,00,00,
17697356,00000523,false,Tx,0,8,00,00,00,00,00,00,00,00,
17816916,00000523,false,Tx,0,8,00,00,00,00,00,00,00,00,
17919332,00000523,false,Tx,0,8,00,00,00,00,00,00,00,00,
18025626,00000523,false,Tx,0,8,00,00,00,00,00,00,00,00,
18138687,00000523,false,Tx,0,8,00,00,00,00,00,00,00,00,
18250444,00000523,false,Tx,0,8,00,00,00,00,00,00,00,00,
18374121,00000523,false,Tx,0,8,00,00,00,00,00,00,00,00,
18467788,00000523,false,Tx,0,8,00,00,00,00,00,00,00,00,
18589346,00000523,false,Tx,0,8,00,00,00,00,00,00,00,00,
18683713,00000523,false,Tx,0,8,00,00,00,00,00,00,00,00,
18799328,00000523,false,Tx,0,8,00,00,00,00,00,00,00,00,
18913823,00000523,false,Tx,0,8,00,00,00,00,00,00,00,00,
18913825,00000570,false,Rx,0,8,00,00,85,00,00,00,00,00,
19015574,00000523,false,Tx,0,8,00,00,00,00,00,00,00,00,
19014540,00000570,false,Rx,0,8,00,00,85,00,00,00,00,00,
19114543,00000570,false,Rx,0,8,00,00,85,00,00,00,00,00,
19140455,00000523,false,Tx,0,8,00,00,00,00,00,00,00,00,
19232780,00000523,false,Tx,0,8,00,00,00,00,00,00,00,00,
19214560,00000570,false,Rx,0,8,00,00,85,00,00,00,00,00,
19314551,00000570,false,Rx,0,8,00,00,85,00,00,00,00,00,
19368335,00000523,false,Tx,0,8,00,00,00,00,00,00,00,00,
19414551,00000570,false,Rx,0,8,00,00,85,00,00,00,00,00,
19449553,00000523,false,Tx,0,8,00,00,00,00,00,00,00,00,
19514551,00000570,false,Rx,0,8,00,00,85,00,00,00,00,00,
19561235,00000523,false,Tx,0,8,00,00,00,00,00,00,00,00,
19614550,00000570,false,Rx,0,8,00,00,85,00,00,00,00,00,
19664266,00000523,false,Tx,0,8,00,00,00,00,00,00,00,00,
19714550,00000570,false,Rx,0,8,00,00,85,00,00,00,00,00,
19774614,00000523,false,Tx,0,8,00,00,00,00,00,00,00,00,
19814573,00000570,false,Rx,0,8,00,00,85,00,00,00,00,00,
19883321,00000523,false,Tx,0,8,00,00,00,00,00,00,00,00,
19914571,00000570,false,Rx,0,8,00,00,85,00,00,00,00,00,
20003080,00000523,false,Tx,0,8,00,00,00,00,00,00,00,00,
20014561,00000570,false,Rx,0,8,00,00,85,00,00,00,00,00,
20125048,00000523,false,Tx,0,8,00,00,00,00,00,00,00,00,
20114560,00000570,false,Rx,0,8,00,00,85,00,00,00,00,00,
20210443,00000523,false,Tx,0,8,00,00,00,00,00,00,00,00,
20214560,00000570,false,Rx,0,8,00,00,85,00,00,00,00,00,
20314564,00000570,false,Rx,0,8,00,00,85,00,00,00,00,00,
20337697,00000523,false,Tx,0,8,00,00,00,00,00,00,00,00,
20428021,00000523,false,Tx,0,8,00,00,00,00,00,00,00,00,
20414587,00000570,false,Rx,0,8,00,00,85,00,00,00,00,00,
20514588,00000570,false,Rx,0,8,00,00,85,00,00,00,00,00,
20544218,00000523,false,Tx,0,8,00,00,00,00,00,00,00,00,
20614587,00000570,false,Rx,0,8,00,00,85,00,00,00,00,00,
20656929,00000523,false,Tx,0,8,00,00,00,00,00,00,00,00,
20714577,00000570,false,Rx,0,8,00,00,85,00,00,00,00,00,
20769582,00000523,false,Tx,0,8,00,00,00,00,00,00,00,00,
20814580,00000570,false,Rx,0,8,00,00,85,00,00,00,00,00,
20866910,00000523,false,Tx,0,8,00,00,00,00,00,00,00,00,
20914579,00000570,false,Rx,0,8,00,00,85,00,00,00,00,00,
21001250,00000523,false,Tx,0,8,00,00,00,00,00,00,00,00,
21014578,00000570,false,Rx,0,8,00,00,85,00,00,00,00,00,
21115202,00000523,false,Tx,0,8,00,00,00,00,00,00,00,00,
21114609,00000570,false,Rx,0,8,00,00,85,00,00,00,00,00,
21225195,00000523,false,Tx,0,8,00,00,00,00,00,00,00,00,
21214600,00000570,false,Rx,0,8,00,00,85,00,00,00,00,00,
21314595,00000570,false,Rx,0,8,00,00,85,00,00,00,00,00,
21338863,00000523,false,Tx,0,8,00,00,00,00,00,00,00,00,
21414592,00000570,false,Rx,0,8,00,00,85,00,00,00,00,00,
21454555,00000523,false,Tx,0,8,00,00,00,00,00,00,00,00,
21514592,00000570,false,Rx,0,8,00,00,85,00,00,00,00,00,
21570251,00000523,false,Tx,0,8,00,00,00,00,00,00,00,00,
21614591,00000570,false,Rx,0,8,00,00,85,00,00,00,00,00,
21691111,00000523,false,Tx,0,8,00,00,00,00,00,00,00,00,
21714622,00000570,false,Rx,0,8,00,00,85,00,00,00,00,00,
21825384,00000523,false,Tx,0,8,00,00,00,00,00,00,00,00,
21814624,00000570,false,Rx,0,8,00,00,85,00,00,00,00,00,
21896059,00000523,false,Tx,0,8,00,00,00,00,00,00,00,00,
21914613,00000570,false,Rx,0,8,00,00,85,00,00,00,00,00,
22010595,00000523,false,Tx,0,8,00,00,00,00,00,00,00,00,
22014602,00000570,false,Rx,0,8,00,00,85,00,00,00,00,00,
22118922,00000523,false,Tx,0,8,00,00,00,00,00,00,00,00,
22114602,00000570,false,Rx,0,8,00,00,85,00,00,00,00,00,
22226567,00000523,false,Tx,0,8,00,00,00,00,00,00,00,00,
22214612,00000570,false,Rx,0,8,00,00,85,00,00,00,00,00,
22314606,00000570,false,Rx,0,8,00,00,85,00,00,00,00,00,
22372750,00000523,false,Tx,0,8,00,00,00,00,00,00,00,00,
22414628,00000570,false,Rx,0,8,00,00,85,00,00,00,00,00,
22447278,00000523,false,Tx,0,8,00,00,00,00,00,00,00,00,
22514628,00000570,false,Rx,0,8,00,00,85,00,00,00,00,00,
22561658,00000523,false,Tx,0,8,00,00,00,00,00,00,00,00,
22614618,00000570,false,Rx,0,8,00,00,85,00,00,00,00,00,
22668785,00000523,false,Tx,0,8,00,00,00,00,00,00,00,00,
22714619,00000570,false,Rx,0,8,00,00,85,00,00,00,00,00,
22777929,00000523,false,Tx,0,8,00,00,00,00,00,00,00,00,
22814621,00000570,false,Rx,0,8,00,00,85,00,00,00,00,00,
22881487,00000523,false,Tx,0,8,00,00,00,00,00,00,00,00,
22914619,00000570,false,Rx,0,8,00,00,85,00,00,00,00,00,
22995650,00000523,false,Tx,0,8,00,00,00,00,00,00,00,00,
23014618,00000570,false,Rx,0,8,00,00,85,00,00,00,00,00,
23123878,00000523,false,Tx,0,8,00,00,00,00,00,00,00,00,
23114643,00000570,false,Rx,0,8,00,00,85,00,00,00,00,00,
23219758,00000523,false,Tx,0,8,00,00,00,00,00,00,00,00,
23214644,00000570,false,Rx,0,8,00,00,85,00,00,00,00,00,
23330375,00000523,false,Tx,0,8,00,00,00,00,00,00,00,00,
23314636,00000570,false,Rx,0,8,00,00,85,00,00,00,00,00,
23414633,00000570,false,Rx,0,8,00,00,85,00,00,00,00,00,
23438861,00000523,false,Tx,0,8,00,00,00,00,00,00,00,00,
23514633,00000570,false,Rx,0,8,00,00,85,00,00,00,00,00,
23546183,00000523,false,Tx,0,8,00,00,00,00,00,00,00,00,
23614633,00000570,false,Rx,0,8,00,00,85,00,00,00,00,00,
23648225,00000523,false,Tx,0,8,00,00,00,00,00,00,00,00,
23714664,00000570,false,Rx,0,8,00,00,85,00,00,00,00,00,
23756946,00000523,false,Tx,0,8,00,00,00,00,00,00,00,00,
23814656,00000570,false,Rx,0,8,00,00,85,00,00,00,00,00,
23868165,00000523,false,Tx,0,8,00,00,00,00,00,00,00,00,
23914654,00000570,false,Rx,0,8,00,00,85,00,00,00,00,00,
23973178,00000523,false,Tx,0,8,00,00,00,00,00,00,00,00,
24014643,00000570,false,Rx,0,8,00,00,85,00,00,00,00,00,
24105413,00000523,false,Tx,0,8,00,00,00,00,00,00,00,00,
24114646,00000570,false,Rx,0,8,00,00,85,00,00,00,00,00,
24194420,00000523,false,Tx,0,8,00,00,00,00,00,00,00,00,
24214649,00000570,false,Rx,0,8,00,00,85,00,00,00,00,00,
24306157,00000523,false,Tx,0,8,00,00,00,00,00,00,00,00,
24314653,00000570,false,Rx,0,8,00,00,85,00,00,00,00,00,
24411581,00000523,false,Tx,0,8,00,00,00,00,00,00,00,00,
24414674,00000570,false,Rx,0,8,00,00,85,00,00,00,00,00,
24526118,00000523,false,Tx,0,8,00,00,00,00,00,00,00,00,
24514663,00000570,false,Rx,0,8,00,00,85,00,00,00,00,00,
24634480,00000523,false,Tx,0,8,00,00,00,00,00,00,00,00,
24614855,00000570,false,Rx,0,8,00,00,85,00,00,00,00,00,
24714664,00000570,false,Rx,0,8,00,00,85,00,00,00,00,00,
24745612,00000523,false,Tx,0,8,00,00,00,00,00,00,00,00,
24814658,00000570,false,Rx,0,8,00,00,85,00,00,00,00,00,
24877250,00000523,false,Tx,0,8,00,00,00,00,00,00,00,00,
24914659,00000570,false,Rx,0,8,00,00,85,00,00,00,00,00,
24960788,00000523,false,Tx,0,8,00,00,00,00,00,00,00,00,
25014690,00000570,false,Rx,0,8,00,00,85,00,00,00,00,00,
25074994,00000523,false,Tx,0,8,00,00,00,00,00,00,00,00,
25114681,00000570,false,Rx,0,8,00,00,85,00,00,00,00,00,
25176593,00000523,false,Tx,0,8,00,00,00,00,00,00,00,00,
25214681,00000570,false,Rx,0,8,00,00,85,00,00,00,00,00,
25288581,00000523,false,Tx,0,8,00,00,00,00,00,00,00,00,
25314673,00000570,false,Rx,0,8,00,00,85,00,00,00,00,00,
25404260,00000523,false,Tx,0,8,00,00,00,00,00,00,00,00,
25414670,00000570,false,Rx,0,8,00,00,85,00,00,00,00,00,
25510697,00000523,false,Tx,0,8,00,00,00,00,00,00,00,00,
25514680,00000570,false,Rx,0,8,00,00,85,00,00,00,00,00,
25630381,00000523,false,Tx,0,8,00,00,00,00,00,00,00,00,
25614682,00000570,false,Rx,0,8,00,00,85,00,00,00,00,00,
25714703,00000570,false,Rx,0,8,00,00,85,00,00,00,00,00,
25742387,00000523,false,Tx,0,8,00,00,00,00,00,00,00,00,
25814693,00000570,false,Rx,0,8,00,00,85,00,00,00,00,00,
25876420,00000523,false,Tx,0,8,00,00,00,00,00,00,00,00,
25914693,00000570,false,Rx,0,8,00,00,85,00,00,00,00,00,
25947854,00000523,false,Tx,0,8,00,00,00,00,00,00,00,00,
26014683,00000570,false,Rx,0,8,00,00,85,00,00,00,00,00,
26061799,00000523,false,Tx,0,8,00,00,00,00,00,00,00,00,
26114685,00000570,false,Rx,0,8,00,00,85,00,00,00,00,00,
26179711,00000523,false,Tx,0,8,00,00,00,00,00,00,00,00,
26214685,00000570,false,Rx,0,8,00,00,85,00,00,00,00,00,
26279971,00000523,false,Tx,0,8,00,00,00,00,00,00,00,00,
26314709,00000570,false,Rx,0,8,00,00,85,00,00,00,00,00,
26406289,00000523,false,Tx,0,8,00,00,00,00,00,00,00,00,
26414714,00000570,false,Rx,0,8,00,00,85,00,00,00,00,00,
26504828,00000523,false,Tx,0,8,00,00,00,00,00,00,00,00,
26514705,00000570,false,Rx,0,8,00,00,85,00,00,00,00,00,
26607472,00000523,false,Tx,0,8,00,00,00,00,00,00,00,00,
26614696,00000570,false,Rx,0,8,00,00,85,00,00,00,00,00,
26730995,00000523,false,Tx,0,8,00,00,00,00,00,00,00,00,
26714695,00000570,false,Rx,0,8,00,00,85,00,00,00,00,00,
26814706,00000570,false,Rx,0,8,00,00,85,00,00,00,00,00,
26857689,00000523,false,Tx,0,8,00,00,00,00,00,00,00,00,
26914705,00000570,false,Rx,0,8,00,00,85,00,00,00,00,00,
26951096,00000523,false,Tx,0,8,00,00,00,00,00,00,00,00,
27014726,00000570,false,Rx,0,8,00,00,85,00,00,00,00,00,
27081476,00000523,false,Tx,0,8,00,00,00,00,00,00,00,00,
27114726,00000570,false,Rx,0,8,00,00,85,00,00,00,00,00,
27174803,00000523,false,Tx,0,8,00,00,00,00,00,00,00,00,
27214716,00000570,false,Rx,0,8,00,00,85,00,00,00,00,00,
27300103,00000523,false,Tx,0,8,00,00,00,00,00,00,00,10,
27314715,00000570,false,Rx,0,8,00,00,85,00,00,00,00,00,
27394461,00000523,false,Tx,0,8,00,00,00,00,00,00,00,10,
27414944,00000570,false,Rx,0,8,00,00,85,00,03,00,00,00,
27515231,00000523,false,Tx,0,8,00,00,00,00,00,00,00,00,
27514758,00000570,false,Rx,0,8,00,09,85,00,09,01,00,00,
27614742,00000570,false,Rx,0,8,00,01,85,00,01,00,00,00,
27638824,00000523,false,Tx,0,8,00,00,00,00,00,00,00,10,
27715032,00000570,false,Rx,0,8,00,00,85,00,07,01,00,00,
27742584,00000523,false,Tx,0,8,00,00,00,00,00,00,00,10,
27815023,00000570,false,Rx,0,8,00,16,85,00,10,03,00,00,
27858688,00000523,false,Tx,0,8,00,00,00,00,00,00,00,10,
27915012,00000570,false,Rx,0,8,00,30,85,00,1C,07,00,00,
27956915,00000523,false,Tx,0,8,00,00,00,00,00,00,00,00,
28014950,00000570,false,Rx,0,8,00,5C,85,00,28,0A,00,00,
28060571,00000523,false,Tx,0,8,00,00,00,00,00,00,00,10,
28114941,00000570,false,Rx,0,8,00,69,85,00,2E,0A,00,00,
28168258,00000523,false,Tx,0,8,00,00,00,00,00,00,00,10,
28215107,00000570,false,Rx,0,8,00,6A,85,00,30,0B,00,00,
28273387,00000523,false,Tx,0,8,00,00,00,00,00,00,00,00,
28315160,00000570,false,Rx,0,8,00,59,85,00,29,0A,00,00,
28382451,00000523,false,Tx,0,8,00,00,00,00,00,00,00,10,
28415151,00000570,false,Rx,0,8,00,46,85,00,20,09,00,00,
28499099,00000523,false,Tx,0,8,00,00,00,00,00,00,00,10,
28515150,00000570,false,Rx,0,8,00,50,85,00,20,07,00,00,
28612936,00000523,false,Tx,0,8,00,00,00,00,00,00,00,00,
28615131,00000570,false,Rx,0,8,00,54,85,00,22,07,00,00,
28710456,00000523,false,Tx,0,8,00,00,00,00,00,00,00,00,
28715130,00000570,false,Rx,0,8,00,48,85,00,1F,06,00,00,
28828505,00000523,false,Tx,0,8,00,00,00,00,00,00,00,10,
28815183,00000570,false,Rx,0,8,00,35,85,00,17,05,00,00,
28928069,00000523,false,Tx,0,8,00,00,00,00,00,00,00,00,
28915120,00000570,false,Rx,0,8,00,32,85,00,14,04,00,00,
29015223,00000570,false,Rx,0,8,00,47,85,00,1A,04,00,00,
29042967,00000523,false,Tx,0,8,00,00,00,00,00,00,00,00,
29115165,00000570,false,Rx,0,8,00,39,85,00,17,03,00,00,
29146323,00000523,false,Tx,0,8,00,00,00,00,00,00,00,10,
29215161,00000570,false,Rx,0,8,00,2C,85,00,12,02,00,00,
29259634,00000523,false,Tx,0,8,00,00,00,00,00,00,00,10,
29315143,00000570,false,Rx,0,8,00,4A,85,00,1A,03,00,00,
29382390,00000523,false,Tx,0,8,00,00,00,00,00,00,00,00,
29415150,00000570,false,Rx,0,8,00,53,85,00,20,04,00,00,
29479034,00000523,false,Tx,0,8,00,00,00,00,00,00,00,00,
29515139,00000570,false,Rx,0,8,00,43,85,00,1D,04,00,00,
29605755,00000523,false,Tx,0,8,00,00,00,00,00,00,00,00,
29615196,00000570,false,Rx,0,8,00,2F,85,00,15,03,00,00,
29694534,00000523,false,Tx,0,8,00,00,00,00,00,00,00,00,
29714772,00000570,false,Rx,0,8,00,0E,85,00,05,00,00,00,
29811547,00000523,false,Tx,0,8,00,00,00,00,00,00,00,10,
29815064,00000570,false,Rx,0,8,00,01,85,00,01,00,00,00,
29916880,00000523,false,Tx,0,8,00,00,00,00,00,00,00,00,
29914825,00000570,false,Rx,0,8,00,04,85,00,07,01,00,00,
30031424,00000523,false,Tx,0,8,00,00,00,00,00,00,00,00,
30014762,00000570,false,Rx,0,8,00,00,85,00,00,00,00,00,
30134552,00000523,false,Tx,0,8,00,00,00,00,00,00,00,10,
30114908,00000570,false,Rx,0,8,00,00,85,00,00,00,00,00,
30215033,00000570,false,Rx,0,8,00,00,85,00,07,01,00,00,
30239560,00000523,false,Tx,0,8,00,00,00,00,00,00,00,00,
30314796,00000570,false,Rx,0,8,00,01,85,00,01,00,00,00,
30356537,00000523,false,Tx,0,8,00,00,00,00,00,00,00,00,
30414785,00000570,false,Rx,0,8,00,00,85,00,00,00,00,00,
30463982,00000523,false,Tx,0,8,00,00,00,00,00,00,00,00,
30514786,00000570,false,Rx,0,8,00,00,85,00,00,00,00,00,
30588436,00000523,false,Tx,0,8,00,00,00,00,00,00,00,10,
30615025,00000570,false,Rx,0,8,00,00,85,00,02,00,00,00,
30685025,00000523,false,Tx,0,8,00,00,00,00,00,00,00,10,
30715055,00000570,false,Rx,0,8,00,0C,85,00,0C,02,00,00,
30801412,00000523,false,Tx,0,8,00,00,00,00,00,00,00,10,
30814994,00000570,false,Rx,0,8,00,22,85,00,16,05,00,00,
30905301,00000523,false,Tx,0,8,00,00,00,00,00,00,00,10,
30915047,00000570,false,Rx,0,8,00,3F,85,00,23,09,00,00,
31032725,00000523,false,Tx,0,8,00,00,00,00,00,00,00,00,
31015046,00000570,false,Rx,0,8,00,67,85,00,2C,0A,00,00,
31129324,00000523,false,Tx,0,8,00,00,00,00,00,00,00,10,
31115032,00000570,false,Rx,0,8,00,6A,85,00,2F,0B,00,00,
31215190,00000570,false,Rx,0,8,00,65,85,00,2E,0B,00,00,
31249744,00000523,false,Tx,0,8,00,00,00,00,00,00,00,10,
31315181,00000570,false,Rx,0,8,00,54,85,00,26,0A,00,00,
31362099,00000523,false,Tx,0,8,00,00,00,00,00,00,00,10,
31415130,00000570,false,Rx,0,8,00,54,85,00,23,09,00,00,
31484688,00000523,false,Tx,0,8,00,00,00,00,00,00,00,10,
31515172,00000570,false,Rx,0,8,00,54,85,00,23,08,00,00,
31605423,00000523,false,Tx,0,8,00,00,00,00,00,00,00,10,
31615224,00000570,false,Rx,0,8,00,53,85,00,23,07,00,00,
31704052,00000523,false,Tx,0,8,00,00,00,00,00,00,00,10,
31715213,00000570,false,Rx,0,8,00,53,85,00,23,07,00,00,
31813843,00000523,false,Tx,0,8,00,00,00,00,00,00,00,00,
31815213,00000570,false,Rx,0,8,00,53,85,00,23,07,00,00,
31921741,00000523,false,Tx,0,8,00,00,00,00,00,00,00,10,
31915160,00000570,false,Rx,0,8,00,4A,85,00,20,06,00,00,
32015193,00000570,false,Rx,0,8,00,49,85,00,1E,05,00,00,
32035900,00000523,false,Tx,0,8,00,00,00,00,00,00,00,10,
32115146,00000570,false,Rx,0,8,00,53,85,00,21,05,00,00,
32138332,00000523,false,Tx,0,8,00,00,00,00,00,00,00,10,
32215187,00000570,false,Rx,0,8,00,53,85,00,22,06,00,00,
32253301,00000523,false,Tx,0,8,00,00,00,00,00,00,00,10,
32315188,00000570,false,Rx,0,8,00,53,85,00,23,06,00,00,
32361000,00000523,false,Tx,0,8,00,00,00,00,00,00,00,00,
32415229,00000570,false,Rx,0,8,00,51,85,00,22,06,00,00,
32466929,00000523,false,Tx,0,8,00,00,00,00,00,00,00,00,
32515230,00000570,false,Rx,0,8,00,41,85,00,1C,05,00,00,
32606787,00000523,false,Tx,0,8,00,00,00,00,00,00,00,00,
32615218,00000570,false,Rx,0,8,00,2D,85,00,14,04,00,00,
32702863,00000523,false,Tx,0,8,00,00,00,00,00,00,00,00,
32714816,00000570,false,Rx,0,8,00,08,85,00,04,00,00,00,
32808420,00000523,false,Tx,0,8,00,00,00,00,00,00,00,10,
32815097,00000570,false,Rx,0,8,00,00,85,00,01,00,00,00,
32916107,00000523,false,Tx,0,8,00,00,00,00,00,00,00,00,
32914908,00000570,false,Rx,0,8,00,04,85,00,07,01,00,00,
33035108,00000523,false,Tx,0,8,00,00,00,00,00,00,00,00,
33014848,00000570,false,Rx,0,8,00,00,85,00,00,00,00,00,
33114839,00000570,false,Rx,0,8,00,00,85,00,00,00,00,00,
33142986,00000523,false,Tx,0,8,00,00,00,00,00,00,00,10,
33215067,00000570,false,Rx,0,8,00,00,85,00,07,01,00,00,
33245646,00000523,false,Tx,0,8,00,00,00,00,00,00,00,00,
33314831,00000570,false,Rx,0,8,00,00,85,00,01,00,00,00,
33358545,00000523,false,Tx,0,8,00,00,00,00,00,00,00,00,
33414840,00000570,false,Rx,0,8,00,00,85,00,00,00,00,00,
33470599,00000523,false,Tx,0,8,00,00,00,00,00,00,00,10,
33515109,00000570,false,Rx,0,8,00,00,85,00,04,00,00,00,
33610255,00000523,false,Tx,0,8,00,00,00,00,00,00,00,00,
33614851,00000570,false,Rx,0,8,00,07,85,00,07,01,00,00,
33710653,00000523,false,Tx,0,8,00,00,00,00,00,00,00,00,
33714851,00000570,false,Rx,0,8,00,00,85,00,00,00,00,00,
33807758,00000523,false,Tx,0,8,00,00,00,00,00,00,00,00,
33814852,00000570,false,Rx,0,8,00,00,85,00,00,00,00,00,
33917949,00000523,false,Tx,0,8,00,00,00,00,00,00,00,10,
33914974,00000570,false,Rx,0,8,00,00,85,00,00,00,00,00,
34015079,00000570,false,Rx,0,8,00,05,85,00,09,01,00,00,
34041249,00000523,false,Tx,0,8,00,00,00,00,00,00,00,10,
34115062,00000570,false,Rx,0,8,00,1C,85,00,13,04,00,00,
34147722,00000523,false,Tx,0,8,00,00,00,00,00,00,00,10,
34215119,00000570,false,Rx,0,8,00,34,85,00,1F,07,00,00,
34257652,00000523,false,Tx,0,8,00,00,00,00,00,00,00,00,
34315110,00000570,false,Rx,0,8,00,62,85,00,2A,0A,00,00,
34356310,00000523,false,Tx,0,8,00,00,00,00,00,00,00,00,
34415099,00000570,false,Rx,0,8,00,6A,85,00,2F,0B,00,00,
34467360,00000523,false,Tx,0,8,00,00,00,00,00,00,00,00,
34515099,00000570,false,Rx,0,8,00,6B,85,00,30,0B,00,00,
34571867,00000523,false,Tx,0,8,00,00,00,00,00,00,00,00,
34615254,00000570,false,Rx,0,8,00,64,85,00,2E,0B,00,00,
34696067,00000523,false,Tx,0,8,00,00,00,00,00,00,00,10,
34715192,00000570,false,Rx,0,8,00,51,85,00,25,0A,00,00,
34792039,00000523,false,Tx,0,8,00,00,00,00,00,00,00,00,
34815246,00000570,false,Rx,0,8,00,51,85,00,22,09,00,00,
34906059,00000523,false,Tx,0,8,00,00,00,00,00,00,00,00,
34915296,00000570,false,Rx,0,8,00,48,85,00,1F,07,00,00,
35010228,00000523,false,Tx,0,8,00,00,00,00,00,00,00,00,
35015285,00000570,false,Rx,0,8,00,35,85,00,17,06,00,00,
35114866,00000570,false,Rx,0,8,00,1A,85,00,0B,03,00,00,
35149328,00000523,false,Tx,0,8,00,00,00,00,00,00,00,00,
35214878,00000570,false,Rx,0,8,00,01,85,00,01,00,00,00,
35240406,00000523,false,Tx,0,8,00,00,00,00,00,00,00,10,
35315158,00000570,false,Rx,0,8,00,00,85,00,07,01,00,00,
35357920,00000523,false,Tx,0,8,00,00,00,00,00,00,00,00,
35414879,00000570,false,Rx,0,8,00,01,85,00,01,00,00,00,
35459783,00000523,false,Tx,0,8,00,00,00,00,00,00,00,10,
35515150,00000570,false,Rx,0,8,00,00,85,00,05,00,00,00,
35557124,00000523,false,Tx,0,8,00,00,00,00,00,00,00,00,
35614892,00000570,false,Rx,0,8,00,00,85,00,01,00,00,00,
35669088,00000523,false,Tx,0,8,00,00,00,00,00,00,00,10,
35715140,00000570,false,Rx,0,8,00,00,85,00,05,00,00,00,
35798687,00000523,false,Tx,0,8,00,00,00,00,00,00,00,10,
35815130,00000570,false,Rx,0,8,00,0F,85,00,0E,02,00,00,
35906758,00000523,false,Tx,0,8,00,00,00,00,00,00,00,10,
35915120,00000570,false,Rx,0,8,00,26,85,00,18,05,00,00,
36015087,00000523,false,Tx,0,8,00,00,00,00,00,00,00,10,
36015109,00000570,false,Rx,0,8,00,4B,85,00,26,09,00,00,
36115155,00000570,false,Rx,0,8,00,68,85,00,2D,0A,00,00,
36141084,00000523,false,Tx,0,8,00,00,00,00,00,00,00,00,
36215150,00000570,false,Rx,0,8,00,6A,85,00,2F,0B,00,00,
36238952,00000523,false,Tx,0,8,00,00,00,00,00,00,00,10,
36315317,00000570,false,Rx,0,8,00,60,85,00,2C,0B,00,00,
36364524,00000523,false,Tx,0,8,00,00,00,00,00,00,00,10,
36415306,00000570,false,Rx,0,8,00,53,85,00,25,0A,00,00,
36440744,00000523,false,Tx,0,8,00,00,00,00,00,00,00,10,
36515306,00000570,false,Rx,0,8,00,53,85,00,23,08,00,00,
36575079,00000523,false,Tx,0,8,00,00,00,00,00,00,00,10,
36615248,00000570,false,Rx,0,8,00,53,85,00,23,08,00,00,
36697030,00000523,false,Tx,0,8,00,00,00,00,00,00,00,00,
36715291,00000570,false,Rx,0,8,00,53,85,00,23,07,00,00,
36819593,00000523,false,Tx,0,8,00,00,00,00,00,00,00,10,
36815343,00000570,false,Rx,0,8,00,48,85,00,1F,06,00,00,
36926612,00000523,false,Tx,0,8,00,00,00,00,00,00,00,00,
36915332,00000570,false,Rx,0,8,00,48,85,00,1D,06,00,00,
37027960,00000523,false,Tx,0,8,00,00,00,00,00,00,00,00,
37015383,00000570,false,Rx,0,8,00,4D,85,00,1F,05,00,00,
37115367,00000570,false,Rx,0,8,00,3C,85,00,1A,04,00,00,
37151699,00000523,false,Tx,0,8,00,00,00,00,00,00,00,00,
37215369,00000570,false,Rx,0,8,00,28,85,00,12,03,00,00,
37250865,00000523,false,Tx,0,8,00,00,00,00,00,00,00,10,
37315306,00000570,false,Rx,0,8,00,1D,85,00,0C,02,00,00,
37383179,00000523,false,Tx,0,8,00,00,00,00,00,00,00,10,
37415301,00000570,false,Rx,0,8,00,42,85,00,15,03,00,00,
37468639,00000523,false,Tx,0,8,00,00,00,00,00,00,00,10,
37515353,00000570,false,Rx,0,8,00,54,85,00,20,03,00,00,
37575089,00000523,false,Tx,0,8,00,00,00,00,00,00,00,10,
37615346,00000570,false,Rx,0,8,00,53,85,00,22,04,00,00,
37677254,00000523,false,Tx,0,8,00,00,00,00,00,00,00,00,
37715345,00000570,false,Rx,0,8,00,52,85,00,22,05,00,00,
37793939,00000523,false,Tx,0,8,00,00,00,00,00,00,00,10,
37815282,00000570,false,Rx,0,8,00,46,85,00,1E,04,00,00,
37902252,00000523,false,Tx,0,8,00,00,00,00,00,00,00,00,
37915326,00000570,false,Rx,0,8,00,4E,85,00,1F,04,00,00,
38010614,00000523,false,Tx,0,8,00,00,00,00,00,00,00,00,
38015316,00000570,false,Rx,0,8,00,48,85,00,1E,04,00,00,
38115359,00000570,false,Rx,0,8,00,35,85,00,17,03,00,00,
38160963,00000523,false,Tx,0,8,00,00,00,00,00,00,00,00,
38233403,00000523,false,Tx,0,8,00,00,00,00,00,00,00,00,
38214953,00000570,false,Rx,0,8,00,1A,85,00,0C,02,00,00,
38314943,00000570,false,Rx,0,8,00,02,85,00,01,00,00,00,
38344626,00000523,false,Tx,0,8,00,00,00,00,00,00,00,00,
38414944,00000570,false,Rx,0,8,00,00,85,00,00,00,00,00,
38442673,00000523,false,Tx,0,8,00,00,00,00,00,00,00,00,
38514944,00000570,false,Rx,0,8,00,00,85,00,00,00,00,00,
38569420,00000523,false,Tx,0,8,00,00,00,00,00,00,00,10,
38615223,00000570,false,Rx,0,8,00,00,85,00,05,00,00,00,
38675165,00000523,false,Tx,0,8,00,00,00,00,00,00,00,00,
38714954,00000570,false,Rx,0,8,00,01,85,00,02,00,00,00,
38786990,00000523,false,Tx,0,8,00,00,00,00,00,00,00,10,
38815213,00000570,false,Rx,0,8,00,00,85,00,02,00,00,00,
38891005,00000523,false,Tx,0,8,00,00,00,00,00,00,00,10,
38915254,00000570,false,Rx,0,8,00,0C,85,00,0C,02,00,00,
39000699,00000523,false,Tx,0,8,00,00,00,00,00,00,00,00,
39014964,00000570,false,Rx,0,8,00,0C,85,00,08,01,00,00,
39107840,00000523,false,Tx,0,8,00,00,00,00,00,00,00,00,
39114957,00000570,false,Rx,0,8,00,01,85,00,00,00,00,00,
39208833,00000523,false,Tx,0,8,00,00,00,00,00,00,00,10,
39215193,00000570,false,Rx,0,8,00,00,85,00,01,00,00,00,
39332983,00000523,false,Tx,0,8,00,00,00,00,00,00,00,10,
39315181,00000570,false,Rx,0,8,00,07,85,00,0A,01,00,00,
39415223,00000570,false,Rx,0,8,00,1F,85,00,14,04,00,00,
39439396,00000523,false,Tx,0,8,00,00,00,00,00,00,00,00,
39514975,00000570,false,Rx,0,8,00,02,85,00,01,00,00,00,
39552749,00000523,false,Tx,0,8,00,00,00,00,00,00,00,00,
39614978,00000570,false,Rx,0,8,00,00,85,00,00,00,00,00,
39680975,00000523,false,Tx,0,8,00,00,00,00,00,00,00,10,
39715218,00000570,false,Rx,0,8,00,00,85,00,04,00,00,00,
39754349,00000523,false,Tx,0,8,00,00,00,00,00,00,00,00,
39814971,00000570,false,Rx,0,8,00,00,85,00,01,00,00,00,
39896141,00000523,false,Tx,0,8,00,00,00,00,00,00,00,00,
39914974,00000570,false,Rx,0,8,00,00,85,00,00,00,00,00,
39984095,00000523,false,Tx,0,8,00,00,00,00,00,00,00,10,
40015243,00000570,false,Rx,0,8,00,00,85,00,03,00,00,00,
40113959,00000523,false,Tx,0,8,00,00,00,00,00,00,00,10,
40115247,00000570,false,Rx,0,8,00,0E,85,00,0C,02,00,00,
40217611,00000523,false,Tx,0,8,00,00,00,00,00,00,00,10,
40215237,00000570,false,Rx,0,8,00,24,85,00,17,05,00,00,
40322193,00000523,false,Tx,0,8,00,00,00,00,00,00,00,10,
40315223,00000570,false,Rx,0,8,00,45,85,00,24,09,00,00,
40431078,00000523,false,Tx,0,8,00,00,00,00,00,00,00,10,
40415223,00000570,false,Rx,0,8,00,67,85,00,2D,0A,00,00,
40515212,00000570,false,Rx,0,8,00,6A,85,00,2F,0B,00,00,
40549083,00000523,false,Tx,0,8,00,00,00,00,00,00,00,00,
40615370,00000570,false,Rx,0,8,00,6A,85,00,30,0B,00,00,
40652816,00000523,false,Tx,0,8,00,00,00,00,00,00,00,00,
40715419,00000570,false,Rx,0,8,00,5D,85,00,2B,0B,00,00,
40764919,00000523,false,Tx,0,8,00,00,00,00,00,00,00,00,
40815419,00000570,false,Rx,0,8,00,4A,85,00,22,09,00,00,
40869732,00000523,false,Tx,0,8,00,00,00,00,00,00,00,00,
40915409,00000570,false,Rx,0,8,00,37,85,00,18,07,00,00,
40984739,00000523,false,Tx,0,8,00,00,00,00,00,00,00,00,
41015410,00000570,false,Rx,0,8,00,23,85,00,0F,05,00,00,
41109678,00000523,false,Tx,0,8,00,00,00,00,00,00,00,10,
41115234,00000570,false,Rx,0,8,00,02,85,00,01,00,00,00,
41218514,00000523,false,Tx,0,8,00,00,00,00,00,00,00,00,
41215048,00000570,false,Rx,0,8,00,04,85,00,07,01,00,00,
41324174,00000523,false,Tx,0,8,00,00,00,00,00,00,00,00,
41315006,00000570,false,Rx,0,8,00,00,85,00,00,00,00,00,
41426371,00000523,false,Tx,0,8,00,00,00,00,00,00,00,10,
41415030,00000570,false,Rx,0,8,00,00,85,00,00,00,00,00,
41515265,00000570,false,Rx,0,8,00,02,85,00,08,01,00,00,
41538951,00000523,false,Tx,0,8,00,00,00,00,00,00,00,00,
41615019,00000570,false,Rx,0,8,00,00,85,00,01,00,00,00,
41677906,00000523,false,Tx,0,8,00,00,00,00,00,00,00,10,
41715254,00000570,false,Rx,0,8,00,00,85,00,03,00,00,00,
41769461,00000523,false,Tx,0,8,00,00,00,00,00,00,00,00,
41815016,00000570,false,Rx,0,8,00,00,85,00,01,00,00,00,
41898316,00000523,false,Tx,0,8,00,00,00,00,00,00,00,00,
41915016,00000570,false,Rx,0,8,00,00,85,00,00,00,00,00,
41983486,00000523,false,Tx,0,8,00,00,00,00,00,00,00,10,
42015286,00000570,false,Rx,0,8,00,00,85,00,04,00,00,00,
42082802,00000523,false,Tx,0,8,00,00,00,00,00,00,00,10,
42115279,00000570,false,Rx,0,8,00,0E,85,00,0D,02,00,00,
42192731,00000523,false,Tx,0,8,00,00,00,00,00,00,00,10,
42215270,00000570,false,Rx,0,8,00,24,85,00,17,05,00,00,
42308629,00000523,false,Tx,0,8,00,00,00,00,00,00,00,00,
42315260,00000570,false,Rx,0,8,00,45,85,00,24,09,00,00,
42410752,00000523,false,Tx,0,8,00,00,00,00,00,00,00,00,
42415259,00000570,false,Rx,0,8,00,67,85,00,2D,0A,00,00,
42515252,00000570,false,Rx,0,8,00,6A,85,00,2F,0B,00,00,
42539901,00000523,false,Tx,0,8,00,00,00,00,00,00,00,00,
42615408,00000570,false,Rx,0,8,00,6A,85,00,30,0B,00,00,
42642205,00000523,false,Tx,0,8,00,00,00,00,00,00,00,10,
42715409,00000570,false,Rx,0,8,00,5B,85,00,2A,0B,00,00,
42760393,00000523,false,Tx,0,8,00,00,00,00,00,00,00,10,
42815450,00000570,false,Rx,0,8,00,53,85,00,25,09,00,00,
42887778,00000523,false,Tx,0,8,00,00,00,00,00,00,00,10,
42915451,00000570,false,Rx,0,8,00,53,85,00,23,08,00,00,
42990367,00000523,false,Tx,0,8,00,00,00,00,00,00,00,10,
43015399,00000570,false,Rx,0,8,00,53,85,00,23,08,00,00,
43084062,00000523,false,Tx,0,8,00,00,00,00,00,00,00,00,
43115443,00000570,false,Rx,0,8,00,53,85,00,23,07,00,00,
43210364,00000523,false,Tx,0,8,00,00,00,00,00,00,00,00,
43215430,00000570,false,Rx,0,8,00,46,85,00,1E,06,00,00,
43311824,00000523,false,Tx,0,8,00,00,00,00,00,00,00,10,
43315430,00000570,false,Rx,0,8,00,32,85,00,16,05,00,00,
43420436,00000523,false,Tx,0,8,00,00,00,00,00,00,00,10,
43415475,00000570,false,Rx,0,8,00,3A,85,00,16,04,00,00,
43525959,00000523,false,Tx,0,8,00,00,00,00,00,00,00,10,
43515420,00000570,false,Rx,0,8,00,52,85,00,1F,04,00,00,
43615462,00000570,false,Rx,0,8,00,54,85,00,22,05,00,00,
43678071,00000523,false,Tx,0,8,00,00,00,00,00,00,00,00,
43715461,00000570,false,Rx,0,8,00,53,85,00,22,05,00,00,
43757782,00000523,false,Tx,0,8,00,00,00,00,00,00,00,00,
43815451,00000570,false,Rx,0,8,00,47,85,00,1F,05,00,00,
43862362,00000523,false,Tx,0,8,00,00,00,00,00,00,00,10,
43915440,00000570,false,Rx,0,8,00,3A,85,00,19,04,00,00,
43974030,00000523,false,Tx,0,8,00,00,00,00,00,00,00,00,
44015493,00000570,false,Rx,0,8,00,4D,85,00,1D,04,00,00,
44075992,00000523,false,Tx,0,8,00,00,00,00,00,00,00,10,
44115485,00000570,false,Rx,0,8,00,46,85,00,1D,04,00,00,
44176744,00000523,false,Tx,0,8,00,00,00,00,00,00,00,00,
44215487,00000570,false,Rx,0,8,00,4F,85,00,1F,04,00,00,
44312546,00000523,false,Tx,0,8,00,00,00,00,00,00,00,00,
44315478,00000570,false,Rx,0,8,00,47,85,00,1E,04,00,00,
44435162,00000523,false,Tx,0,8,00,00,00,00,00,00,00,10,
44415582,00000570,false,Rx,0,8,00,34,85,00,17,03,00,00,
44515457,00000570,false,Rx,0,8,00,2E,85,00,12,03,00,00,
44552400,00000523,false,Tx,0,8,00,00,00,00,00,00,00,10,
44615449,00000570,false,Rx,0,8,00,4D,85,00,1B,03,00,00,
44680824,00000523,false,Tx,0,8,00,00,00,00,00,00,00,00,
44715511,00000570,false,Rx,0,8,00,54,85,00,21,04,00,00,
44761992,00000523,false,Tx,0,8,00,00,00,00,00,00,00,00,
44815553,00000570,false,Rx,0,8,00,47,85,00,1E,04,00,00,
44893143,00000523,false,Tx,0,8,00,00,00,00,00,00,00,10,
44915488,00000570,false,Rx,0,8,00,34,85,00,17,03,00,00,
44990890,00000523,false,Tx,0,8,00,00,00,00,00,00,00,10,
45015479,00000570,false,Rx,0,8,00,44,85,00,19,03,00,00,
45114269,00000523,false,Tx,0,8,00,00,00,00,00,00,00,10,
45115428,00000570,false,Rx,0,8,00,53,85,00,20,04,00,00,
45208515,00000523,false,Tx,0,8,00,00,00,00,00,00,00,00,
45215470,00000570,false,Rx,0,8,00,53,85,00,22,04,00,00,
45328559,00000523,false,Tx,0,8,00,00,00,00,00,00,00,00,
45315470,00000570,false,Rx,0,8,00,4D,85,00,21,05,00,00,
45430947,00000523,false,Tx,0,8,00,00,00,00,00,00,00,10,
45415514,00000570,false,Rx,0,8,00,3B,85,00,1A,04,00,00,
45515461,00000570,false,Rx,0,8,00,39,85,00,17,03,00,00,
45544931,00000523,false,Tx,0,8,00,00,00,00,00,00,00,10,
45615504,00000570,false,Rx,0,8,00,51,85,00,1E,04,00,00,
45675591,00000523,false,Tx,0,8,00,00,00,00,00,00,00,00,
45715494,00000570,false,Rx,0,8,00,53,85,00,22,04,00,00,
45776682,00000523,false,Tx,0,8,00,00,00,00,00,00,00,10,
45815482,00000570,false,Rx,0,8,00,48,85,00,1F,04,00,00,
45893354,00000523,false,Tx,0,8,00,00,00,00,00,00,00,10,
45915482,00000570,false,Rx,0,8,00,50,85,00,20,05,00,00,
45999160,00000523,false,Tx,0,8,00,00,00,00,00,00,00,10,
46015534,00000570,false,Rx,0,8,00,53,85,00,22,05,00,00,
46113087,00000523,false,Tx,0,8,00,00,00,00,00,00,00,10,
46115527,00000570,false,Rx,0,8,00,53,85,00,23,05,00,00,
46218325,00000523,false,Tx,0,8,00,00,00,00,00,00,00,00,
46215514,00000570,false,Rx,0,8,00,53,85,00,23,05,00,00,
46324469,00000523,false,Tx,0,8,00,00,00,00,00,00,00,10,
46315514,00000570,false,Rx,0,8,00,4C,85,00,21,05,00,00,
46427022,00000523,false,Tx,0,8,00,00,00,00,00,00,00,00,
46415498,00000570,false,Rx,0,8,00,49,85,00,1E,05,00,00,
46515509,00000570,false,Rx,0,8,00,4C,85,00,1F,05,00,00,
46544897,00000523,false,Tx,0,8,00,00,00,00,00,00,00,00,
46615554,00000570,false,Rx,0,8,00,3A,85,00,19,04,00,00,
46687195,00000523,false,Tx,0,8,00,00,00,00,00,00,00,00,
46715541,00000570,false,Rx,0,8,00,26,85,00,11,03,00,00,
46765674,00000523,false,Tx,0,8,00,00,00,00,00,00,00,10,
46815374,00000570,false,Rx,0,8,00,03,85,00,06,00,00,00,
46892128,00000523,false,Tx,0,8,00,00,00,00,00,00,00,10,
46915367,00000570,false,Rx,0,8,00,0F,85,00,0E,02,00,00,
46977401,00000523,false,Tx,0,8,00,00,00,00,00,00,00,00,
47015120,00000570,false,Rx,0,8,00,07,85,00,04,01,00,00,
47094167,00000523,false,Tx,0,8,00,00,00,00,00,00,00,10,
47115410,00000570,false,Rx,0,8,00,00,85,00,02,00,00,00,
47219895,00000523,false,Tx,0,8,00,00,00,00,00,00,00,00,
47215212,00000570,false,Rx,0,8,00,07,85,00,08,01,00,00,
47315160,00000570,false,Rx,0,8,00,00,85,00,00,00,00,00,
47336130,00000523,false,Tx,0,8,00,00,00,00,00,00,00,10,
47427052,00000523,false,Tx,0,8,00,00,00,00,00,00,00,10,
47415440,00000570,false,Rx,0,8,00,00,85,00,07,01,00,00,
47515440,00000570,false,Rx,0,8,00,16,85,00,10,03,00,00,
47546940,00000523,false,Tx,0,8,00,00,00,00,00,00,00,00,
47615141,00000570,false,Rx,0,8,00,03,85,00,02,00,00,00,
47679890,00000523,false,Tx,0,8,00,00,00,00,00,00,00,10,
47715420,00000570,false,Rx,0,8,00,00,85,00,03,00,00,00,
47768528,00000523,false,Tx,0,8,00,00,00,00,00,00,00,10,
47815368,00000570,false,Rx,0,8,00,0E,85,00,0C,02,00,00,
47890454,00000523,false,Tx,0,8,00,00,00,00,00,00,00,00,
47915161,00000570,false,Rx,0,8,00,09,85,00,06,01,00,00,
47990525,00000523,false,Tx,0,8,00,00,00,00,00,00,00,00,
48015161,00000570,false,Rx,0,8,00,01,85,00,00,00,00,00,
48092667,00000523,false,Tx,0,8,00,00,00,00,00,00,00,10,
48115454,00000570,false,Rx,0,8,00,00,85,00,02,00,00,00,
48195301,00000523,false,Tx,0,8,00,00,00,00,00,00,00,10,
48215444,00000570,false,Rx,0,8,00,0C,85,00,0C,02,00,00,
48321887,00000523,false,Tx,0,8,00,00,00,00,00,00,00,00,
48315255,00000570,false,Rx,0,8,00,19,85,00,0F,03,00,00,
48415155,00000570,false,Rx,0,8,00,01,85,00,01,00,00,00,
48466291,00000523,false,Tx,0,8,00,00,00,00,00,00,00,10,
48535298,00000523,false,Tx,0,8,00,00,00,00,00,00,00,00,
48515423,00000570,false,Rx,0,8,00,00,85,00,05,00,00,00,
48615181,00000570,false,Rx,0,8,00,00,85,00,00,00,00,00,
48665970,00000523,false,Tx,0,8,00,00,00,00,00,00,00,10,
48715420,00000570,false,Rx,0,8,00,00,85,00,04,00,00,00,
48748897,00000523,false,Tx,0,8,00,00,00,00,00,00,00,10,
48815409,00000570,false,Rx,0,8,00,0F,85,00,0D,02,00,00,
48869093,00000523,false,Tx,0,8,00,00,00,00,00,00,00,00,
48915161,00000570,false,Rx,0,8,00,05,85,00,03,00,00,00,
48969515,00000523,false,Tx,0,8,00,00,00,00,00,00,00,00,
49015171,00000570,false,Rx,0,8,00,00,85,00,00,00,00,00,
49084981,00000523,false,Tx,0,8,00,00,00,00,00,00,00,10,
49115400,00000570,false,Rx,0,8,00,00,85,00,02,00,00,00,
49205598,00000523,false,Tx,0,8,00,00,00,00,00,00,00,00,
49215192,00000570,false,Rx,0,8,00,04,85,00,06,01,00,00,
49307594,00000523,false,Tx,0,8,00,00,00,00,00,00,00,10,
49315482,00000570,false,Rx,0,8,00,00,85,00,01,6A,00,00,
49422178,00000523,false,Tx,0,8,00,00,00,00,00,00,00,10,
49415424,00000570,false,Rx,0,8,00,07,85,00,0A,07,00,00,
49515425,00000570,false,Rx,0,8,00,1F,85,00,14,04,00,00,
49539284,00000523,false,Tx,0,8,00,00,00,00,00,00,00,00,
49615177,00000570,false,Rx,0,8,00,02,85,00,01,00,00,00,
49639116,00000523,false,Tx,0,8,00,00,00,00,00,00,00,00,
49715190,00000570,false,Rx,0,8,00,00,85,00,00,00,00,00,
49738456,00000523,false,Tx,0,8,00,00,00,00,00,00,00,00,
49815190,00000570,false,Rx,0,8,00,00,85,00,00,00,00,00,
49864417,00000523,false,Tx,0,8,00,00,00,00,00,00,00,00,
49915212,00000570,false,Rx,0,8,00,00,85,00,00,00,00,00,
49991690,00000523,false,Tx,0,8,00,00,00,00,00,00,00,10,
50015450,00000570,false,Rx,0,8,00,00,85,00,02,00,00,00,
50103189,00000523,false,Tx,0,8,00,00,00,00,00,00,00,00,
50115202,00000570,false,Rx,0,8,00,02,85,00,04,00,00,00,
50203236,00000523,false,Tx,0,8,00,00,00,00,00,00,00,00,
50215192,00000570,false,Rx,0,8,00,00,85,00,00,00,00,00,
50326831,00000523,false,Tx,0,8,00,00,00,00,00,00,00,10,
50315192,00000570,false,Rx,0,8,00,00,85,00,00,00,00,00,
50415422,00000570,false,Rx,0,8,00,02,85,00,08,01,00,00,
50441772,00000523,false,Tx,0,8,00,00,00,00,00,00,00,10,
50515409,00000570,false,Rx,0,8,00,1A,85,00,11,03,00,00,
50554363,00000523,false,Tx,0,8,00,00,00,00,00,00,00,00,
50615223,00000570,false,Rx,0,8,00,03,85,00,02,00,00,00,
50659500,00000523,false,Tx,0,8,00,00,00,00,00,00,00,00,
50715213,00000570,false,Rx,0,8,00,00,85,00,00,00,00,00,
50758675,00000523,false,Tx,0,8,00,00,00,00,00,00,00,00,
50815213,00000570,false,Rx,0,8,00,00,85,00,00,00,00,00,
50871549,00000523,false,Tx,0,8,00,00,00,00,00,00,00,00,
50915215,00000570,false,Rx,0,8,00,00,85,00,00,00,00,00,
50993394,00000523,false,Tx,0,8,00,00,00,00,00,00,00,00,
51015212,00000570,false,Rx,0,8,00,00,85,00,00,00,00,00,
51101510,00000523,false,Tx,0,8,00,00,00,00,00,00,00,10,
51115482,00000570,false,Rx,0,8,00,00,85,00,02,00,00,00,
51219806,00000523,false,Tx,0,8,00,00,00,00,00,00,00,10,
51215482,00000570,false,Rx,0,8,00,0A,85,00,0B,02,00,00,
51307562,00000523,false,Tx,0,8,00,00,00,00,00,00,00,10,
51315471,00000570,false,Rx,0,8,00,21,85,00,15,04,00,00,
51415464,00000570,false,Rx,0,8,00,3A,85,00,22,08,00,00,
51438418,00000523,false,Tx,0,8,00,00,00,00,00,00,00,10,
51525193,00000523,false,Tx,0,8,00,00,00,00,00,00,00,10,
51515461,00000570,false,Rx,0,8,00,66,85,00,2B,0A,00,00,
51615451,00000570,false,Rx,0,8,00,6A,85,00,2F,0B,00,00,
51644028,00000523,false,Tx,0,8,00,00,00,00,00,00,00,00,
51715617,00000570,false,Rx,0,8,00,6B,85,00,30,0B,00,00,
51752799,00000523,false,Tx,0,8,00,00,00,00,00,00,00,00,
51815660,00000570,false,Rx,0,8,00,60,85,00,2C,0B,00,00,
51857202,00000523,false,Tx,0,8,00,00,00,00,00,00,00,00,
51915653,00000570,false,Rx,0,8,00,4D,85,00,23,09,00,00,
51961819,00000523,false,Tx,0,8,00,00,00,00,00,00,00,00,
52015655,00000570,false,Rx,0,8,00,3A,85,00,1A,07,00,00,
52075134,00000523,false,Tx,0,8,00,00,00,00,00,00,00,10,
52115636,00000570,false,Rx,0,8,00,28,85,00,12,05,00,00,
52193841,00000523,false,Tx,0,8,00,00,00,00,00,00,00,10,
52215586,00000570,false,Rx,0,8,00,3E,85,00,16,05,00,00,
52305207,00000523,false,Tx,0,8,00,00,00,00,00,00,00,10,
52315628,00000570,false,Rx,0,8,00,53,85,00,1F,05,00,00,
52415578,00000570,false,Rx,0,8,00,53,85,00,22,05,00,00,
52445199,00000523,false,Tx,0,8,00,00,00,00,00,00,00,00,
52521132,00000523,false,Tx,0,8,00,00,00,00,00,00,00,10,
52515617,00000570,false,Rx,0,8,00,51,85,00,22,05,00,00,
52615617,00000570,false,Rx,0,8,00,50,85,00,21,05,00,00,
52645599,00000523,false,Tx,0,8,00,00,00,00,00,00,00,00,
52715669,00000570,false,Rx,0,8,00,52,85,00,21,05,00,00,
52737273,00000523,false,Tx,0,8,00,00,00,00,00,00,00,00,
52815649,00000570,false,Rx,0,8,00,42,85,00,1D,05,00,00,
52855279,00000523,false,Tx,0,8,00,00,00,00,00,00,00,10,
52915590,00000570,false,Rx,0,8,00,34,85,00,16,04,00,00,
52980204,00000523,false,Tx,0,8,00,00,00,00,00,00,00,00,
53015649,00000570,false,Rx,0,8,00,4C,85,00,1C,04,00,00,
53079071,00000523,false,Tx,0,8,00,00,00,00,00,00,00,10,
53115587,00000570,false,Rx,0,8,00,49,85,00,1D,04,00,00,
53193351,00000523,false,Tx,0,8,00,00,00,00,00,00,00,00,
53215683,00000570,false,Rx,0,8,00,50,85,00,20,04,00,00,
53293148,00000523,false,Tx,0,8,00,00,00,00,00,00,00,10,
53315680,00000570,false,Rx,0,8,00,4B,85,00,1F,04,00,00,
53407014,00000523,false,Tx,0,8,00,00,00,00,00,00,00,10,
53415672,00000570,false,Rx,0,8,00,50,85,00,20,05,00,00,
53529677,00000523,false,Tx,0,8,00,00,00,00,00,00,00,10,
53515659,00000570,false,Rx,0,8,00,53,85,00,22,05,00,00,
53615648,00000570,false,Rx,0,8,00,53,85,00,23,05,00,00,
53646062,00000523,false,Tx,0,8,00,00,00,00,00,00,00,10,
53715648,00000570,false,Rx,0,8,00,53,85,00,23,05,00,00,
53751503,00000523,false,Tx,0,8,00,00,00,00,00,00,00,00,
53815701,00000570,false,Rx,0,8,00,50,85,00,22,05,00,00,
53861596,00000523,false,Tx,0,8,00,00,00,00,00,00,00,00,
53915691,00000570,false,Rx,0,8,00,40,85,00,1C,05,00,00,
53978141,00000523,false,Tx,0,8,00,00,00,00,00,00,00,00,
54015690,00000570,false,Rx,0,8,00,2C,85,00,13,04,00,00,
54076984,00000523,false,Tx,0,8,00,00,00,00,00,00,00,00,
54115275,00000570,false,Rx,0,8,00,08,85,00,03,00,00,00,
54215877,00000523,false,Tx,0,8,00,00,00,00,00,00,00,00,
54215280,00000570,false,Rx,0,8,00,00,85,00,00,00,00,00,
54331979,00000523,false,Tx,0,8,00,00,00,00,00,00,00,00,
54315280,00000570,false,Rx,0,8,00,00,85,00,00,00,00,00,
54426055,00000523,false,Tx,0,8,00,00,00,00,00,00,00,00,
54415291,00000570,false,Rx,0,8,00,00,85,00,00,00,00,00,
54515314,00000570,false,Rx,0,8,00,00,85,00,00,00,00,00,
54550364,00000523,false,Tx,0,8,00,00,00,00,00,00,00,10,
54615543,00000570,false,Rx,0,8,00,00,85,00,07,01,00,00,
54667932,00000523,false,Tx,0,8,00,00,00,00,00,00,00,10,
54715534,00000570,false,Rx,0,8,00,13,85,00,0F,03,00,00,
54774059,00000523,false,Tx,0,8,00,00,00,00,00,00,00,10,
54815535,00000570,false,Rx,0,8,00,2D,85,00,1A,06,00,00,
54895371,00000523,false,Tx,0,8,00,00,00,00,00,00,00,10,
54915514,00000570,false,Rx,0,8,00,57,85,00,28,0A,00,00,
54987083,00000523,false,Tx,0,8,00,00,00,00,00,00,00,10,
55015514,00000570,false,Rx,0,8,00,69,85,00,2E,0A,00,00,
55111525,00000523,false,Tx,0,8,00,00,00,00,00,00,00,10,
55115679,00000570,false,Rx,0,8,00,6A,85,00,30,0B,00,00,
55219125,00000523,false,Tx,0,8,00,00,00,00,00,00,00,00,
55215722,00000570,false,Rx,0,8,00,5D,85,00,2B,0B,00,00,
55333521,00000523,false,Tx,0,8,00,00,00,00,00,00,00,00,
55315762,00000570,false,Rx,0,8,00,4D,85,00,23,09,00,00,
55415762,00000570,false,Rx,0,8,00,3B,85,00,1A,07,00,00,
55437315,00000523,false,Tx,0,8,00,00,00,00,00,00,00,10,
55515700,00000570,false,Rx,0,8,00,34,85,00,15,05,00,00,
55549961,00000523,false,Tx,0,8,00,00,00,00,00,00,00,00,
55615700,00000570,false,Rx,0,8,00,4B,85,00,1C,05,00,00,
55651741,00000523,false,Tx,0,8,00,00,00,00,00,00,00,10,
55715684,00000570,false,Rx,0,8,00,46,85,00,1C,05,00,00,
55759505,00000523,false,Tx,0,8,00,00,00,00,00,00,00,00,
55815747,00000570,false,Rx,0,8,00,51,85,00,20,05,00,00,
55878447,00000523,false,Tx,0,8,00,00,00,00,00,00,00,00,
55915737,00000570,false,Rx,0,8,00,45,85,00,1D,04,00,00,
55994452,00000523,false,Tx,0,8,00,00,00,00,00,00,00,10,
56015726,00000570,false,Rx,0,8,00,32,85,00,16,04,00,00,
56104102,00000523,false,Tx,0,8,00,00,00,00,00,00,00,00,
56115727,00000570,false,Rx,0,8,00,43,85,00,18,03,00,00,
56214058,00000523,false,Tx,0,8,00,00,00,00,00,00,00,00,
56215710,00000570,false,Rx,0,8,00,4B,85,00,1D,04,00,00,
56313100,00000523,false,Tx,0,8,00,00,00,00,00,00,00,00,
56315700,00000570,false,Rx,0,8,00,38,85,00,18,03,00,00,
56415763,00000570,false,Rx,0,8,00,23,85,00,10,02,00,00,
56439507,00000523,false,Tx,0,8,00,00,00,00,00,00,00,10,
56515638,00000570,false,Rx,0,8,00,02,85,00,08,01,00,00,
56548889,00000523,false,Tx,0,8,00,00,00,00,00,00,00,10,
56615638,00000570,false,Rx,0,8,00,16,85,00,10,03,00,00,
56652905,00000523,false,Tx,0,8,00,00,00,00,00,00,00,00,
56715331,00000570,false,Rx,0,8,00,03,85,00,02,00,00,00,
56756815,00000523,false,Tx,0,8,00,00,00,00,00,00,00,00,
56815332,00000570,false,Rx,0,8,00,00,85,00,00,00,00,00,
56883260,00000523,false,Tx,0,8,00,00,00,00,00,00,00,00,
56915335,00000570,false,Rx,0,8,00,00,85,00,00,00,00,00,
56987597,00000523,false,Tx,0,8,00,00,00,00,00,00,00,10,
57015614,00000570,false,Rx,0,8,00,00,85,00,02,00,00,00,
57103340,00000523,false,Tx,0,8,00,00,00,00,00,00,00,00,
57115366,00000570,false,Rx,0,8,00,02,85,00,04,00,00,00,
57214360,00000523,false,Tx,0,8,00,00,00,00,00,00,00,00,
57215356,00000570,false,Rx,0,8,00,00,85,00,00,00,00,00,
57311527,00000523,false,Tx,0,8,00,00,00,00,00,00,00,10,
57315648,00000570,false,Rx,0,8,00,00,85,00,01,00,00,00,
57416127,00000523,false,Tx,0,8,00,00,00,00,00,00,00,10,
57415586,00000570,false,Rx,0,8,00,07,85,00,0A,01,00,00,
57515586,00000570,false,Rx,0,8,00,1F,85,00,14,04,00,00,
57539698,00000523,false,Tx,0,8,00,00,00,00,00,00,00,00,
57615347,00000570,false,Rx,0,8,00,02,85,00,01,00,00,00,
57638085,00000523,false,Tx,0,8,00,00,00,00,00,00,00,00,
57715360,00000570,false,Rx,0,8,00,00,85,00,00,00,00,00,
57746934,00000523,false,Tx,0,8,00,00,00,00,00,00,00,00,
57815379,00000570,false,Rx,0,8,00,00,85,00,00,00,00,00,
57855431,00000523,false,Tx,0,8,00,00,00,00,00,00,00,10,
57915618,00000570,false,Rx,0,8,00,00,85,00,05,00,00,00,
57970133,00000523,false,Tx,0,8,00,00,00,00,00,00,00,10,
58015607,00000570,false,Rx,0,8,00,10,85,00,0E,03,00,00,
58072525,00000523,false,Tx,0,8,00,00,00,00,00,00,00,10,
58115597,00000570,false,Rx,0,8,00,2A,85,00,19,06,00,00,
58196333,00000523,false,Tx,0,8,00,00,00,00,00,00,00,00,
58215587,00000570,false,Rx,0,8,00,52,85,00,27,09,00,00,
58303472,00000523,false,Tx,0,8,00,00,00,00,00,00,00,10,
58315586,00000570,false,Rx,0,8,00,69,85,00,2D,0A,00,00,
58405352,00000523,false,Tx,0,8,00,00,00,00,00,00,00,10,
58415628,00000570,false,Rx,0,8,00,6A,85,00,30,0B,00,00,
58518917,00000523,false,Tx,0,8,00,00,00,00,00,00,00,00,
58515794,00000570,false,Rx,0,8,00,5F,85,00,2C,0B,00,00,
58615783,00000570,false,Rx,0,8,00,4E,85,00,23,09,00,00,
58642338,00000523,false,Tx,0,8,00,00,00,00,00,00,00,10,
58715777,00000570,false,Rx,0,8,00,47,85,00,1E,08,00,00,
58750021,00000523,false,Tx,0,8,00,00,00,00,00,00,00,00,
58815768,00000570,false,Rx,0,8,00,51,85,00,21,07,00,00,
58873753,00000523,false,Tx,0,8,00,00,00,00,00,00,00,00,
58915768,00000570,false,Rx,0,8,00,43,85,00,1D,06,00,00,
58996259,00000523,false,Tx,0,8,00,00,00,00,00,00,00,00,
59015821,00000570,false,Rx,0,8,00,2F,85,00,15,04,00,00,
59096785,00000523,false,Tx,0,8,00,00,00,00,00,00,00,10,
59115644,00000570,false,Rx,0,8,00,0B,85,00,06,01,00,00,
59220178,00000523,false,Tx,0,8,00,00,00,00,00,00,00,10,
59215637,00000570,false,Rx,0,8,00,0A,85,00,0B,02,00,00,
59321400,00000523,false,Tx,0,8,00,00,00,00,00,00,00,00,
59315448,00000570,false,Rx,0,8,00,17,85,00,0F,03,00,00,
59422536,00000523,false,Tx,0,8,00,00,00,00,00,00,00,00,
59415386,00000570,false,Rx,0,8,00,01,85,00,01,00,00,00,
59515399,00000570,false,Rx,0,8,00,00,85,00,00,00,00,00,
59544893,00000523,false,Tx,0,8,00,00,00,00,00,00,00,10,
59615669,00000570,false,Rx,0,8,00,00,85,00,07,01,00,00,
59658445,00000523,false,Tx,0,8,00,00,00,00,00,00,00,10,
59715649,00000570,false,Rx,0,8,00,13,85,00,0F,03,00,00,
59765443,00000523,false,Tx,0,8,00,00,00,00,00,00,00,10,
59815659,00000570,false,Rx,0,8,00,2D,85,00,1A,06,00,00,
59874237,00000523,false,Tx,0,8,00,00,00,00,00,00,00,10,
59915648,00000570,false,Rx,0,8,00,57,85,00,28,0A,00,00,
60002492,00000523,false,Tx,0,8,00,00,00,00,00,00,00,10,
60015639,00000570,false,Rx,0,8,00,69,85,00,2E,0A,00,00,
60092074,00000523,false,Tx,0,8,00,00,00,00,00,00,00,00,
60115639,00000570,false,Rx,0,8,00,6B,85,00,30,0B,00,00,
60211648,00000523,false,Tx,0,8,00,00,00,00,00,00,00,10,
60215742,00000570,false,Rx,0,8,00,68,85,00,2F,0B,00,00,
60318101,00000523,false,Tx,0,8,00,00,00,00,00,00,00,10,
60315793,00000570,false,Rx,0,8,00,57,85,00,28,0A,00,00,
60423013,00000523,false,Tx,0,8,00,00,00,00,00,00,00,10,
60415784,00000570,false,Rx,0,8,00,54,85,00,24,09,00,00,
60515835,00000570,false,Rx,0,8,00,54,85,00,23,08,00,00,
60537835,00000523,false,Tx,0,8,00,00,00,00,00,00,00,10,
60615824,00000570,false,Rx,0,8,00,54,85,00,23,08,00,00,
60661449,00000523,false,Tx,0,8,00,00,00,00,00,00,00,00,
60715818,00000570,false,Rx,0,8,00,52,85,00,23,07,00,00,
60783846,00000523,false,Tx,0,8,00,00,00,00,00,00,00,10,
60815814,00000570,false,Rx,0,8,00,45,85,00,1D,06,00,00,
60875299,00000523,false,Tx,0,8,00,00,00,00,00,00,00,10,
60915814,00000570,false,Rx,0,8,00,4F,85,00,1F,06,00,00,
60994264,00000523,false,Tx,0,8,00,00,00,00,00,00,00,00,
61015856,00000570,false,Rx,0,8,00,54,85,00,22,06,00,00,
61089127,00000523,false,Tx,0,8,00,00,00,00,00,00,00,10,
61115845,00000570,false,Rx,0,8,00,4A,85,00,20,05,00,00,
61202368,00000523,false,Tx,0,8,00,00,00,00,00,00,00,00,
61215901,00000570,false,Rx,0,8,00,50,85,00,20,05,00,00,
61308744,00000523,false,Tx,0,8,00,00,00,00,00,00,00,10,
61315788,00000570,false,Rx,0,8,00,49,85,00,1F,05,00,00,
61431812,00000523,false,Tx,0,8,00,00,00,00,00,00,00,00,
61415779,00000570,false,Rx,0,8,00,4B,85,00,1E,05,00,00,
61520383,00000523,false,Tx,0,8,00,00,00,00,00,00,00,10,
61515825,00000570,false,Rx,0,8,00,4D,85,00,1F,05,00,00,
61615814,00000570,false,Rx,0,8,00,4C,85,00,1F,05,00,00,
61645905,00000523,false,Tx,0,8,00,00,00,00,00,00,00,10,
61715817,00000570,false,Rx,0,8,00,53,85,00,22,05,00,00,
61786308,00000523,false,Tx,0,8,00,00,00,00,00,00,00,10,
61815851,00000570,false,Rx,0,8,00,53,85,00,23,05,00,00,
61863588,00000523,false,Tx,0,8,00,00,00,00,00,00,00,00,
61915864,00000570,false,Rx,0,8,00,52,85,00,22,05,00,00,
61977256,00000523,false,Tx,0,8,00,00,00,00,00,00,00,00,
62015854,00000570,false,Rx,0,8,00,43,85,00,1D,05,00,00,
62066850,00000523,false,Tx,0,8,00,00,00,00,00,00,00,10,
62115844,00000570,false,Rx,0,8,00,33,85,00,16,04,00,00,
62195398,00000523,false,Tx,0,8,00,00,00,00,00,00,00,00,
62215889,00000570,false,Rx,0,8,00,4A,85,00,1B,04,00,00,
62296487,00000523,false,Tx,0,8,00,00,00,00,00,00,00,10,
62315834,00000570,false,Rx,0,8,00,49,85,00,1E,04,00,00,
62412956,00000523,false,Tx,0,8,00,00,00,00,00,00,00,00,
62415886,00000570,false,Rx,0,8,00,4D,85,00,1F,04,00,00,
62511339,00000523,false,Tx,0,8,00,00,00,00,00,00,00,10,
62515876,00000570,false,Rx,0,8,00,4B,85,00,1F,04,00,00,
62621540,00000523,false,Tx,0,8,00,00,00,00,00,00,00,00,
62615865,00000570,false,Rx,0,8,00,4D,85,00,1F,04,00,00,
62715866,00000570,false,Rx,0,8,00,4C,85,00,1F,04,00,00,
62765161,00000523,false,Tx,0,8,00,00,00,00,00,00,00,10,
62815856,00000570,false,Rx,0,8,00,3D,85,00,1A,04,00,00,
62842128,00000523,false,Tx,0,8,00,00,00,00,00,00,00,10,
62915845,00000570,false,Rx,0,8,00,4D,85,00,1E,04,00,00,
62950147,00000523,false,Tx,0,8,00,00,00,00,00,00,00,00,
63015897,00000570,false,Rx,0,8,00,51,85,00,21,04,00,00,
63057807,00000523,false,Tx,0,8,00,00,00,00,00,00,00,00,
63115886,00000570,false,Rx,0,8,00,40,85,00,1C,04,00,00,
63181992,00000523,false,Tx,0,8,00,00,00,00,00,00,00,10,
63215887,00000570,false,Rx,0,8,00,2E,85,00,14,03,00,00,
63303943,00000523,false,Tx,0,8,00,00,00,00,00,00,00,10,
63315825,00000570,false,Rx,0,8,00,44,85,00,18,03,00,00,
63395763,00000523,false,Tx,0,8,00,00,00,00,00,00,00,00,
63415876,00000570,false,Rx,0,8,00,54,85,00,21,04,00,00,
63502390,00000523,false,Tx,0,8,00,00,00,00,00,00,00,10,
63515866,00000570,false,Rx,0,8,00,4B,85,00,20,04,00,00,
63612635,00000523,false,Tx,0,8,00,00,00,00,00,00,00,10,
63615855,00000570,false,Rx,0,8,00,4E,85,00,1F,04,00,00,
63712767,00000523,false,Tx,0,8,00,00,00,00,00,00,00,10,
63715908,00000570,false,Rx,0,8,00,53,85,00,22,05,00,00,
63826846,00000523,false,Tx,0,8,00,00,00,00,00,00,00,10,
63815897,00000570,false,Rx,0,8,00,53,85,00,23,05,00,00,
63915845,00000570,false,Rx,0,8,00,53,85,00,23,05,00,00,
63946203,00000523,false,Tx,0,8,00,00,00,00,00,00,00,10,
64015886,00000570,false,Rx,0,8,00,53,85,00,23,05,00,00,
64047350,00000523,false,Tx,0,8,00,00,00,00,00,00,00,00,
64115886,00000570,false,Rx,0,8,00,50,85,00,22,05,00,00,
64153498,00000523,false,Tx,0,8,00,00,00,00,00,00,00,10,
64215826,00000570,false,Rx,0,8,00,48,85,00,1E,05,00,00,
64266909,00000523,false,Tx,0,8,00,00,00,00,00,00,00,10,
64315928,00000570,false,Rx,0,8,00,52,85,00,21,05,00,00,
64375742,00000523,false,Tx,0,8,00,00,00,00,00,00,00,00,
64415917,00000570,false,Rx,0,8,00,53,85,00,22,05,00,00,
64497072,00000523,false,Tx,0,8,00,00,00,00,00,00,00,10,
64515907,00000570,false,Rx,0,8,00,47,85,00,1E,05,00,00,
64601875,00000523,false,Tx,0,8,00,00,00,00,00,00,00,00,
64615960,00000570,false,Rx,0,8,00,4D,85,00,1F,05,00,00,
64714033,00000523,false,Tx,0,8,00,00,00,00,00,00,00,10,
64715846,00000570,false,Rx,0,8,00,49,85,00,1E,05,00,00,
64815887,00000570,false,Rx,0,8,00,4B,85,00,1E,04,00,00,
64836429,00000523,false,Tx,0,8,00,00,00,00,00,00,00,10,
64915887,00000570,false,Rx,0,8,00,53,85,00,21,05,00,00,
64937951,00000523,false,Tx,0,8,00,00,00,00,00,00,00,00,
65015938,00000570,false,Rx,0,8,00,50,85,00,22,05,00,00,
65044684,00000523,false,Tx,0,8,00,00,00,00,00,00,00,10,
65115929,00000570,false,Rx,0,8,00,4A,85,00,1F,05,00,00,
65154447,00000523,false,Tx,0,8,00,00,00,00,00,00,00,00,
65215921,00000570,false,Rx,0,8,00,51,85,00,21,05,00,00,
65285979,00000523,false,Tx,0,8,00,00,00,00,00,00,00,00,
65315918,00000570,false,Rx,0,8,00,42,85,00,1C,04,00,00,
65370353,00000523,false,Tx,0,8,00,00,00,00,00,00,00,10,
65415907,00000570,false,Rx,0,8,00,31,85,00,15,03,00,00,
65499607,00000523,false,Tx,0,8,00,00,00,00,00,00,00,10,
65515901,00000570,false,Rx,0,8,00,48,85,00,1A,04,00,00,
65596799,00000523,false,Tx,0,8,00,00,00,00,00,00,00,10,
65615903,00000570,false,Rx,0,8,00,54,85,00,21,04,00,00,
65701824,00000523,false,Tx,0,8,00,00,00,00,00,00,00,00,
65715947,00000570,false,Rx,0,8,00,53,85,00,23,05,00,00,
65814309,00000523,false,Tx,0,8,00,00,00,00,00,00,00,00,
65815944,00000570,false,Rx,0,8,00,4A,85,00,1F,05,00,00,
65922060,00000523,false,Tx,0,8,00,00,00,00,00,00,00,00,
65915944,00000570,false,Rx,0,8,00,37,85,00,18,04,00,00,
66034056,00000523,false,Tx,0,8,00,00,00,00,00,00,00,00,
66015927,00000570,false,Rx,0,8,00,22,85,00,0F,03,00,00,
66115535,00000570,false,Rx,0,8,00,02,85,00,01,00,00,00,
66147800,00000523,false,Tx,0,8,00,00,00,00,00,00,00,10,
66215756,00000570,false,Rx,0,8,00,00,85,00,06,00,00,00,
66274359,00000523,false,Tx,0,8,00,00,00,00,00,00,00,10,
66315794,00000570,false,Rx,0,8,00,13,85,00,0F,03,00,00,
66357219,00000523,false,Tx,0,8,00,00,00,00,00,00,00,10,
66415793,00000570,false,Rx,0,8,00,2D,85,00,1A,06,00,00,
66499481,00000523,false,Tx,0,8,00,00,00,00,00,00,00,00,
66515777,00000570,false,Rx,0,8,00,57,85,00,28,09,00,00,
66582646,00000523,false,Tx,0,8,00,00,00,00,00,00,00,10,
66615779,00000570,false,Rx,0,8,00,69,85,00,2E,0A,00,00,
66707557,00000523,false,Tx,0,8,00,00,00,00,00,00,00,00,
66715782,00000570,false,Rx,0,8,00,6B,85,00,30,0B,00,00,
66810806,00000523,false,Tx,0,8,00,00,00,00,00,00,00,00,
66815926,00000570,false,Rx,0,8,00,68,85,00,2F,0B,00,00,
66928965,00000523,false,Tx,0,8,00,00,00,00,00,00,00,10,
66915978,00000570,false,Rx,0,8,00,57,85,00,28,0A,00,00,
67031336,00000523,false,Tx,0,8,00,00,00,00,00,00,00,10,
67015980,00000570,false,Rx,0,8,00,50,85,00,22,09,00,00,
67115918,00000570,false,Rx,0,8,00,54,85,00,23,08,00,00,
67137823,00000523,false,Tx,0,8,00,00,00,00,00,00,00,00,
67215961,00000570,false,Rx,0,8,00,51,85,00,22,07,00,00,
67282461,00000523,false,Tx,0,8,00,00,00,00,00,00,00,10,
67315959,00000570,false,Rx,0,8,00,41,85,00,1C,06,00,00,
67366974,00000523,false,Tx,0,8,00,00,00,00,00,00,00,10,
67415949,00000570,false,Rx,0,8,00,4E,85,00,1E,06,00,00,
67471220,00000523,false,Tx,0,8,00,00,00,00,00,00,00,10,
67515939,00000570,false,Rx,0,8,00,54,85,00,22,06,00,00,
67565370,00000523,false,Tx,0,8,00,00,00,00,00,00,00,10,
67615990,00000570,false,Rx,0,8,00,54,85,00,23,06,00,00,
67689156,00000523,false,Tx,0,8,00,00,00,00,00,00,00,00,
67716043,00000570,false,Rx,0,8,00,54,85,00,23,06,00,00,
67798274,00000523,false,Tx,0,8,00,00,00,00,00,00,00,10,
67815979,00000570,false,Rx,0,8,00,49,85,00,1F,05,00,00,
67925648,00000523,false,Tx,0,8,00,00,00,00,00,00,00,10,
67915979,00000570,false,Rx,0,8,00,4E,85,00,1F,05,00,00,
68028633,00000523,false,Tx,0,8,00,00,00,00,00,00,00,10,
68015912,00000570,false,Rx,0,8,00,54,85,00,22,05,00,00,
68115965,00000570,false,Rx,0,8,00,54,85,00,23,05,00,00,
68140172,00000523,false,Tx,0,8,00,00,00,00,00,00,00,10,
68215957,00000570,false,Rx,0,8,00,54,85,00,23,06,00,00,
68287104,00000523,false,Tx,0,8,00,00,00,00,00,00,00,00,
68316006,00000570,false,Rx,0,8,00,54,85,00,23,06,00,00,
68359204,00000523,false,Tx,0,8,00,00,00,00,00,00,00,10,
68415944,00000570,false,Rx,0,8,00,4E,85,00,21,05,00,00,
68472987,00000523,false,Tx,0,8,00,00,00,00,00,00,00,10,
68515945,00000570,false,Rx,0,8,00,53,85,00,22,06,00,00,
68574623,00000523,false,Tx,0,8,00,00,00,00,00,00,00,00,
68615986,00000570,false,Rx,0,8,00,54,85,00,23,06,00,00,
68688659,00000523,false,Tx,0,8,00,00,00,00,00,00,00,00,
68715978,00000570,false,Rx,0,8,00,47,85,00,1E,05,00,00,
68791419,00000523,false,Tx,0,8,00,00,00,00,00,00,00,00,
68815976,00000570,false,Rx,0,8,00,33,85,00,16,04,00,00,
68904865,00000523,false,Tx,0,8,00,00,00,00,00,00,00,00,
68915614,00000570,false,Rx,0,8,00,14,85,00,09,02,00,00,
69015606,00000570,false,Rx,0,8,00,01,85,00,00,00,00,00,
69050191,00000523,false,Tx,0,8,00,00,00,00,00,00,00,00,
69115606,00000570,false,Rx,0,8,00,00,85,00,00,00,00,00,
69137842,00000523,false,Tx,0,8,00,00,00,00,00,00,00,00,
69215598,00000570,false,Rx,0,8,00,00,85,00,00,00,00,00,
69256122,00000523,false,Tx,0,8,00,00,00,00,00,00,00,10,
69315886,00000570,false,Rx,0,8,00,00,85,00,06,00,00,00,
69360201,00000523,false,Tx,0,8,00,00,00,00,00,00,00,10,
69415824,00000570,false,Rx,0,8,00,10,85,00,0E,03,00,00,
69507861,00000523,false,Tx,0,8,00,00,00,00,00,00,00,00,
69515627,00000570,false,Rx,0,8,00,14,85,00,0D,03,00,00,
69590838,00000523,false,Tx,0,8,00,00,00,00,00,00,00,00,
69615628,00000570,false,Rx,0,8,00,01,85,00,01,00,00,00,
69700312,00000523,false,Tx,0,8,00,00,00,00,00,00,00,00,
69715621,00000570,false,Rx,0,8,00,00,85,00,00,00,00,00,
69803675,00000523,false,Tx,0,8,00,00,00,00,00,00,00,00,
69815618,00000570,false,Rx,0,8,00,00,85,00,00,00,00,00,
69918876,00000523,false,Tx,0,8,00,00,00,00,00,00,00,00,
69915618,00000570,false,Rx,0,8,00,00,85,00,00,00,00,00,
70015621,00000570,false,Rx,0,8,00,00,85,00,00,00,00,00,
70042451,00000523,false,Tx,0,8,00,00,00,00,00,00,00,00,
70115623,00000570,false,Rx,0,8,00,00,85,00,00,00,00,00,
70159146,00000523,false,Tx,0,8,00,00,00,00,00,00,00,10,
70215895,00000570,false,Rx,0,8,00,00,85,00,05,00,00,00,
70266039,00000523,false,Tx,0,8,00,00,00,00,00,00,00,10,
70315876,00000570,false,Rx,0,8,00,10,85,00,0E,03,00,00,
70373550,00000523,false,Tx,0,8,00,00,00,00,00,00,00,00,
70415628,00000570,false,Rx,0,8,00,05,85,00,03,00,00,00,
70500793,00000523,false,Tx,0,8,00,00,00,00,00,00,00,10,
70515918,00000570,false,Rx,0,8,00,00,85,00,01,00,00,00,
70594303,00000523,false,Tx,0,8,00,00,00,00,00,00,00,00,
70615628,00000570,false,Rx,0,8,00,00,85,00,02,00,00,00,
70711048,00000523,false,Tx,0,8,00,00,00,00,00,00,00,00,
70715631,00000570,false,Rx,0,8,00,00,85,00,00,00,00,00,
70802708,00000523,false,Tx,0,8,00,00,00,00,00,00,00,00,
70815659,00000570,false,Rx,0,8,00,00,85,00,00,00,00,00,
70921483,00000523,false,Tx,0,8,00,00,00,00,00,00,00,00,
70915659,00000570,false,Rx,0,8,00,00,85,00,00,00,00,00,
71022205,00000523,false,Tx,0,8,00,00,00,00,00,00,00,10,
71015732,00000570,false,Rx,0,8,00,00,85,00,00,00,00,00,
71115887,00000570,false,Rx,0,8,00,05,85,00,09,01,00,00,
71144325,00000523,false,Tx,0,8,00,00,00,00,00,00,00,10,
71215878,00000570,false,Rx,0,8,00,1C,85,00,12,04,00,00,
71284367,00000523,false,Tx,0,8,00,00,00,00,00,00,00,00,
71315649,00000570,false,Rx,0,8,00,09,85,00,06,01,00,00,
71380881,00000523,false,Tx,0,8,00,00,00,00,00,00,00,10,
71415866,00000570,false,Rx,0,8,00,01,85,00,04,00,00,00,
71496586,00000523,false,Tx,0,8,00,00,00,00,00,00,00,10,
71515907,00000570,false,Rx,0,8,00,0E,85,00,0D,02,00,00,
71596034,00000523,false,Tx,0,8,00,00,00,00,00,00,00,00,
71615669,00000570,false,Rx,0,8,00,0D,85,00,08,01,00,00,
71710387,00000523,false,Tx,0,8,00,00,00,00,00,00,00,00,
71715660,00000570,false,Rx,0,8,00,01,85,00,00,00,00,00,
71801649,00000523,false,Tx,0,8,00,00,00,00,00,00,00,00,
71815659,00000570,false,Rx,0,8,00,00,85,00,00,00,00,00,
71926561,00000523,false,Tx,0,8,00,00,00,00,00,00,00,00,
71915658,00000570,false,Rx,0,8,00,00,85,00,00,00,00,00,
72025524,00000523,false,Tx,0,8,00,00,00,00,00,00,00,10,
72015659,00000570,false,Rx,0,8,00,00,85,00,00,00,00,00,
72115887,00000570,false,Rx,0,8,00,02,85,00,08,01,00,00,
72146521,00000523,false,Tx,0,8,00,00,00,00,00,00,00,00,
72215681,00000570,false,Rx,0,8,00,01,85,00,01,00,00,00,
72258075,00000523,false,Tx,0,8,00,00,00,00,00,00,00,00,
72315680,00000570,false,Rx,0,8,00,00,85,00,00,00,00,00,
72360763,00000523,false,Tx,0,8,00,00,00,00,00,00,00,10,
72415918,00000570,false,Rx,0,8,00,00,85,00,05,00,00,00,
72459184,00000523,false,Tx,0,8,00,00,00,00,00,00,00,10,
72515911,00000570,false,Rx,0,8,00,10,85,00,0E,03,00,00,
72575984,00000523,false,Tx,0,8,00,00,00,00,00,00,00,10,
72615897,00000570,false,Rx,0,8,00,2A,85,00,19,06,00,00,
72684175,00000523,false,Tx,0,8,00,00,00,00,00,00,00,10,
72715889,00000570,false,Rx,0,8,00,52,85,00,27,09,00,00,
72792639,00000523,false,Tx,0,8,00,00,00,00,00,00,00,00,
72815934,00000570,false,Rx,0,8,00,69,85,00,2D,0A,00,00,
72907646,00000523,false,Tx,0,8,00,00,00,00,00,00,00,10,
72915934,00000570,false,Rx,0,8,00,6B,85,00,30,0B,00,00,
73028947,00000523,false,Tx,0,8,00,00,00,00,00,00,00,00,
73016088,00000570,false,Rx,0,8,00,5F,85,00,2C,0B,00,00,
73130462,00000523,false,Tx,0,8,00,00,00,00,00,00,00,00,
73116088,00000570,false,Rx,0,8,00,4F,85,00,23,09,00,00,
73216082,00000570,false,Rx,0,8,00,3D,85,00,1B,07,00,00,
73252978,00000523,false,Tx,0,8,00,00,00,00,00,00,00,00,
73316079,00000570,false,Rx,0,8,00,28,85,00,12,05,00,00,
73345103,00000523,false,Tx,0,8,00,00,00,00,00,00,00,00,
73415697,00000570,false,Rx,0,8,00,04,85,00,01,00,00,00,
73453560,00000523,false,Tx,0,8,00,00,00,00,00,00,00,10,
73515959,00000570,false,Rx,0,8,00,00,85,00,06,01,00,00,
73565906,00000523,false,Tx,0,8,00,00,00,00,00,00,00,10,
73615948,00000570,false,Rx,0,8,00,13,85,00,0F,03,00,00,
73667819,00000523,false,Tx,0,8,00,00,00,00,00,00,00,10,
73715950,00000570,false,Rx,0,8,00,2D,85,00,1A,06,00,00,
73782020,00000523,false,Tx,0,8,00,00,00,00,00,00,00,10,
73815928,00000570,false,Rx,0,8,00,57,85,00,28,0A,00,00,
73915608,00000523,false,Tx,0,8,00,00,00,00,00,00,00,00,
73915928,00000570,false,Rx,0,8,00,69,85,00,2E,0A,00,00,
74028872,00000523,false,Tx,0,8,00,00,00,00,00,00,00,00,
74015923,00000570,false,Rx,0,8,00,6B,85,00,30,0B,00,00,
74123783,00000523,false,Tx,0,8,00,00,00,00,00,00,00,10,
74116082,00000570,false,Rx,0,8,00,68,85,00,2F,0B,00,00,
74216125,00000570,false,Rx,0,8,00,58,85,00,28,0A,00,00,
74252987,00000523,false,Tx,0,8,00,00,00,00,00,00,00,10,
74316124,00000570,false,Rx,0,8,00,54,85,00,24,09,00,00,
74345463,00000523,false,Tx,0,8,00,00,00,00,00,00,00,10,
74416114,00000570,false,Rx,0,8,00,54,85,00,23,08,00,00,
74464473,00000523,false,Tx,0,8,00,00,00,00,00,00,00,10,
74516062,00000570,false,Rx,0,8,00,54,85,00,23,08,00,00,
74585281,00000523,false,Tx,0,8,00,00,00,00,00,00,00,10,
74616105,00000570,false,Rx,0,8,00,54,85,00,23,07,00,00,
74688024,00000523,false,Tx,0,8,00,00,00,00,00,00,00,00,
74716095,00000570,false,Rx,0,8,00,54,85,00,23,07,00,00,
74792209,00000523,false,Tx,0,8,00,00,00,00,00,00,00,10,
74816145,00000570,false,Rx,0,8,00,4A,85,00,20,06,00,00,
74903860,00000523,false,Tx,0,8,00,00,00,00,00,00,00,00,
74916145,00000570,false,Rx,0,8,00,50,85,00,20,06,00,00,
75016139,00000570,false,Rx,0,8,00,4C,85,00,20,05,00,00,
75045732,00000523,false,Tx,0,8,00,00,00,00,00,00,00,10,
75135245,00000523,false,Tx,0,8,00,00,00,00,00,00,00,00,
75116130,00000570,false,Rx,0,8,00,41,85,00,1B,05,00,00,
75216121,00000570,false,Rx,0,8,00,4C,85,00,1E,05,00,00,
75257440,00000523,false,Tx,0,8,00,00,00,00,00,00,00,00,
75316110,00000570,false,Rx,0,8,00,3C,85,00,1A,04,00,00,
75346954,00000523,false,Tx,0,8,00,00,00,00,00,00,00,10,
75416110,00000570,false,Rx,0,8,00,31,85,00,14,03,00,00,
75454621,00000523,false,Tx,0,8,00,00,00,00,00,00,00,00,
75516162,00000570,false,Rx,0,8,00,49,85,00,1B,03,00,00,
75570655,00000523,false,Tx,0,8,00,00,00,00,00,00,00,10,
75616100,00000570,false,Rx,0,8,00,43,85,00,1B,03,00,00,
75684872,00000523,false,Tx,0,8,00,00,00,00,00,00,00,00,
75716154,00000570,false,Rx,0,8,00,4F,85,00,1F,04,00,00,
75800014,00000523,false,Tx,0,8,00,00,00,00,00,00,00,00,
75816141,00000570,false,Rx,0,8,00,46,85,00,1D,04,00,00,
75903261,00000523,false,Tx,0,8,00,00,00,00,00,00,00,00,
75916131,00000570,false,Rx,0,8,00,32,85,00,16,03,00,00,
76033990,00000523,false,Tx,0,8,00,00,00,00,00,00,00,00,
76015748,00000570,false,Rx,0,8,00,13,85,00,08,01,00,00,
76117144,00000523,false,Tx,0,8,00,00,00,00,00,00,00,10,
76115851,00000570,false,Rx,0,8,00,01,85,00,00,00,00,00,
76216010,00000570,false,Rx,0,8,00,05,85,00,09,01,00,00,
76236974,00000523,false,Tx,0,8,00,00,00,00,00,00,00,10,
76316001,00000570,false,Rx,0,8,00,1C,85,00,12,04,00,00,
76355449,00000523,false,Tx,0,8,00,00,00,00,00,00,00,00,
76415752,00000570,false,Rx,0,8,00,05,85,00,03,00,00,00,
76458457,00000523,false,Tx,0,8,00,00,00,00,00,00,00,10,
76516036,00000570,false,Rx,0,8,00,00,85,00,05,00,00,00,
76568649,00000523,false,Tx,0,8,00,00,00,00,00,00,00,10,
76615975,00000570,false,Rx,0,8,00,10,85,00,0E,03,00,00,
76693411,00000523,false,Tx,0,8,00,00,00,00,00,00,00,10,
76716020,00000570,false,Rx,0,8,00,2A,85,00,19,06,00,00,
76812317,00000523,false,Tx,0,8,00,00,00,00,00,00,00,00,
76816021,00000570,false,Rx,0,8,00,52,85,00,27,09,00,00,
76924390,00000523,false,Tx,0,8,00,00,00,00,00,00,00,10,
76916011,00000570,false,Rx,0,8,00,69,85,00,2D,0A,00,00,
77016014,00000570,false,Rx,0,8,00,6B,85,00,30,0B,00,00,
77043339,00000523,false,Tx,0,8,00,00,00,00,00,00,00,10,
77116166,00000570,false,Rx,0,8,00,5F,85,00,2C,0B,00,00,
77147226,00000523,false,Tx,0,8,00,00,00,00,00,00,00,00,
77216167,00000570,false,Rx,0,8,00,51,85,00,24,09,00,00,
77260928,00000523,false,Tx,0,8,00,00,00,00,00,00,00,10,
77316155,00000570,false,Rx,0,8,00,45,85,00,1E,08,00,00,
77347753,00000523,false,Tx,0,8,00,00,00,00,00,00,00,00,
77416208,00000570,false,Rx,0,8,00,50,85,00,20,07,00,00,
77478373,00000523,false,Tx,0,8,00,00,00,00,00,00,00,10,
77516149,00000570,false,Rx,0,8,00,45,85,00,1D,06,00,00,
77569906,00000523,false,Tx,0,8,00,00,00,00,00,00,00,10,
77616146,00000570,false,Rx,0,8,00,4F,85,00,1F,06,00,00,
77691926,00000523,false,Tx,0,8,00,00,00,00,00,00,00,10,
77716186,00000570,false,Rx,0,8,00,54,85,00,22,06,00,00,
77793621,00000523,false,Tx,0,8,00,00,00,00,00,00,00,10,
77816176,00000570,false,Rx,0,8,00,54,85,00,23,06,00,00,
77909726,00000523,false,Tx,0,8,00,00,00,00,00,00,00,00,
77916177,00000570,false,Rx,0,8,00,54,85,00,23,06,00,00,
78009560,00000523,false,Tx,0,8,00,00,00,00,00,00,00,00,
78016171,00000570,false,Rx,0,8,00,4F,85,00,21,06,00,00,
78125471,00000523,false,Tx,0,8,00,00,00,00,00,00,00,10,
78116213,00000570,false,Rx,0,8,00,3C,85,00,1B,05,00,00,
78216213,00000570,false,Rx,0,8,00,39,85,00,17,04,00,00,
78248990,00000523,false,Tx,0,8,00,00,00,00,00,00,00,00,
78316255,00000570,false,Rx,0,8,00,4E,85,00,1D,04,00,00,
78352672,00000523,false,Tx,0,8,00,00,00,00,00,00,00,00,
78416195,00000570,false,Rx,0,8,00,40,85,00,1B,04,00,00,
78450192,00000523,false,Tx,0,8,00,00,00,00,00,00,00,00,
78516187,00000570,false,Rx,0,8,00,2B,85,00,13,03,00,00,
78561094,00000523,false,Tx,0,8,00,00,00,00,00,00,00,10,
78616186,00000570,false,Rx,0,8,00,1B,85,00,0B,02,00,00,
78677132,00000523,false,Tx,0,8,00,00,00,00,00,00,00,00,
78716238,00000570,false,Rx,0,8,00,3C,85,00,13,02,00,00,
78798941,00000523,false,Tx,0,8,00,00,00,00,00,00,00,00,
78816280,00000570,false,Rx,0,8,00,43,85,00,19,02,00,00,
78896010,00000523,false,Tx,0,8,00,00,00,00,00,00,00,10,
78916218,00000570,false,Rx,0,8,00,30,85,00,14,02,00,00,
79006255,00000523,false,Tx,0,8,00,00,00,00,00,00,00,10,
79016208,00000570,false,Rx,0,8,00,3C,85,00,16,02,00,00,
79110314,00000523,false,Tx,0,8,00,00,00,00,00,00,00,10,
79116207,00000570,false,Rx,0,8,00,52,85,00,1F,03,00,00,
79222349,00000523,false,Tx,0,8,00,00,00,00,00,00,00,10,
79216156,00000570,false,Rx,0,8,00,54,85,00,22,04,00,00,
79323898,00000523,false,Tx,0,8,00,00,00,00,00,00,00,10,
79316197,00000570,false,Rx,0,8,00,53,85,00,23,04,00,00,
79416249,00000570,false,Rx,0,8,00,53,85,00,23,05,00,00,
79441493,00000523,false,Tx,0,8,00,00,00,00,00,00,00,10,
79516191,00000570,false,Rx,0,8,00,54,85,00,23,05,00,00,
79540610,00000523,false,Tx,0,8,00,00,00,00,00,00,00,00,
79616228,00000570,false,Rx,0,8,00,50,85,00,22,05,00,00,
79658206,00000523,false,Tx,0,8,00,00,00,00,00,00,00,00,
79716228,00000570,false,Rx,0,8,00,3E,85,00,1B,04,00,00,
79774038,00000523,false,Tx,0,8,00,00,00,00,00,00,00,10,
79816218,00000570,false,Rx,0,8,00,2D,85,00,13,03,00,00,
79882311,00000523,false,Tx,0,8,00,00,00,00,00,00,00,00,
79916270,00000570,false,Rx,0,8,00,46,85,00,19,03,00,00,
79986380,00000523,false,Tx,0,8,00,00,00,00,00,00,00,10,
80016213,00000570,false,Rx,0,8,00,46,85,00,1B,03,00,00,
80104761,00000523,false,Tx,0,8,00,00,00,00,00,00,00,00,
80116306,00000570,false,Rx,0,8,00,4E,85,00,1E,04,00,00,
80221340,00000523,false,Tx,0,8,00,00,00,00,00,00,00,10,
80216202,00000570,false,Rx,0,8,00,49,85,00,1E,04,00,00,
80325802,00000523,false,Tx,0,8,00,00,00,00,00,00,00,10,
80316193,00000570,false,Rx,0,8,00,49,85,00,1D,04,00,00,
80416235,00000570,false,Rx,0,8,00,53,85,00,21,04,00,00,
80442262,00000523,false,Tx,0,8,00,00,00,00,00,00,00,10,
80516234,00000570,false,Rx,0,8,00,54,85,00,23,05,00,00,
80546818,00000523,false,Tx,0,8,00,00,00,00,00,00,00,10,
80616213,00000570,false,Rx,0,8,00,54,85,00,23,05,00,00,
80657377,00000523,false,Tx,0,8,00,00,00,00,00,00,00,00,
80716277,00000570,false,Rx,0,8,00,53,85,00,22,05,00,00,
80767808,00000523,false,Tx,0,8,00,00,00,00,00,00,00,10,
80816267,00000570,false,Rx,0,8,00,49,85,00,1F,05,00,00,
80883076,00000523,false,Tx,0,8,00,00,00,00,00,00,00,10,
80916257,00000570,false,Rx,0,8,00,51,85,00,21,05,00,00,
80993374,00000523,false,Tx,0,8,00,00,00,00,00,00,00,00,
81016257,00000570,false,Rx,0,8,00,54,85,00,23,05,00,00,
81100735,00000523,false,Tx,0,8,00,00,00,00,00,00,00,10,
81116247,00000570,false,Rx,0,8,00,49,85,00,1F,05,00,00,
81200928,00000523,false,Tx,0,8,00,00,00,00,00,00,00,00,
81216248,00000570,false,Rx,0,8,00,4D,85,00,1F,05,00,00,
81308880,00000523,false,Tx,0,8,00,00,00,00,00,00,00,10,
81316239,00000570,false,Rx,0,8,00,4B,85,00,1F,05,00,00,
81417518,00000523,false,Tx,0,8,00,00,00,00,00,00,00,00,
81416290,00000570,false,Rx,0,8,00,4C,85,00,1F,05,00,00,
81516280,00000570,false,Rx,0,8,00,4E,85,00,20,05,00,00,
81553765,00000523,false,Tx,0,8,00,00,00,00,00,00,00,10,
81616217,00000570,false,Rx,0,8,00,45,85,00,1D,04,00,00,
81647746,00000523,false,Tx,0,8,00,00,00,00,00,00,00,10,
81716260,00000570,false,Rx,0,8,00,52,85,00,20,05,00,00,
81763109,00000523,false,Tx,0,8,00,00,00,00,00,00,00,00,
81816260,00000570,false,Rx,0,8,00,53,85,00,22,05,00,00,
81862651,00000523,false,Tx,0,8,00,00,00,00,00,00,00,00,
81916259,00000570,false,Rx,0,8,00,44,85,00,1D,05,00,00,
81985630,00000523,false,Tx,0,8,00,00,00,00,00,00,00,00,
82016304,00000570,false,Rx,0,8,00,31,85,00,15,04,00,00,
82095054,00000523,false,Tx,0,8,00,00,00,00,00,00,00,10,
82116300,00000570,false,Rx,0,8,00,1D,85,00,0D,02,00,00,
82201812,00000523,false,Tx,0,8,00,00,00,00,00,00,00,10,
82216290,00000570,false,Rx,0,8,00,31,85,00,10,02,00,00,
82313084,00000523,false,Tx,0,8,00,00,00,00,00,00,00,00,
82316280,00000570,false,Rx,0,8,00,52,85,00,1D,03,00,00,
82422012,00000523,false,Tx,0,8,00,00,00,00,00,00,00,00,
82416280,00000570,false,Rx,0,8,00,4E,85,00,20,04,00,00,
82516269,00000570,false,Rx,0,8,00,3B,85,00,1A,03,00,00,
82545851,00000523,false,Tx,0,8,00,00,00,00,00,00,00,00,
82616322,00000570,false,Rx,0,8,00,27,85,00,11,02,00,00,
82649326,00000523,false,Tx,0,8,00,00,00,00,00,00,00,00,
82715907,00000570,false,Rx,0,8,00,03,85,00,01,00,00,00,
82763142,00000523,false,Tx,0,8,00,00,00,00,00,00,00,10,
82816198,00000570,false,Rx,0,8,00,00,85,00,05,00,00,00,
82864912,00000523,false,Tx,0,8,00,00,00,00,00,00,00,10,
82916135,00000570,false,Rx,0,8,00,10,85,00,0E,03,00,00,
82968254,00000523,false,Tx,0,8,00,00,00,00,00,00,00,10,
83016130,00000570,false,Rx,0,8,00,2A,85,00,19,06,00,00,
83089727,00000523,false,Tx,0,8,00,00,00,00,00,00,00,00,
83116120,00000570,false,Rx,0,8,00,52,85,00,27,09,00,00,
83205646,00000523,false,Tx,0,8,00,00,00,00,00,00,00,10,
83216121,00000570,false,Rx,0,8,00,69,85,00,2D,0A,00,00,
83303725,00000523,false,Tx,0,8,00,00,00,00,00,00,00,10,
83316163,00000570,false,Rx,0,8,00,6B,85,00,30,0B,00,00,
83421391,00000523,false,Tx,0,8,00,00,00,00,00,00,00,10,
83416328,00000570,false,Rx,0,8,00,5F,85,00,2C,0B,00,00,
83516310,00000570,false,Rx,0,8,00,54,85,00,25,09,00,00,
83545831,00000523,false,Tx,0,8,00,00,00,00,00,00,00,10,
83616311,00000570,false,Rx,0,8,00,54,85,00,23,08,00,00,
83647873,00000523,false,Tx,0,8,00,00,00,00,00,00,00,00,
83716311,00000570,false,Rx,0,8,00,53,85,00,23,08,00,00,
83769367,00000523,false,Tx,0,8,00,00,00,00,00,00,00,10,
83816290,00000570,false,Rx,0,8,00,47,85,00,1E,07,00,00,
83847783,00000523,false,Tx,0,8,00,00,00,00,00,00,00,00,
83916300,00000570,false,Rx,0,8,00,4F,85,00,20,06,00,00,
83969331,00000523,false,Tx,0,8,00,00,00,00,00,00,00,10,
84016335,00000570,false,Rx,0,8,00,45,85,00,1D,05,00,00,
84083446,00000523,false,Tx,0,8,00,00,00,00,00,00,00,00,
84116332,00000570,false,Rx,0,8,00,50,85,00,1F,05,00,00,
84207202,00000523,false,Tx,0,8,00,00,00,00,00,00,00,10,
84216332,00000570,false,Rx,0,8,00,46,85,00,1D,05,00,00,
84301777,00000523,false,Tx,0,8,00,00,00,00,00,00,00,00,
84316321,00000570,false,Rx,0,8,00,49,85,00,1D,04,00,00,
84415653,00000523,false,Tx,0,8,00,00,00,00,00,00,00,00,
84416373,00000570,false,Rx,0,8,00,48,85,00,1D,04,00,00,
84516311,00000570,false,Rx,0,8,00,34,85,00,17,03,00,00,
84558788,00000523,false,Tx,0,8,00,00,00,00,00,00,00,10,
84616311,00000570,false,Rx,0,8,00,24,85,00,10,03,00,00,
84637754,00000523,false,Tx,0,8,00,00,00,00,00,00,00,10,
84716352,00000570,false,Rx,0,8,00,40,85,00,16,03,00,00,
84774202,00000523,false,Tx,0,8,00,00,00,00,00,00,00,00,
84816352,00000570,false,Rx,0,8,00,53,85,00,1F,03,00,00,
84853452,00000523,false,Tx,0,8,00,00,00,00,00,00,00,10,
84916341,00000570,false,Rx,0,8,00,4C,85,00,1F,04,00,00,
84971780,00000523,false,Tx,0,8,00,00,00,00,00,00,00,00,
85016337,00000570,false,Rx,0,8,00,51,85,00,21,04,00,00,
85069964,00000523,false,Tx,0,8,00,00,00,00,00,00,00,00,
85116379,00000570,false,Rx,0,8,00,43,85,00,1D,04,00,00,
85194234,00000523,false,Tx,0,8,00,00,00,00,00,00,00,10,
85216317,00000570,false,Rx,0,8,00,30,85,00,15,03,00,00,
85292997,00000523,false,Tx,0,8,00,00,00,00,00,00,00,10,
85316369,00000570,false,Rx,0,8,00,42,85,00,18,03,00,00,
85399004,00000523,false,Tx,0,8,00,00,00,00,00,00,00,00,
85416368,00000570,false,Rx,0,8,00,54,85,00,20,04,00,00,
85526659,00000523,false,Tx,0,8,00,00,00,00,00,00,00,10,
85516362,00000570,false,Rx,0,8,00,4C,85,00,20,04,00,00,
85624651,00000523,false,Tx,0,8,00,00,00,00,00,00,00,10,
85616348,00000570,false,Rx,0,8,00,47,85,00,1D,04,00,00,
85716340,00000570,false,Rx,0,8,00,53,85,00,21,04,00,00,
85746497,00000523,false,Tx,0,8,00,00,00,00,00,00,00,00,
85816342,00000570,false,Rx,0,8,00,52,85,00,22,05,00,00,
85838096,00000523,false,Tx,0,8,00,00,00,00,00,00,00,10,
85916341,00000570,false,Rx,0,8,00,4B,85,00,20,05,00,00,
85962959,00000523,false,Tx,0,8,00,00,00,00,00,00,00,00,
86016384,00000570,false,Rx,0,8,00,51,85,00,21,05,00,00,
86049953,00000523,false,Tx,0,8,00,00,00,00,00,00,00,10,
86116373,00000570,false,Rx,0,8,00,4A,85,00,1F,05,00,00,
86169621,00000523,false,Tx,0,8,00,00,00,00,00,00,00,10,
86216374,00000570,false,Rx,0,8,00,52,85,00,21,05,00,00,
86284039,00000523,false,Tx,0,8,00,00,00,00,00,00,00,10,
86316310,00000570,false,Rx,0,8,00,54,85,00,23,05,00,00,
86396731,00000523,false,Tx,0,8,00,00,00,00,00,00,00,00,
86416363,00000570,false,Rx,0,8,00,54,85,00,23,05,00,00,
86511510,00000523,false,Tx,0,8,00,00,00,00,00,00,00,00,
86516353,00000570,false,Rx,0,8,00,4A,85,00,20,05,00,00,
86610690,00000523,false,Tx,0,8,00,00,00,00,00,00,00,00,
86616404,00000570,false,Rx,0,8,00,37,85,00,18,04,00,00,
86723212,00000523,false,Tx,0,8,00,00,00,00,00,00,00,00,
86716394,00000570,false,Rx,0,8,00,23,85,00,0F,03,00,00,
86828842,00000523,false,Tx,0,8,00,00,00,00,00,00,00,10,
86815980,00000570,false,Rx,0,8,00,02,85,00,01,00,00,00,
86916217,00000570,false,Rx,0,8,00,02,85,00,08,01,00,00,
86946558,00000523,false,Tx,0,8,00,00,00,00,00,00,00,10,
87016202,00000570,false,Rx,0,8,00,1A,85,00,11,03,00,00,
87052434,00000523,false,Tx,0,8,00,00,00,00,00,00,00,00,
87115985,00000570,false,Rx,0,8,00,03,85,00,02,00,00,00,
87158813,00000523,false,Tx,0,8,00,00,00,00,00,00,00,00,
87216006,00000570,false,Rx,0,8,00,00,85,00,00,00,00,00,
87269512,00000523,false,Tx,0,8,00,00,00,00,00,00,00,10,
87316300,00000570,false,Rx,0,8,00,00,85,00,05,00,00,00,
87378815,00000523,false,Tx,0,8,00,00,00,00,00,00,00,00,
87416000,00000570,false,Rx,0,8,00,01,85,00,02,00,00,00,
87514904,00000523,false,Tx,0,8,00,00,00,00,00,00,00,10,
87516244,00000570,false,Rx,0,8,00,00,85,00,01,00,00,00,
87612677,00000523,false,Tx,0,8,00,00,00,00,00,00,00,10,
87616234,00000570,false,Rx,0,8,00,07,85,00,0A,01,00,00,
87716799,00000523,false,Tx,0,8,00,00,00,00,00,00,00,00,
87716089,00000570,false,Rx,0,8,00,15,85,00,0E,03,00,00,
87823180,00000523,false,Tx,0,8,00,00,00,00,00,00,00,00,
87815996,00000570,false,Rx,0,8,00,01,85,00,01,00,00,00,
87916027,00000570,false,Rx,0,8,00,00,85,00,00,00,00,00,
87943531,00000523,false,Tx,0,8,00,00,00,00,00,00,00,10,
88016311,00000570,false,Rx,0,8,00,00,85,00,07,01,00,00,
88044350,00000523,false,Tx,0,8,00,00,00,00,00,00,00,00,
88116012,00000570,false,Rx,0,8,00,00,85,00,01,00,00,00,
88163507,00000523,false,Tx,0,8,00,00,00,00,00,00,00,10,
88216249,00000570,false,Rx,0,8,00,00,85,00,06,00,00,00,
88263303,00000523,false,Tx,0,8,00,00,00,00,00,00,00,10,
88316238,00000570,false,Rx,0,8,00,10,85,00,0E,03,00,00,
88384112,00000523,false,Tx,0,8,00,00,00,00,00,00,00,00,
88416010,00000570,false,Rx,0,8,00,07,85,00,05,01,00,00,
88516607,00000523,false,Tx,0,8,00,00,00,00,00,00,00,00,
88516036,00000570,false,Rx,0,8,00,00,85,00,00,00,00,00,
88616785,00000523,false,Tx,0,8,00,00,00,00,00,00,00,10,
88616114,00000570,false,Rx,0,8,00,00,85,00,00,00,00,00,
88717545,00000523,false,Tx,0,8,00,00,00,00,00,00,00,00,
88716093,00000570,false,Rx,0,8,00,02,85,00,06,01,00,00,
88832449,00000523,false,Tx,0,8,00,00,00,00,00,00,00,10,
88816020,00000570,false,Rx,0,8,00,00,85,00,00,00,00,00,
88925365,00000523,false,Tx,0,8,00,00,00,00,00,00,00,00,
88916083,00000570,false,Rx,0,8,00,00,85,00,06,00,00,00,
89016024,00000570,false,Rx,0,8,00,00,85,00,00,00,00,00,
89040269,00000523,false,Tx,0,8,00,00,00,00,00,00,00,00,
89116032,00000570,false,Rx,0,8,00,00,85,00,00,00,00,00,
89154786,00000523,false,Tx,0,8,00,00,00,00,00,00,00,00,
89216052,00000570,false,Rx,0,8,00,00,85,00,00,00,00,00,
89261431,00000523,false,Tx,0,8,00,00,00,00,00,00,00,00,
89316052,00000570,false,Rx,0,8,00,00,85,00,00,00,00,00,
89365127,00000523,false,Tx,0,8,00,00,00,00,00,00,00,10,
89416332,00000570,false,Rx,0,8,00,00,85,00,06,00,00,00,
89485266,00000523,false,Tx,0,8,00,00,00,00,00,00,00,00,
89516032,00000570,false,Rx,0,8,00,03,85,00,04,00,00,00,
89603330,00000523,false,Tx,0,8,00,00,00,00,00,00,00,10,
89616270,00000570,false,Rx,0,8,00,00,85,00,02,00,00,00,
89703375,00000523,false,Tx,0,8,00,00,00,00,00,00,00,00,
89716036,00000570,false,Rx,0,8,00,01,85,00,03,00,00,00,
89811142,00000523,false,Tx,0,8,00,00,00,00,00,00,00,00,
89816068,00000570,false,Rx,0,8,00,00,85,00,00,00,00,00,
89919187,00000523,false,Tx,0,8,00,00,00,00,00,00,00,10,
89916152,00000570,false,Rx,0,8,00,00,85,00,00,00,00,00,
90016301,00000570,false,Rx,0,8,00,05,85,00,09,01,00,00,
90054208,00000523,false,Tx,0,8,00,00,00,00,00,00,00,00,
90116053,00000570,false,Rx,0,8,00,01,85,00,01,00,00,00,
90151018,00000523,false,Tx,0,8,00,00,00,00,00,00,00,10,
90216332,00000570,false,Rx,0,8,00,00,85,00,06,01,00,00,
90259986,00000523,false,Tx,0,8,00,00,00,00,00,00,00,10,
90316281,00000570,false,Rx,0,8,00,13,85,00,0F,03,00,00,
90359020,00000523,false,Tx,0,8,00,00,00,00,00,00,00,00,
90416052,00000570,false,Rx,0,8,00,04,85,00,03,00,00,00,
90466397,00000523,false,Tx,0,8,00,00,00,00,00,00,00,10,
90516326,00000570,false,Rx,0,8,00,00,85,00,04,00,00,00,
90570320,00000523,false,Tx,0,8,00,00,00,00,00,00,00,00,
90616071,00000570,false,Rx,0,8,00,00,85,00,01,00,00,00,
90681242,00000523,false,Tx,0,8,00,00,00,00,00,00,00,00,
90716071,00000570,false,Rx,0,8,00,00,85,00,00,00,00,00,
90813408,00000523,false,Tx,0,8,00,00,00,00,00,00,00,10,
90816311,00000570,false,Rx,0,8,00,00,85,00,01,00,00,00,
90900193,00000523,false,Tx,0,8,00,00,00,00,00,00,00,00,
90916062,00000570,false,Rx,0,8,00,00,85,00,03,00,00,00,
91021344,00000523,false,Tx,0,8,00,00,00,00,00,00,00,10,
91016239,00000570,false,Rx,0,8,00,00,85,00,00,00,00,00,
91120030,00000523,false,Tx,0,8,00,00,00,00,00,00,00,10,
91116331,00000570,false,Rx,0,8,00,05,85,00,09,01,00,00,
91235738,00000523,false,Tx,0,8,00,00,00,00,00,00,00,10,
91216331,00000570,false,Rx,0,8,00,1C,85,00,12,04,00,00,
91316332,00000570,false,Rx,0,8,00,35,85,00,1F,07,00,00,
91352220,00000523,false,Tx,0,8,00,00,00,00,00,00,00,00,
91416322,00000570,false,Rx,0,8,00,62,85,00,2A,0A,00,00,
91463250,00000523,false,Tx,0,8,00,00,00,00,00,00,00,10,
91516304,00000570,false,Rx,0,8,00,6A,85,00,2F,0B,00,00,
91562493,00000523,false,Tx,0,8,00,00,00,00,00,00,00,00,
91616311,00000570,false,Rx,0,8,00,6B,85,00,30,0B,00,00,
91671287,00000523,false,Tx,0,8,00,00,00,00,00,00,00,10,
91716467,00000570,false,Rx,0,8,00,63,85,00,2D,0B,00,00,
91798368,00000523,false,Tx,0,8,00,00,00,00,00,00,00,10,
91816466,00000570,false,Rx,0,8,00,55,85,00,26,0A,00,00,
91880939,00000523,false,Tx,0,8,00,00,00,00,00,00,00,00,
91916509,00000570,false,Rx,0,8,00,54,85,00,24,09,00,00,
92019054,00000523,false,Tx,0,8,00,00,00,00,00,00,00,10,
92016449,00000570,false,Rx,0,8,00,49,85,00,20,07,00,00,
92106305,00000523,false,Tx,0,8,00,00,00,00,00,00,00,00,
92116494,00000570,false,Rx,0,8,00,49,85,00,1D,06,00,00,
92220573,00000523,false,Tx,0,8,00,00,00,00,00,00,00,00,
92216494,00000570,false,Rx,0,8,00,4D,85,00,1F,06,00,00,
92323930,00000523,false,Tx,0,8,00,00,00,00,00,00,00,00,
92316482,00000570,false,Rx,0,8,00,3B,85,00,1A,05,00,00,
92433780,00000523,false,Tx,0,8,00,00,00,00,00,00,00,00,
92416482,00000570,false,Rx,0,8,00,27,85,00,11,04,00,00,
92516124,00000570,false,Rx,0,8,00,03,85,00,01,00,00,00,
92547083,00000523,false,Tx,0,8,00,00,00,00,00,00,00,00,
92616114,00000570,false,Rx,0,8,00,00,85,00,00,00,00,00,
92654202,00000523,false,Tx,0,8,00,00,00,00,00,00,00,10,
92716394,00000570,false,Rx,0,8,00,00,85,00,06,01,00,00,
92763967,00000523,false,Tx,0,8,00,00,00,00,00,00,00,10,
92816342,00000570,false,Rx,0,8,00,13,85,00,0F,03,00,00,
92877048,00000523,false,Tx,0,8,00,00,00,00,00,00,00,10,
92916332,00000570,false,Rx,0,8,00,2D,85,00,1A,06,00,00,
92988523,00000523,false,Tx,0,8,00,00,00,00,00,00,00,10,
93016326,00000570,false,Rx,0,8,00,57,85,00,28,0A,00,00,
93104609,00000523,false,Tx,0,8,00,00,00,00,00,00,00,10,
93116370,00000570,false,Rx,0,8,00,69,85,00,2E,0A,00,00,
93222156,00000523,false,Tx,0,8,00,00,00,00,00,00,00,10,
93216538,00000570,false,Rx,0,8,00,6B,85,00,30,0B,00,00,
93316361,00000523,false,Tx,0,8,00,00,00,00,00,00,00,00,
93316529,00000570,false,Rx,0,8,00,5D,85,00,2B,0B,00,00,
93434644,00000523,false,Tx,0,8,00,00,00,00,00,00,00,00,
93416570,00000570,false,Rx,0,8,00,4C,85,00,22,09,00,00,
93516518,00000570,false,Rx,0,8,00,3A,85,00,1A,07,00,00,
93547052,00000523,false,Tx,0,8,00,00,00,00,00,00,00,10,
93616467,00000570,false,Rx,0,8,00,2F,85,00,14,05,00,00,
93655507,00000523,false,Tx,0,8,00,00,00,00,00,00,00,00,
93716509,00000570,false,Rx,0,8,00,49,85,00,1A,05,00,00,
93763130,00000523,false,Tx,0,8,00,00,00,00,00,00,00,10,
93816550,00000570,false,Rx,0,8,00,46,85,00,1C,04,00,00,
93873042,00000523,false,Tx,0,8,00,00,00,00,00,00,00,00,
93916550,00000570,false,Rx,0,8,00,50,85,00,20,05,00,00,
93993725,00000523,false,Tx,0,8,00,00,00,00,00,00,00,00,
94016544,00000570,false,Rx,0,8,00,45,85,00,1D,04,00,00,
94102355,00000523,false,Tx,0,8,00,00,00,00,00,00,00,10,
94116487,00000570,false,Rx,0,8,00,31,85,00,16,03,00,00,
94221098,00000523,false,Tx,0,8,00,00,00,00,00,00,00,10,
94216529,00000570,false,Rx,0,8,00,3E,85,00,17,03,00,00,
94320347,00000523,false,Tx,0,8,00,00,00,00,00,00,00,00,
94316529,00000570,false,Rx,0,8,00,53,85,00,1F,04,00,00,
94416581,00000570,false,Rx,0,8,00,4D,85,00,20,04,00,00,
94438273,00000523,false,Tx,0,8,00,00,00,00,00,00,00,10,
94516565,00000570,false,Rx,0,8,00,46,85,00,1D,04,00,00,
94540220,00000523,false,Tx,0,8,00,00,00,00,00,00,00,00,
94616567,00000570,false,Rx,0,8,00,4E,85,00,1F,04,00,00,
94651412,00000523,false,Tx,0,8,00,00,00,00,00,00,00,00,
94716609,00000570,false,Rx,0,8,00,3D,85,00,1A,04,00,00,
94763113,00000523,false,Tx,0,8,00,00,00,00,00,00,00,10,
94816546,00000570,false,Rx,0,8,00,2F,85,00,14,03,00,00,
94876002,00000523,false,Tx,0,8,00,00,00,00,00,00,00,00,
94916545,00000570,false,Rx,0,8,00,4A,85,00,1A,03,00,00,
94987045,00000523,false,Tx,0,8,00,00,00,00,00,00,00,10,
95016535,00000570,false,Rx,0,8,00,47,85,00,1D,03,00,00,
95087013,00000523,false,Tx,0,8,00,00,00,00,00,00,00,10,
95116587,00000570,false,Rx,0,8,00,4E,85,00,1F,04,00,00,
95218208,00000523,false,Tx,0,8,00,00,00,00,00,00,00,00,
95216577,00000570,false,Rx,0,8,00,54,85,00,22,04,00,00,
95314047,00000523,false,Tx,0,8,00,00,00,00,00,00,00,00,
95316629,00000570,false,Rx,0,8,00,4C,85,00,20,04,00,00,
95419348,00000523,false,Tx,0,8,00,00,00,00,00,00,00,10,
95416568,00000570,false,Rx,0,8,00,3A,85,00,19,04,00,00,
95523172,00000523,false,Tx,0,8,00,00,00,00,00,00,00,10,
95516509,00000570,false,Rx,0,8,00,3B,85,00,17,03,00,00,
95632396,00000523,false,Tx,0,8,00,00,00,00,00,00,00,10,
95616550,00000570,false,Rx,0,8,00,52,85,00,1F,04,00,00,
95716550,00000570,false,Rx,0,8,00,54,85,00,22,04,00,00,
95751169,00000523,false,Tx,0,8,00,00,00,00,00,00,00,10,
95816540,00000570,false,Rx,0,8,00,54,85,00,23,05,00,00,
95854874,00000523,false,Tx,0,8,00,00,00,00,00,00,00,10,
95916582,00000570,false,Rx,0,8,00,54,85,00,23,05,00,00,
95969628,00000523,false,Tx,0,8,00,00,00,00,00,00,00,10,
96016576,00000570,false,Rx,0,8,00,54,85,00,23,05,00,00,
96065783,00000523,false,Tx,0,8,00,00,00,00,00,00,00,10,
96116576,00000570,false,Rx,0,8,00,54,85,00,23,06,00,00,
96185108,00000523,false,Tx,0,8,00,00,00,00,00,00,00,10,
96216566,00000570,false,Rx,0,8,00,54,85,00,23,06,00,00,
96294364,00000523,false,Tx,0,8,00,00,00,00,00,00,00,10,
96316555,00000570,false,Rx,0,8,00,54,85,00,23,06,00,00,
96398189,00000523,false,Tx,0,8,00,00,00,00,00,00,00,10,
96416556,00000570,false,Rx,0,8,00,54,85,00,23,06,00,00,
96528089,00000523,false,Tx,0,8,00,00,00,00,00,00,00,10,
96516602,00000570,false,Rx,0,8,00,54,85,00,23,06,00,00,
96618929,00000523,false,Tx,0,8,00,00,00,00,00,00,00,10,
96616550,00000570,false,Rx,0,8,00,54,85,00,23,06,00,00,
96729677,00000523,false,Tx,0,8,00,00,00,00,00,00,00,10,
96716592,00000570,false,Rx,0,8,00,54,85,00,23,06,00,00,
96816581,00000570,false,Rx,0,8,00,54,85,00,23,06,00,00,
96838079,00000523,false,Tx,0,8,00,00,00,00,00,00,00,10,
96916571,00000570,false,Rx,0,8,00,54,85,00,23,06,00,00,
96944631,00000523,false,Tx,0,8,00,00,00,00,00,00,00,10,
97016576,00000570,false,Rx,0,8,00,54,85,00,23,06,00,00,
97057911,00000523,false,Tx,0,8,00,00,00,00,00,00,00,10,
97116618,00000570,false,Rx,0,8,00,54,85,00,23,06,00,00,
97176893,00000523,false,Tx,0,8,00,00,00,00,00,00,00,10,
97216618,00000570,false,Rx,0,8,00,53,85,00,23,06,00,00,
97276386,00000523,false,Tx,0,8,00,00,00,00,00,00,00,10,
97316609,00000570,false,Rx,0,8,00,54,85,00,23,06,00,00,
97384628,00000523,false,Tx,0,8,00,00,00,00,00,00,00,10,
97416608,00000570,false,Rx,0,8,00,53,85,00,23,06,00,00,
97516080,00000523,false,Tx,0,8,00,00,00,00,00,00,00,10,
97516591,00000570,false,Rx,0,8,00,54,85,00,23,06,00,00,
97609531,00000523,false,Tx,0,8,00,00,00,00,00,00,00,10,
97616592,00000570,false,Rx,0,8,00,54,85,00,23,06,00,00,
97721832,00000523,false,Tx,0,8,00,00,00,00,00,00,00,10,
97716591,00000570,false,Rx,0,8,00,53,85,00,23,06,00,00,
97831255,00000523,false,Tx,0,8,00,00,00,00,00,00,00,10,
97816633,00000570,false,Rx,0,8,00,53,85,00,23,06,00,00,
97916633,00000570,false,Rx,0,8,00,53,85,00,23,06,00,00,
97942588,00000523,false,Tx,0,8,00,00,00,00,00,00,00,10,
98016571,00000570,false,Rx,0,8,00,53,85,00,23,06,00,00,
98049036,00000523,false,Tx,0,8,00,00,00,00,00,00,00,10,
98116612,00000570,false,Rx,0,8,00,54,85,00,23,06,00,00,
98154213,00000523,false,Tx,0,8,00,00,00,00,00,00,00,10,
98216612,00000570,false,Rx,0,8,00,54,85,00,23,06,00,00,
98295337,00000523,false,Tx,0,8,00,00,00,00,00,00,00,10,
98316602,00000570,false,Rx,0,8,00,54,85,00,23,06,00,00,
98377991,00000523,false,Tx,0,8,00,00,00,00,00,00,00,10,
98416654,00000570,false,Rx,0,8,00,54,85,00,23,06,00,00,
98483159,00000523,false,Tx,0,8,00,00,00,00,00,00,00,10,
98516648,00000570,false,Rx,0,8,00,54,85,00,23,06,00,00,
98597731,00000523,false,Tx,0,8,00,00,00,00,00,00,00,10,
98616638,00000570,false,Rx,0,8,00,54,85,00,23,06,00,00,
98695026,00000523,false,Tx,0,8,00,00,00,00,00,00,00,10,
98716629,00000570,false,Rx,0,8,00,53,85,00,23,06,00,00,
98802635,00000523,false,Tx,0,8,00,00,00,00,00,00,00,10,
98816629,00000570,false,Rx,0,8,00,53,85,00,23,06,00,00,
98921668,00000523,false,Tx,0,8,00,00,00,00,00,00,00,10,
98916618,00000570,false,Rx,0,8,00,53,85,00,23,06,00,00,
99016674,00000570,false,Rx,0,8,00,53,85,00,23,06,00,00,
99047258,00000523,false,Tx,0,8,00,00,00,00,00,00,00,10,
99116612,00000570,false,Rx,0,8,00,54,85,00,23,06,00,00,
99141007,00000523,false,Tx,0,8,00,00,00,00,00,00,00,10,
99216654,00000570,false,Rx,0,8,00,54,85,00,23,06,00,00,
99262558,00000523,false,Tx,0,8,00,00,00,00,00,00,00,10,
99316654,00000570,false,Rx,0,8,00,54,85,00,23,06,00,00,
99347679,00000523,false,Tx,0,8,00,00,00,00,00,00,00,10,
99416592,00000570,false,Rx,0,8,00,54,85,00,23,06,00,00,
99471567,00000523,false,Tx,0,8,00,00,00,00,00,00,00,10,
99516638,00000570,false,Rx,0,8,00,54,85,00,23,06,00,00,
99577835,00000523,false,Tx,0,8,00,00,00,00,00,00,00,10,
99616628,00000570,false,Rx,0,8,00,53,85,00,23,06,00,00,
99695210,00000523,false,Tx,0,8,00,00,00,00,00,00,00,10,
99716629,00000570,false,Rx,0,8,00,54,85,00,23,06,00,00,
99816670,00000570,false,Rx,0,8,00,54,85,00,23,06,00,00,
99838436,00000523,false,Tx,0,8,00,00,00,00,00,00,00,10,
99922596,00000523,false,Tx,0,8,00,00,00,00,00,00,00,10,
99916670,00000570,false,Rx,0,8,00,54,85,00,23,06,00,00,
100016653,00000570,false,Rx,0,8,00,54,85,00,23,06,00,00,
100049965,00000523,false,Tx,0,8,00,00,00,00,00,00,00,10,
100134469,00000523,false,Tx,0,8,00,00,00,00,00,00,00,10,
100116653,00000570,false,Rx,0,8,00,54,85,00,23,06,00,00,
100216592,00000570,false,Rx,0,8,00,54,85,00,23,06,00,00,
100249965,00000523,false,Tx,0,8,00,00,00,00,00,00,00,10,
100316644,00000570,false,Rx,0,8,00,54,85,00,23,06,00,00,
100359407,00000523,false,Tx,0,8,00,00,00,00,00,00,00,10,
100416695,00000570,false,Rx,0,8,00,54,85,00,23,06,00,00,
100472767,00000523,false,Tx,0,8,00,00,00,00,00,00,00,10,
100516676,00000570,false,Rx,0,8,00,54,85,00,23,06,00,00,
100579345,00000523,false,Tx,0,8,00,00,00,00,00,00,00,10,
100616632,00000570,false,Rx,0,8,00,54,85,00,23,06,00,00,
100716641,00000523,false,Tx,0,8,00,00,00,00,00,00,00,10,
100716674,00000570,false,Rx,0,8,00,54,85,00,23,06,00,00,
100789590,00000523,false,Tx,0,8,00,00,00,00,00,00,00,10,
100816664,00000570,false,Rx,0,8,00,54,85,00,23,06,00,00,
100905669,00000523,false,Tx,0,8,00,00,00,00,00,00,00,10,
100916664,00000570,false,Rx,0,8,00,53,85,00,23,06,00,00,
101030577,00000523,false,Tx,0,8,00,00,00,00,00,00,00,10,
101016708,00000570,false,Rx,0,8,00,53,85,00,23,06,00,00,
101113203,00000523,false,Tx,0,8,00,00,00,00,00,00,00,10,
101116696,00000570,false,Rx,0,8,00,53,85,00,23,06,00,00,
101231410,00000523,false,Tx,0,8,00,00,00,00,00,00,00,10,
101216695,00000570,false,Rx,0,8,00,53,85,00,23,06,00,00,
101316685,00000570,false,Rx,0,8,00,53,85,00,23,06,00,00,
101341800,00000523,false,Tx,0,8,00,00,00,00,00,00,00,10,
101416684,00000570,false,Rx,0,8,00,53,85,00,23,06,00,00,
101444314,00000523,false,Tx,0,8,00,00,00,00,00,00,00,10,
101516678,00000570,false,Rx,0,8,00,53,85,00,23,06,00,00,
101562479,00000523,false,Tx,0,8,00,00,00,00,00,00,00,10,
101616675,00000570,false,Rx,0,8,00,53,85,00,23,06,00,00,
101679317,00000523,false,Tx,0,8,00,00,00,00,00,00,00,10,
101716716,00000570,false,Rx,0,8,00,53,85,00,23,06,00,00,
101791101,00000523,false,Tx,0,8,00,00,00,00,00,00,00,10,
101816716,00000570,false,Rx,0,8,00,53,85,00,23,06,00,00,
101884986,00000523,false,Tx,0,8,00,00,00,00,00,00,00,10,
101916705,00000570,false,Rx,0,8,00,53,85,00,23,06,00,00,
101996080,00000523,false,Tx,0,8,00,00,00,00,00,00,00,10,
102016699,00000570,false,Rx,0,8,00,54,85,00,23,06,00,00,
102097799,00000523,false,Tx,0,8,00,00,00,00,00,00,00,10,
102116701,00000570,false,Rx,0,8,00,53,85,00,23,06,00,00,
102214534,00000523,false,Tx,0,8,00,00,00,00,00,00,00,10,
102216691,00000570,false,Rx,0,8,00,53,85,00,23,06,00,00,
102320273,00000523,false,Tx,0,8,00,00,00,00,00,00,00,10,
102316732,00000570,false,Rx,0,8,00,53,85,00,23,06,00,00,
102428141,00000523,false,Tx,0,8,00,00,00,00,00,00,00,10,
102416732,00000570,false,Rx,0,8,00,53,85,00,23,06,00,00,
102516727,00000570,false,Rx,0,8,00,54,85,00,23,06,00,00,
102547129,00000523,false,Tx,0,8,00,00,00,00,00,00,00,10,
102616716,00000570,false,Rx,0,8,00,54,85,00,23,06,00,00,
102650615,00000523,false,Tx,0,8,00,00,00,00,00,00,00,10,
102716716,00000570,false,Rx,0,8,00,54,85,00,23,06,00,00,
102764827,00000523,false,Tx,0,8,00,00,00,00,00,00,00,10,
102816654,00000570,false,Rx,0,8,00,54,85,00,23,06,00,00,
102865012,00000523,false,Tx,0,8,00,00,00,00,00,00,00,10,
102916705,00000570,false,Rx,0,8,00,54,85,00,23,06,00,00,
102978947,00000523,false,Tx,0,8,00,00,00,00,00,00,00,10,
103016751,00000570,false,Rx,0,8,00,54,85,00,23,06,00,00,
103083755,00000523,false,Tx,0,8,00,00,00,00,00,00,00,10,
103116690,00000570,false,Rx,0,8,00,54,85,00,23,06,00,00,
103197799,00000523,false,Tx,0,8,00,00,00,00,00,00,00,10,
103216735,00000570,false,Rx,0,8,00,54,85,00,23,06,00,00,
103306037,00000523,false,Tx,0,8,00,00,00,00,00,00,00,10,
103316726,00000570,false,Rx,0,8,00,54,85,00,23,06,00,00,
103423389,00000523,false,Tx,0,8,00,00,00,00,00,00,00,10,
103416726,00000570,false,Rx,0,8,00,54,85,00,23,06,00,00,
103516717,00000570,false,Rx,0,8,00,54,85,00,23,06,00,00,
103572973,00000523,false,Tx,0,8,00,00,00,00,00,00,00,10,
103616716,00000570,false,Rx,0,8,00,54,85,00,23,06,00,00,
103646636,00000523,false,Tx,0,8,00,00,00,00,00,00,00,10,
103716705,00000570,false,Rx,0,8,00,54,85,00,23,06,00,00,
103744827,00000523,false,Tx,0,8,00,00,00,00,00,00,00,10,
103816746,00000570,false,Rx,0,8,00,54,85,00,23,06,00,00,
103849834,00000523,false,Tx,0,8,00,00,00,00,00,00,00,10,
103916746,00000570,false,Rx,0,8,00,54,85,00,23,06,00,00,
103969076,00000523,false,Tx,0,8,00,00,00,00,00,00,00,10,
104016741,00000570,false,Rx,0,8,00,54,85,00,23,06,00,00,
104091896,00000523,false,Tx,0,8,00,00,00,00,00,00,00,10,
104116681,00000570,false,Rx,0,8,00,54,85,00,23,06,00,00,
104192733,00000523,false,Tx,0,8,00,00,00,00,00,00,00,10,
104216732,00000570,false,Rx,0,8,00,54,85,00,23,06,00,00,
104292439,00000523,false,Tx,0,8,00,00,00,00,00,00,00,10,
104316773,00000570,false,Rx,0,8,00,54,85,00,23,06,00,00,
104393964,00000523,false,Tx,0,8,00,00,00,00,00,00,00,10,
104416764,00000570,false,Rx,0,8,00,54,85,00,23,06,00,00,
104507875,00000523,false,Tx,0,8,00,00,00,00,00,00,00,10,
104516766,00000570,false,Rx,0,8,00,54,85,00,23,06,00,00,
104616323,00000523,false,Tx,0,8,00,00,00,00,00,00,00,10,
104616701,00000570,false,Rx,0,8,00,54,85,00,23,06,00,00,
104736995,00000523,false,Tx,0,8,00,00,00,00,00,00,00,10,
104716753,00000570,false,Rx,0,8,00,54,85,00,23,06,00,00,
104831226,00000523,false,Tx,0,8,00,00,00,00,00,00,00,10,
104816743,00000570,false,Rx,0,8,00,54,85,00,23,06,00,00,
104916745,00000570,false,Rx,0,8,00,54,85,00,23,06,00,00,
104953452,00000523,false,Tx,0,8,00,00,00,00,00,00,00,10,
105016788,00000570,false,Rx,0,8,00,54,85,00,23,06,00,00,
105092089,00000523,false,Tx,0,8,00,00,00,00,00,00,00,10,
105116726,00000570,false,Rx,0,8,00,54,85,00,23,06,00,00,
105184782,00000523,false,Tx,0,8,00,00,00,00,00,00,00,10,
105216777,00000570,false,Rx,0,8,00,54,85,00,23,06,00,00,
105292623,00000523,false,Tx,0,8,00,00,00,00,00,00,00,10,
105316767,00000570,false,Rx,0,8,00,54,85,00,23,06,00,00,
105405369,00000523,false,Tx,0,8,00,00,00,00,00,00,00,10,
105416758,00000570,false,Rx,0,8,00,54,85,00,23,06,00,00,
105516760,00000570,false,Rx,0,8,00,54,85,00,23,06,00,00,
105540394,00000523,false,Tx,0,8,00,00,00,00,00,00,00,10,
105616441,00000523,false,Tx,0,8,00,00,00,00,00,00,00,10,
105616804,00000570,false,Rx,0,8,00,54,85,00,23,06,00,00,
105716797,00000570,false,Rx,0,8,00,54,85,00,23,06,00,00,
105739023,00000523,false,Tx,0,8,00,00,00,00,00,00,00,10,
105832445,00000523,false,Tx,0,8,00,00,00,00,00,00,00,10,
105816746,00000570,false,Rx,0,8,00,54,85,00,23,06,00,00,
105916789,00000570,false,Rx,0,8,00,54,85,00,23,06,00,00,
105952123,00000523,false,Tx,0,8,00,00,00,00,00,00,00,10,
106016780,00000570,false,Rx,0,8,00,54,85,00,23,06,00,00,
106071993,00000523,false,Tx,0,8,00,00,00,00,00,00,00,10,
106116768,00000570,false,Rx,0,8,00,54,85,00,23,06,00,00,
106171434,00000523,false,Tx,0,8,00,00,00,00,00,00,00,10,
106216819,00000570,false,Rx,0,8,00,54,85,00,23,06,00,00,
106294318,00000523,false,Tx,0,8,00,00,00,00,00,00,00,10,
106316767,00000570,false,Rx,0,8,00,54,85,00,23,06,00,00,
106387428,00000523,false,Tx,0,8,00,00,00,00,00,00,00,10,
106416809,00000570,false,Rx,0,8,00,54,85,00,23,06,00,00,
106506984,00000523,false,Tx,0,8,00,00,00,00,00,00,00,10,
106516808,00000570,false,Rx,0,8,00,54,85,00,23,06,00,00,
106625155,00000523,false,Tx,0,8,00,00,00,00,00,00,00,10,
106616746,00000570,false,Rx,0,8,00,54,85,00,23,06,00,00,
106716736,00000570,false,Rx,0,8,00,54,85,00,23,06,00,00,
106742681,00000523,false,Tx,0,8,00,00,00,00,00,00,00,10,
106834285,00000523,false,Tx,0,8,00,00,00,00,00,00,00,10,
106816789,00000570,false,Rx,0,8,00,54,85,00,23,06,00,00,
106916830,00000570,false,Rx,0,8,00,54,85,00,23,06,00,00,
106944859,00000523,false,Tx,0,8,00,00,00,00,00,00,00,10,
107016824,00000570,false,Rx,0,8,00,54,85,00,23,06,00,00,
107090749,00000523,false,Tx,0,8,00,00,00,00,00,00,00,10,
107116815,00000570,false,Rx,0,8,00,54,85,00,23,06,00,00,
107175041,00000523,false,Tx,0,8,00,00,00,00,00,00,00,10,
107216815,00000570,false,Rx,0,8,00,54,85,00,23,06,00,00,
107285374,00000523,false,Tx,0,8,00,00,00,00,00,00,00,10,
107316807,00000570,false,Rx,0,8,00,54,85,00,23,06,00,00,
107398847,00000523,false,Tx,0,8,00,00,00,00,00,00,00,10,
107416754,00000570,false,Rx,0,8,00,54,85,00,23,06,00,00,
107504486,00000523,false,Tx,0,8,00,00,00,00,00,00,00,10,
107516803,00000570,false,Rx,0,8,00,54,85,00,23,06,00,00,
107596791,00000523,false,Tx,0,8,00,00,00,00,00,00,00,10,
107616845,00000570,false,Rx,0,8,00,54,85,00,23,06,00,00,
107726726,00000523,false,Tx,0,8,00,00,00,00,00,00,00,10,
107716838,00000570,false,Rx,0,8,00,54,85,00,23,06,00,00,
107816835,00000570,false,Rx,0,8,00,54,85,00,23,06,00,00,
107857432,00000523,false,Tx,0,8,00,00,00,00,00,00,00,10,
107916773,00000570,false,Rx,0,8,00,54,85,00,23,06,00,00,
107944408,00000523,false,Tx,0,8,00,00,00,00,00,00,00,10,
108016818,00000570,false,Rx,0,8,00,54,85,00,23,06,00,00,
108044963,00000523,false,Tx,0,8,00,00,00,00,00,00,00,10,
108116819,00000570,false,Rx,0,8,00,54,85,00,23,06,00,00,
108158898,00000523,false,Tx,0,8,00,00,00,00,00,00,00,10,
108216862,00000570,false,Rx,0,8,00,54,85,00,23,06,00,00,
108268424,00000523,false,Tx,0,8,00,00,00,00,00,00,00,10,
108316861,00000570,false,Rx,0,8,00,54,85,00,23,06,00,00,
108375099,00000523,false,Tx,0,8,00,00,00,00,00,00,00,10,
108416799,00000570,false,Rx,0,8,00,54,85,00,23,06,00,00,
108491596,00000523,false,Tx,0,8,00,00,00,00,00,00,00,10,
