Time Stamp,ID,Extended,Dir,Bus,LEN,D1,D2,D3,D4,D5,D6,D7,D8
178570141,00000570,false,Rx,0,8,00,00,85,00,00,00,00,00,
178670859,00000570,false,Rx,0,8,00,00,85,00,00,00,00,00,
178770881,00000570,false,Rx,0,8,00,00,85,00,00,00,00,00,
178870872,00000570,false,Rx,0,8,00,00,85,00,00,00,00,00,
178970861,00000570,false,Rx,0,8,00,00,85,00,00,00,00,00,
179070855,00000570,false,Rx,0,8,00,00,85,00,00,00,00,00,
179170856,00000570,false,Rx,0,8,00,00,85,00,00,00,00,00,
179270856,00000570,false,Rx,0,8,00,00,85,00,00,00,00,00,
179370882,00000570,false,Rx,0,8,00,00,85,00,00,00,00,00,
179470882,00000570,false,Rx,0,8,00,00,85,00,00,00,00,00,
179570872,00000570,false,Rx,0,8,00,00,85,00,00,00,00,00,
179670861,00000570,false,Rx,0,8,00,00,85,00,00,00,00,00,
179770862,00000570,false,Rx,0,8,00,00,85,00,00,00,00,00,
179870862,00000570,false,Rx,0,8,00,00,85,00,00,00,00,00,
179970862,00000570,false,Rx,0,8,00,00,85,00,00,00,00,00,
180070885,00000570,false,Rx,0,8,00,00,85,00,00,00,00,00,
180170882,00000570,false,Rx,0,8,00,00,85,00,00,00,00,00,
180270872,00000570,false,Rx,0,8,00,00,85,00,00,00,00,00,
180370872,00000570,false,Rx,0,8,00,00,85,00,00,00,00,00,
180470872,00000570,false,Rx,0,8,00,00,85,00,00,00,00,00,
180570876,00000570,false,Rx,0,8,00,00,85,00,00,00,00,00,
180671146,00000570,false,Rx,0,8,00,00,85,00,00,00,00,00,
180771125,00000570,false,Rx,0,8,00,02,85,00,09,01,00,00,
180871128,00000570,false,Rx,0,8,00,09,85,00,0D,03,00,00,
180971119,00000570,false,Rx,0,8,00,0F,85,00,0F,04,00,00,
181071104,00000570,false,Rx,0,8,00,16,85,00,12,06,00,00,
181171095,00000570,false,Rx,0,8,00,1D,85,00,15,07,00,00,
181271094,00000570,false,Rx,0,8,00,26,85,00,18,09,00,00,
181371140,00000570,false,Rx,0,8,00,3F,85,00,1A,08,00,00,
181471130,00000570,false,Rx,0,8,00,40,85,00,1A,06,00,00,
181571291,00000570,false,Rx,0,8,00,40,85,00,1A,05,00,00,
181671281,00000570,false,Rx,0,8,00,4D,85,00,1E,05,00,00,
181771282,00000570,false,Rx,0,8,00,60,85,00,27,06,00,00,
181871265,00000570,false,Rx,0,8,00,6C,85,00,2F,09,00,00,
181971256,00000570,false,Rx,0,8,00,74,85,00,35,0B,00,00,
182071312,00000570,false,Rx,0,8,00,7B,85,00,3A,0F,00,00,
182171302,00000570,false,Rx,0,8,00,80,85,00,3F,12,00,00,
182271282,00000570,false,Rx,0,8,00,85,85,00,42,15,00,00,
182371272,00000570,false,Rx,0,8,00,8A,85,00,46,18,00,00,
182471272,00000570,false,Rx,0,8,00,8D,85,00,49,1B,00,00,
182571274,00000570,false,Rx,0,8,00,8F,85,00,4B,1E,00,00,
182671306,00000570,false,Rx,0,8,00,92,85,00,4D,20,00,00,
182771306,00000570,false,Rx,0,8,00,94,85,00,4F,23,00,00,
182871298,00000570,false,Rx,0,8,00,95,85,00,51,25,00,00,
182971339,00000570,false,Rx,0,8,00,8D,85,00,56,27,00,00,
183071280,00000570,false,Rx,0,8,00,48,85,00,39,23,00,00,
183170882,00000570,false,Rx,0,8,00,06,85,00,04,02,00,00,
183270892,00000570,false,Rx,0,8,00,00,85,00,00,00,00,00,
183370908,00000570,false,Rx,0,8,00,00,85,00,00,00,00,00,
183470897,00000570,false,Rx,0,8,00,00,85,00,00,00,00,00,
183570897,00000570,false,Rx,0,8,00,00,85,00,00,00,00,00,
183670888,00000570,false,Rx,0,8,00,00,85,00,00,00,00,00,
183770888,00000570,false,Rx,0,8,00,00,85,00,00,00,00,00,
183870892,00000570,false,Rx,0,8,00,00,85,00,00,00,00,00,
183970913,00000570,false,Rx,0,8,00,00,85,00,00,00,00,00,
184070913,00000570,false,Rx,0,8,00,00,85,00,00,00,00,00,
184170903,00000570,false,Rx,0,8,00,00,85,00,00,00,00,00,
184271192,00000570,false,Rx,0,8,00,00,85,00,01,00,00,00,
184371131,00000570,false,Rx,0,8,00,03,85,00,0A,02,00,00,
184471120,00000570,false,Rx,0,8,00,09,85,00,0D,03,00,00,
184571120,00000570,false,Rx,0,8,00,10,85,00,10,05,00,00,
184671213,00000570,false,Rx,0,8,00,17,85,00,12,06,00,00,
184771161,00000570,false,Rx,0,8,00,1E,85,00,16,08,00,00,
184871145,00000570,false,Rx,0,8,00,2C,85,00,19,09,00,00,
184971136,00000570,false,Rx,0,8,00,40,85,00,1A,08,00,00,
185071126,00000570,false,Rx,0,8,00,41,85,00,1A,06,00,00,
185171295,00000570,false,Rx,0,8,00,41,85,00,1A,05,00,00,
185271339,00000570,false,Rx,0,8,00,50,85,00,1F,05,00,00,
185371322,00000570,false,Rx,0,8,00,62,85,00,28,07,00,00,
185471318,00000570,false,Rx,0,8,00,6D,85,00,30,09,00,00,
185571318,00000570,false,Rx,0,8,00,75,85,00,36,0C,00,00,
185671302,00000570,false,Rx,0,8,00,7C,85,00,3B,0F,00,00,
185771292,00000570,false,Rx,0,8,00,81,85,00,3F,12,00,00,
185871292,00000570,false,Rx,0,8,00,85,85,00,43,15,00,00,
185971337,00000570,false,Rx,0,8,00,89,85,00,46,18,00,00,
186071328,00000570,false,Rx,0,8,00,8C,85,00,49,1B,00,00,
186171311,00000570,false,Rx,0,8,00,8E,85,00,4B,1E,00,00,
186271313,00000570,false,Rx,0,8,00,91,85,00,4D,21,00,00,
186371303,00000570,false,Rx,0,8,00,93,85,00,4F,23,00,00,
186471349,00000570,false,Rx,0,8,00,93,85,00,51,25,00,00,
186571400,00000570,false,Rx,0,8,00,85,85,00,57,27,00,00,
186670935,00000570,false,Rx,0,8,00,28,85,00,20,10,00,00,
186770923,00000570,false,Rx,0,8,00,02,85,00,02,00,00,00,
186870912,00000570,false,Rx,0,8,00,00,85,00,00,00,00,00,
186970913,00000570,false,Rx,0,8,00,00,85,00,00,00,00,00,
187070913,00000570,false,Rx,0,8,00,00,85,00,00,00,00,00,
187170917,00000570,false,Rx,0,8,00,00,85,00,00,00,00,00,
187270944,00000570,false,Rx,0,8,00,00,85,00,00,00,00,00,
187370933,00000570,false,Rx,0,8,00,00,85,00,00,00,00,00,
187470924,00000570,false,Rx,0,8,00,00,85,00,00,00,00,00,
187570924,00000570,false,Rx,0,8,00,00,85,00,00,00,00,00,
187670928,00000570,false,Rx,0,8,00,00,85,00,00,00,00,00,
187770928,00000570,false,Rx,0,8,00,00,85,00,00,00,00,00,
187871199,00000570,false,Rx,0,8,00,00,85,00,06,00,00,00,
187971189,00000570,false,Rx,0,8,00,05,85,00,0B,02,00,00,
188071177,00000570,false,Rx,0,8,00,0C,85,00,0E,04,00,00,
188171169,00000570,false,Rx,0,8,00,13,85,00,11,05,00,00,
188271172,00000570,false,Rx,0,8,00,1A,85,00,14,07,00,00,
188371161,00000570,false,Rx,0,8,00,20,85,00,17,08,00,00,
188471151,00000570,false,Rx,0,8,00,3A,85,00,1A,09,00,00,
188571192,00000570,false,Rx,0,8,00,41,85,00,1A,07,00,00,
188671186,00000570,false,Rx,0,8,00,41,85,00,1A,06,00,00,
188771344,00000570,false,Rx,0,8,00,45,85,00,1B,05,00,00,
188871334,00000570,false,Rx,0,8,00,58,85,00,23,06,00,00,
188971328,00000570,false,Rx,0,8,00,67,85,00,2C,08,00,00,
189071317,00000570,false,Rx,0,8,00,70,85,00,33,0A,00,00,
189171322,00000570,false,Rx,0,8,00,78,85,00,38,0D,00,00,
189271365,00000570,false,Rx,0,8,00,7D,85,00,3D,10,00,00,
189371355,00000570,false,Rx,0,8,00,82,85,00,41,13,00,00,
189471355,00000570,false,Rx,0,8,00,86,85,00,44,17,00,00,
189571335,00000570,false,Rx,0,8,00,8A,85,00,47,1A,00,00,
189671325,00000570,false,Rx,0,8,00,8D,85,00,4A,1D,00,00,
189771326,00000570,false,Rx,0,8,00,8F,85,00,4C,1F,00,00,
189871368,00000570,false,Rx,0,8,00,91,85,00,4E,22,00,00,
189971369,00000570,false,Rx,0,8,00,92,85,00,50,24,00,00,
190071411,00000570,false,Rx,0,8,00,89,85,00,55,27,00,00,
190171343,00000570,false,Rx,0,8,00,51,85,00,37,21,00,00,
190271335,00000570,false,Rx,0,8,00,4B,85,00,25,1A,00,00,
190371333,00000570,false,Rx,0,8,00,4D,85,00,21,14,00,00,
190471379,00000570,false,Rx,0,8,00,4D,85,00,20,10,00,00,
190571380,00000570,false,Rx,0,8,00,4D,85,00,20,0D,00,00,
190671363,00000570,false,Rx,0,8,00,4D,85,00,20,0B,00,00,
190771354,00000570,false,Rx,0,8,00,4D,85,00,20,09,00,00,
190871354,00000570,false,Rx,0,8,00,4D,85,00,20,08,00,00,
190971338,00000570,false,Rx,0,8,00,4D,85,00,20,07,00,00,
191071339,00000570,false,Rx,0,8,00,4D,85,00,20,07,00,00,
191171384,00000570,false,Rx,0,8,00,4F,85,00,21,06,00,00,
191271369,00000570,false,Rx,0,8,00,55,85,00,23,07,00,00,
191371369,00000570,false,Rx,0,8,00,5B,85,00,27,07,00,00,
191471360,00000570,false,Rx,0,8,00,60,85,00,2A,08,00,00,
191571349,00000570,false,Rx,0,8,00,66,85,00,2D,09,00,00,
191671350,00000570,false,Rx,0,8,00,6B,85,00,30,0B,00,00,
191771338,00000570,false,Rx,0,8,00,70,85,00,34,0C,00,00,
191871380,00000570,false,Rx,0,8,00,75,85,00,37,0E,00,00,
191971371,00000570,false,Rx,0,8,00,7A,85,00,3A,11,00,00,
192071370,00000570,false,Rx,0,8,00,7F,85,00,3E,13,00,00,
192171363,00000570,false,Rx,0,8,00,83,85,00,41,16,00,00,
192271349,00000570,false,Rx,0,8,00,87,85,00,45,18,00,00,
192371338,00000570,false,Rx,0,8,00,8A,85,00,47,1B,00,00,
192471391,00000570,false,Rx,0,8,00,8C,85,00,4A,1E,00,00,
192571390,00000570,false,Rx,0,8,00,8F,85,00,4C,20,00,00,
192671374,00000570,false,Rx,0,8,00,91,85,00,4E,23,00,00,
192771374,00000570,false,Rx,0,8,00,93,85,00,50,25,00,00,
192871357,00000570,false,Rx,0,8,00,6C,85,00,46,25,00,00,
192971359,00000570,false,Rx,0,8,00,3E,85,00,25,1D,00,00,
193071359,00000570,false,Rx,0,8,00,6F,85,00,30,19,00,00,
193171394,00000570,false,Rx,0,8,00,44,85,00,22,14,00,00,
193271395,00000570,false,Rx,0,8,00,39,85,00,19,0F,00,00,
193371376,00000570,false,Rx,0,8,00,39,85,00,17,0B,00,00,
193471370,00000570,false,Rx,0,8,00,39,85,00,17,08,00,00,
193571370,00000570,false,Rx,0,8,00,39,85,00,17,07,00,00,
193671362,00000570,false,Rx,0,8,00,39,85,00,17,05,00,00,
193771400,00000570,false,Rx,0,8,00,39,85,00,17,04,00,00,
193871391,00000570,false,Rx,0,8,00,39,85,00,17,04,00,00,
193971395,00000570,false,Rx,0,8,00,3A,85,00,17,03,00,00,
194071386,00000570,false,Rx,0,8,00,3A,85,00,17,03,00,00,
194171368,00000570,false,Rx,0,8,00,40,85,00,19,03,00,00,
194271369,00000570,false,Rx,0,8,00,4C,85,00,1E,03,00,00,
194371360,00000570,false,Rx,0,8,00,55,85,00,23,04,00,00,
194471404,00000570,false,Rx,0,8,00,5D,85,00,27,06,00,00,
194571401,00000570,false,Rx,0,8,00,64,85,00,2B,07,00,00,
194671391,00000570,false,Rx,0,8,00,69,85,00,2F,09,00,00,
194771379,00000570,false,Rx,0,8,00,6F,85,00,33,0B,00,00,
194871380,00000570,false,Rx,0,8,00,74,85,00,37,0D,00,00,
194971374,00000570,false,Rx,0,8,00,7A,85,00,3A,10,00,00,
195071417,00000570,false,Rx,0,8,00,7E,85,00,3E,12,00,00,
195171460,00000570,false,Rx,0,8,00,83,85,00,42,15,00,00,
195271400,00000570,false,Rx,0,8,00,87,85,00,45,18,00,00,
195371391,00000570,false,Rx,0,8,00,8A,85,00,48,1B,00,00,
195471375,00000570,false,Rx,0,8,00,8D,85,00,4A,1E,00,00,
195571375,00000570,false,Rx,0,8,00,8F,85,00,4C,20,00,00,
195671368,00000570,false,Rx,0,8,00,92,85,00,4F,23,00,00,
195771473,00000570,false,Rx,0,8,00,93,85,00,51,25,00,00,
195871411,00000570,false,Rx,0,8,00,81,85,00,52,26,00,00,
195971400,00000570,false,Rx,0,8,00,2D,85,00,27,1F,00,00,
196071390,00000570,false,Rx,0,8,00,2E,85,00,17,16,00,00,
196171390,00000570,false,Rx,0,8,00,29,85,00,11,10,00,00,
196271381,00000570,false,Rx,0,8,00,28,85,00,0F,0C,00,00,
196371370,00000570,false,Rx,0,8,00,28,85,00,0F,09,00,00,
196471412,00000570,false,Rx,0,8,00,28,85,00,0F,06,00,00,
196571411,00000570,false,Rx,0,8,00,28,85,00,0F,05,00,00,
196671400,00000570,false,Rx,0,8,00,28,85,00,0F,03,00,00,
196771391,00000570,false,Rx,0,8,00,28,85,00,0F,03,00,00,
196871390,00000570,false,Rx,0,8,00,28,85,00,0F,02,00,00,
196971383,00000570,false,Rx,0,8,00,29,85,00,0F,02,00,00,
197071421,00000570,false,Rx,0,8,00,30,85,00,11,01,00,00,
197171433,00000570,false,Rx,0,8,00,42,85,00,18,02,00,00,
197271426,00000570,false,Rx,0,8,00,50,85,00,1F,03,00,00,
197371407,00000570,false,Rx,0,8,00,59,85,00,24,04,00,00,
197471397,00000570,false,Rx,0,8,00,60,85,00,29,06,00,00,
197571395,00000570,false,Rx,0,8,00,67,85,00,2D,08,00,00,
197671441,00000570,false,Rx,0,8,00,6D,85,00,32,0A,00,00,
197771432,00000570,false,Rx,0,8,00,74,85,00,36,0C,00,00,
197871421,00000570,false,Rx,0,8,00,79,85,00,39,0F,00,00,
197971474,00000570,false,Rx,0,8,00,7E,85,00,3D,11,00,00,
198071462,00000570,false,Rx,0,8,00,83,85,00,41,14,00,00,
198171401,00000570,false,Rx,0,8,00,87,85,00,44,17,00,00,
198271391,00000570,false,Rx,0,8,00,8A,85,00,47,1A,00,00,
198371390,00000570,false,Rx,0,8,00,8C,85,00,49,1D,00,00,
198471442,00000570,false,Rx,0,8,00,8F,85,00,4C,1F,00,00,
198571421,00000570,false,Rx,0,8,00,92,85,00,4E,22,00,00,
198671474,00000570,false,Rx,0,8,00,93,85,00,50,24,00,00,
198771464,00000570,false,Rx,0,8,00,90,85,00,53,26,00,00,
198871411,00000570,false,Rx,0,8,00,59,85,00,40,24,00,00,
198971400,00000570,false,Rx,0,8,00,39,85,00,21,1B,00,00,
199071446,00000570,false,Rx,0,8,00,4D,85,00,20,15,00,00,
199171438,00000570,false,Rx,0,8,00,4D,85,00,20,11,00,00,
199271429,00000570,false,Rx,0,8,00,4D,85,00,20,0D,00,00,
199371430,00000570,false,Rx,0,8,00,4D,85,00,20,0B,00,00,
199471409,00000570,false,Rx,0,8,00,4D,85,00,20,09,00,00,
199571411,00000570,false,Rx,0,8,00,4D,85,00,20,08,00,00,
199671453,00000570,false,Rx,0,8,00,4D,85,00,20,07,00,00,
199771456,00000570,false,Rx,0,8,00,4D,85,00,20,07,00,00,
199871442,00000570,false,Rx,0,8,00,4E,85,00,20,06,00,00,
199971441,00000570,false,Rx,0,8,00,53,85,00,23,06,00,00,
200071427,00000570,false,Rx,0,8,00,5A,85,00,26,07,00,00,
200171416,00000570,false,Rx,0,8,00,5F,85,00,29,08,00,00,
200271416,00000570,false,Rx,0,8,00,65,85,00,2C,09,00,00,
200371458,00000570,false,Rx,0,8,00,6A,85,00,30,0A,00,00,
200471447,00000570,false,Rx,0,8,00,6F,85,00,33,0C,00,00,
200571442,00000570,false,Rx,0,8,00,74,85,00,36,0E,00,00,
200671432,00000570,false,Rx,0,8,00,78,85,00,3A,10,00,00,
200771422,00000570,false,Rx,0,8,00,7D,85,00,3D,12,00,00,
200871411,00000570,false,Rx,0,8,00,82,85,00,40,15,00,00,
200971462,00000570,false,Rx,0,8,00,86,85,00,44,17,00,00,
201071453,00000570,false,Rx,0,8,00,89,85,00,47,1A,00,00,
201171442,00000570,false,Rx,0,8,00,8C,85,00,4A,1D,00,00,
201271445,00000570,false,Rx,0,8,00,8F,85,00,4C,1F,00,00,
201371431,00000570,false,Rx,0,8,00,91,85,00,4E,22,00,00,
201471431,00000570,false,Rx,0,8,00,93,85,00,50,24,00,00,
201571474,00000570,false,Rx,0,8,00,8E,85,00,54,26,00,00,
201671473,00000570,false,Rx,0,8,00,36,85,00,30,21,00,00,
201771466,00000570,false,Rx,0,8,00,30,85,00,1A,19,00,00,
201871452,00000570,false,Rx,0,8,00,2B,85,00,12,12,00,00,
201971443,00000570,false,Rx,0,8,00,28,85,00,10,0D,00,00,
202071437,00000570,false,Rx,0,8,00,28,85,00,0F,09,00,00,
202171428,00000570,false,Rx,0,8,00,28,85,00,0F,07,00,00,
202271469,00000570,false,Rx,0,8,00,28,85,00,0F,05,00,00,
202371469,00000570,false,Rx,0,8,00,28,85,00,0F,04,00,00,
202471458,00000570,false,Rx,0,8,00,28,85,00,0F,03,00,00,
202571463,00000570,false,Rx,0,8,00,29,85,00,0F,02,00,00,
202671442,00000570,false,Rx,0,8,00,29,85,00,0F,02,00,00,
202771443,00000570,false,Rx,0,8,00,2C,85,00,10,01,00,00,
202871431,00000570,false,Rx,0,8,00,3C,85,00,16,02,00,00,
202971474,00000570,false,Rx,0,8,00,4C,85,00,1D,03,00,00,
203071473,00000570,false,Rx,0,8,00,56,85,00,23,04,00,00,
203171463,00000570,false,Rx,0,8,00,5E,85,00,28,05,00,00,
203271453,00000570,false,Rx,0,8,00,65,85,00,2C,07,00,00,
203371452,00000570,false,Rx,0,8,00,6B,85,00,30,09,00,00,
203471443,00000570,false,Rx,0,8,00,71,85,00,34,0B,00,00,
203571436,00000570,false,Rx,0,8,00,76,85,00,38,0E,00,00,
203671489,00000570,false,Rx,0,8,00,7B,85,00,3C,10,00,00,
203771471,00000570,false,Rx,0,8,00,81,85,00,3F,13,00,00,
203871463,00000570,false,Rx,0,8,00,85,85,00,43,16,00,00,
203971453,00000570,false,Rx,0,8,00,89,85,00,46,19,00,00,
204071446,00000570,false,Rx,0,8,00,8B,85,00,49,1C,00,00,
204171442,00000570,false,Rx,0,8,00,8E,85,00,4B,1E,00,00,
204271486,00000570,false,Rx,0,8,00,90,85,00,4D,21,00,00,
204371484,00000570,false,Rx,0,8,00,92,85,00,4F,23,00,00,
204471535,00000570,false,Rx,0,8,00,8F,85,00,53,26,00,00,
204571468,00000570,false,Rx,0,8,00,4C,85,00,3B,23,00,00,
204671459,00000570,false,Rx,0,8,00,37,85,00,1F,1A,00,00,
204771457,00000570,false,Rx,0,8,00,39,85,00,18,14,00,00,
204871451,00000570,false,Rx,0,8,00,38,85,00,17,0E,00,00,
204971494,00000570,false,Rx,0,8,00,38,85,00,16,0B,00,00,
205071493,00000570,false,Rx,0,8,00,38,85,00,16,08,00,00,
205171473,00000570,false,Rx,0,8,00,38,85,00,16,06,00,00,
205271472,00000570,false,Rx,0,8,00,38,85,00,16,05,00,00,
205371463,00000570,false,Rx,0,8,00,38,85,00,16,04,00,00,
205471453,00000570,false,Rx,0,8,00,38,85,00,16,04,00,00,
205571508,00000570,false,Rx,0,8,00,38,85,00,16,03,00,00,
205671499,00000570,false,Rx,0,8,00,3A,85,00,17,03,00,00,
205771488,00000570,false,Rx,0,8,00,44,85,00,1A,03,00,00,
205871490,00000570,false,Rx,0,8,00,50,85,00,20,04,00,00,
205971469,00000570,false,Rx,0,8,00,58,85,00,24,05,00,00,
206071471,00000570,false,Rx,0,8,00,60,85,00,29,06,00,00,
206171514,00000570,false,Rx,0,8,00,66,85,00,2D,08,00,00,
206271505,00000570,false,Rx,0,8,00,6C,85,00,31,0A,00,00,
206371497,00000570,false,Rx,0,8,00,71,85,00,34,0C,00,00,
206471499,00000570,false,Rx,0,8,00,77,85,00,38,0E,00,00,
206571489,00000570,false,Rx,0,8,00,7C,85,00,3C,11,00,00,
206671481,00000570,false,Rx,0,8,00,81,85,00,40,13,00,00,
206771463,00000570,false,Rx,0,8,00,85,85,00,43,16,00,00,
206871509,00000570,false,Rx,0,8,00,88,85,00,46,19,00,00,
206971510,00000570,false,Rx,0,8,00,8B,85,00,49,1C,00,00,
207071498,00000570,false,Rx,0,8,00,8E,85,00,4B,1F,00,00,
207171492,00000570,false,Rx,0,8,00,91,85,00,4D,21,00,00,
207271484,00000570,false,Rx,0,8,00,92,85,00,4F,23,00,00,
207371536,00000570,false,Rx,0,8,00,90,85,00,53,26,00,00,
207471473,00000570,false,Rx,0,8,00,7D,85,00,52,27,00,00,
207571514,00000570,false,Rx,0,8,00,37,85,00,28,1F,00,00,
207671508,00000570,false,Rx,0,8,00,49,85,00,20,17,00,00,
207771510,00000570,false,Rx,0,8,00,4F,85,00,21,12,00,00,
207871489,00000570,false,Rx,0,8,00,4E,85,00,21,0F,00,00,
207971483,00000570,false,Rx,0,8,00,4E,85,00,21,0C,00,00,
208071483,00000570,false,Rx,0,8,00,4E,85,00,21,0A,00,00,
208171529,00000570,false,Rx,0,8,00,4E,85,00,21,09,00,00,
208271520,00000570,false,Rx,0,8,00,4E,85,00,21,08,00,00,
208371510,00000570,false,Rx,0,8,00,4E,85,00,21,07,00,00,
208471504,00000570,false,Rx,0,8,00,4E,85,00,21,07,00,00,
208571493,00000570,false,Rx,0,8,00,52,85,00,22,06,00,00,
208671496,00000570,false,Rx,0,8,00,58,85,00,25,07,00,00,
208771484,00000570,false,Rx,0,8,00,5D,85,00,28,07,00,00,
208871525,00000570,false,Rx,0,8,00,62,85,00,2B,09,00,00,
208971528,00000570,false,Rx,0,8,00,68,85,00,2E,0A,00,00,
209071519,00000570,false,Rx,0,8,00,6D,85,00,32,0B,00,00,
209171514,00000570,false,Rx,0,8,00,72,85,00,35,0D,00,00,
209271504,00000570,false,Rx,0,8,00,77,85,00,38,0F,00,00,
209371494,00000570,false,Rx,0,8,00,7C,85,00,3C,11,00,00,
209471539,00000570,false,Rx,0,8,00,80,85,00,3F,14,00,00,
209571531,00000570,false,Rx,0,8,00,84,85,00,43,16,00,00,
209671520,00000570,false,Rx,0,8,00,88,85,00,46,19,00,00,
209771565,00000570,false,Rx,0,8,00,8B,85,00,49,1C,00,00,
209871504,00000570,false,Rx,0,8,00,8E,85,00,4B,1E,00,00,
209971495,00000570,false,Rx,0,8,00,90,85,00,4D,21,00,00,
210071493,00000570,false,Rx,0,8,00,92,85,00,4F,23,00,00,
210171598,00000570,false,Rx,0,8,00,91,85,00,52,26,00,00,
210271535,00000570,false,Rx,0,8,00,76,85,00,4C,26,00,00,
210371131,00000570,false,Rx,0,8,00,0C,85,00,0A,06,00,00,
210471110,00000570,false,Rx,0,8,00,01,85,00,01,00,00,00,
210571120,00000570,false,Rx,0,8,00,00,85,00,00,00,00,00,
210671120,00000570,false,Rx,0,8,00,00,85,00,00,00,00,00,
210771122,00000570,false,Rx,0,8,00,00,85,00,00,00,00,00,
210871141,00000570,false,Rx,0,8,00,00,85,00,00,00,00,00,
210971131,00000570,false,Rx,0,8,00,00,85,00,00,00,00,00,
211071124,00000570,false,Rx,0,8,00,00,85,00,00,00,00,00,
211171125,00000570,false,Rx,0,8,00,00,85,00,00,00,00,00,
211271126,00000570,false,Rx,0,8,00,00,85,00,00,00,00,00,
211371118,00000570,false,Rx,0,8,00,00,85,00,00,00,00,00,
211471160,00000570,false,Rx,0,8,00,00,85,00,00,00,00,00,
211571389,00000570,false,Rx,0,8,00,01,85,00,08,01,00,00,
211671370,00000570,false,Rx,0,8,00,07,85,00,0C,03,00,00,
211771370,00000570,false,Rx,0,8,00,0E,85,00,0F,04,00,00,
211871359,00000570,false,Rx,0,8,00,15,85,00,11,06,00,00,
211971400,00000570,false,Rx,0,8,00,1B,85,00,15,07,00,00,
212071343,00000570,false,Rx,0,8,00,22,85,00,18,09,00,00,
212171385,00000570,false,Rx,0,8,00,3F,85,00,1A,08,00,00,
212271389,00000570,false,Rx,0,8,00,41,85,00,1A,07,00,00,
212371369,00000570,false,Rx,0,8,00,41,85,00,1A,06,00,00,
212471587,00000570,false,Rx,0,8,00,4B,85,00,1D,05,00,00,
212571519,00000570,false,Rx,0,8,00,5D,85,00,26,06,00,00,
212671572,00000570,false,Rx,0,8,00,6A,85,00,2E,08,00,00,
212771561,00000570,false,Rx,0,8,00,73,85,00,35,0B,00,00,
212871555,00000570,false,Rx,0,8,00,7A,85,00,3A,0E,00,00,
212971556,00000570,false,Rx,0,8,00,7F,85,00,3E,11,00,00,
213071539,00000570,false,Rx,0,8,00,84,85,00,42,14,00,00,
213171535,00000570,false,Rx,0,8,00,87,85,00,45,18,00,00,
213271576,00000570,false,Rx,0,8,00,8B,85,00,48,1B,00,00,
213371566,00000570,false,Rx,0,8,00,8D,85,00,4B,1D,00,00,
213471567,00000570,false,Rx,0,8,00,90,85,00,4D,20,00,00,
213571560,00000570,false,Rx,0,8,00,92,85,00,4F,23,00,00,
213671654,00000570,false,Rx,0,8,00,92,85,00,51,25,00,00,
213771543,00000570,false,Rx,0,8,00,86,85,00,56,27,00,00,
213871141,00000570,false,Rx,0,8,00,16,85,00,13,0B,00,00,
213971151,00000570,false,Rx,0,8,00,01,85,00,01,00,00,00,
214071175,00000570,false,Rx,0,8,00,00,85,00,00,00,00,00,
214171167,00000570,false,Rx,0,8,00,00,85,00,00,00,00,00,
214271158,00000570,false,Rx,0,8,00,00,85,00,00,00,00,00,
214371150,00000570,false,Rx,0,8,00,00,85,00,00,00,00,00,
214471151,00000570,false,Rx,0,8,00,00,85,00,00,00,00,00,
214571154,00000570,false,Rx,0,8,00,00,85,00,00,00,00,00,
214671151,00000570,false,Rx,0,8,00,00,85,00,00,00,00,00,
214771182,00000570,false,Rx,0,8,00,00,85,00,00,00,00,00,
214871165,00000570,false,Rx,0,8,00,00,85,00,00,00,00,00,
214971177,00000570,false,Rx,0,8,00,00,85,00,00,00,00,00,
215071400,00000570,false,Rx,0,8,00,00,85,00,07,01,00,00,
215171442,00000570,false,Rx,0,8,00,05,85,00,0C,02,00,00,
215271380,00000570,false,Rx,0,8,00,0D,85,00,0E,04,00,00,
215371421,00000570,false,Rx,0,8,00,14,85,00,11,05,00,00,
215471422,00000570,false,Rx,0,8,00,1A,85,00,14,07,00,00,
215571405,00000570,false,Rx,0,8,00,20,85,00,18,09,00,00,
215671400,00000570,false,Rx,0,8,00,3B,85,00,1A,08,00,00,
215771390,00000570,false,Rx,0,8,00,40,85,00,1A,07,00,00,
215871394,00000570,false,Rx,0,8,00,40,85,00,1A,06,00,00,
215971552,00000570,false,Rx,0,8,00,46,85,00,1B,05,00,00,
216071604,00000570,false,Rx,0,8,00,59,85,00,23,06,00,00,
216171582,00000570,false,Rx,0,8,00,67,85,00,2C,08,00,00,
216271571,00000570,false,Rx,0,8,00,71,85,00,33,0A,00,00,
216371566,00000570,false,Rx,0,8,00,78,85,00,39,0D,00,00,
216471566,00000570,false,Rx,0,8,00,7E,85,00,3D,11,00,00,
216571556,00000570,false,Rx,0,8,00,83,85,00,41,14,00,00,
216671602,00000570,false,Rx,0,8,00,87,85,00,44,17,00,00,
216771592,00000570,false,Rx,0,8,00,8A,85,00,48,1A,00,00,
216871582,00000570,false,Rx,0,8,00,8D,85,00,4A,1D,00,00,
216971637,00000570,false,Rx,0,8,00,8F,85,00,4C,20,00,00,
217071566,00000570,false,Rx,0,8,00,91,85,00,4E,22,00,00,
217171570,00000570,false,Rx,0,8,00,93,85,00,50,24,00,00,
217271613,00000570,false,Rx,0,8,00,8B,85,00,56,27,00,00,
217371603,00000570,false,Rx,0,8,00,5B,85,00,3E,23,00,00,
217471597,00000570,false,Rx,0,8,00,4D,85,00,28,1B,00,00,
217571587,00000570,false,Rx,0,8,00,4D,85,00,22,15,00,00,
217671580,00000570,false,Rx,0,8,00,4D,85,00,21,10,00,00,
217771572,00000570,false,Rx,0,8,00,4D,85,00,20,0D,00,00,
217871572,00000570,false,Rx,0,8,00,4D,85,00,20,0B,00,00,
217971562,00000570,false,Rx,0,8,00,4D,85,00,20,09,00,00,
218071613,00000570,false,Rx,0,8,00,4E,85,00,20,08,00,00,
218171605,00000570,false,Rx,0,8,00,4D,85,00,20,07,00,00,
218271598,00000570,false,Rx,0,8,00,4E,85,00,21,07,00,00,
218371598,00000570,false,Rx,0,8,00,4F,85,00,21,06,00,00,
218471580,00000570,false,Rx,0,8,00,55,85,00,23,07,00,00,
218571572,00000570,false,Rx,0,8,00,5B,85,00,26,07,00,00,
218671617,00000570,false,Rx,0,8,00,60,85,00,2A,08,00,00,
218771608,00000570,false,Rx,0,8,00,66,85,00,2D,09,00,00,
218871608,00000570,false,Rx,0,8,00,6C,85,00,30,0B,00,00,
218971592,00000570,false,Rx,0,8,00,70,85,00,34,0C,00,00,
219071593,00000570,false,Rx,0,8,00,75,85,00,37,0E,00,00,
219171584,00000570,false,Rx,0,8,00,7A,85,00,3A,10,00,00,
219271623,00000570,false,Rx,0,8,00,7E,85,00,3E,13,00,00,
219371627,00000570,false,Rx,0,8,00,83,85,00,41,15,00,00,
219471617,00000570,false,Rx,0,8,00,87,85,00,44,18,00,00,
219571607,00000570,false,Rx,0,8,00,8A,85,00,47,1A,00,00,
219671590,00000570,false,Rx,0,8,00,8D,85,00,4A,1D,00,00,
219771598,00000570,false,Rx,0,8,00,8F,85,00,4C,1F,00,00,
219871577,00000570,false,Rx,0,8,00,91,85,00,4E,22,00,00,
219971628,00000570,false,Rx,0,8,00,93,85,00,50,24,00,00,
220071732,00000570,false,Rx,0,8,00,8F,85,00,54,26,00,00,
220171609,00000570,false,Rx,0,8,00,42,85,00,36,22,00,00,
220271608,00000570,false,Rx,0,8,00,38,85,00,1D,1A,00,00,
220371597,00000570,false,Rx,0,8,00,3A,85,00,18,13,00,00,
220471591,00000570,false,Rx,0,8,00,39,85,00,17,0E,00,00,
220571592,00000570,false,Rx,0,8,00,38,85,00,16,0B,00,00,
220671627,00000570,false,Rx,0,8,00,38,85,00,16,08,00,00,
220771629,00000570,false,Rx,0,8,00,38,85,00,16,06,00,00,
220871618,00000570,false,Rx,0,8,00,38,85,00,16,05,00,00,
220971611,00000570,false,Rx,0,8,00,38,85,00,16,04,00,00,
221071608,00000570,false,Rx,0,8,00,38,85,00,16,04,00,00,
221171589,00000570,false,Rx,0,8,00,39,85,00,16,03,00,00,
221271597,00000570,false,Rx,0,8,00,3A,85,00,17,03,00,00,
221371639,00000570,false,Rx,0,8,00,45,85,00,1A,03,00,00,
221471633,00000570,false,Rx,0,8,00,51,85,00,20,04,00,00,
221571613,00000570,false,Rx,0,8,00,59,85,00,25,05,00,00,
221671614,00000570,false,Rx,0,8,00,60,85,00,29,06,00,00,
221771603,00000570,false,Rx,0,8,00,66,85,00,2D,08,00,00,
221871644,00000570,false,Rx,0,8,00,6D,85,00,31,0A,00,00,
221971637,00000570,false,Rx,0,8,00,72,85,00,35,0C,00,00,
222071639,00000570,false,Rx,0,8,00,77,85,00,38,0E,00,00,
222171630,00000570,false,Rx,0,8,00,7D,85,00,3C,11,00,00,
222271618,00000570,false,Rx,0,8,00,81,85,00,40,14,00,00,
222371659,00000570,false,Rx,0,8,00,85,85,00,43,16,00,00,
222471607,00000570,false,Rx,0,8,00,89,85,00,46,19,00,00,
222571649,00000570,false,Rx,0,8,00,8C,85,00,49,1C,00,00,
222671640,00000570,false,Rx,0,8,00,8E,85,00,4B,1E,00,00,
222771628,00000570,false,Rx,0,8,00,91,85,00,4D,21,00,00,
222871628,00000570,false,Rx,0,8,00,93,85,00,4F,23,00,00,
222971681,00000570,false,Rx,0,8,00,91,85,00,52,26,00,00,
223071618,00000570,false,Rx,0,8,00,59,85,00,3F,23,00,00,
223171611,00000570,false,Rx,0,8,00,45,85,00,24,1B,00,00,
223271649,00000570,false,Rx,0,8,00,4D,85,00,21,15,00,00,
223371659,00000570,false,Rx,0,8,00,4D,85,00,20,10,00,00,
223471644,00000570,false,Rx,0,8,00,4D,85,00,20,0D,00,00,
223571634,00000570,false,Rx,0,8,00,4D,85,00,20,0B,00,00,
223671626,00000570,false,Rx,0,8,00,4D,85,00,20,09,00,00,
223771627,00000570,false,Rx,0,8,00,4D,85,00,20,08,00,00,
223871669,00000570,false,Rx,0,8,00,4D,85,00,20,07,00,00,
223971654,00000570,false,Rx,0,8,00,4D,85,00,20,07,00,00,
224071654,00000570,false,Rx,0,8,00,4E,85,00,21,06,00,00,
224171648,00000570,false,Rx,0,8,00,54,85,00,23,06,00,00,
224271638,00000570,false,Rx,0,8,00,5A,85,00,26,07,00,00,
224371628,00000570,false,Rx,0,8,00,60,85,00,29,08,00,00,
224471623,00000570,false,Rx,0,8,00,65,85,00,2C,09,00,00,
224571665,00000570,false,Rx,0,8,00,6A,85,00,30,0A,00,00,
224671665,00000570,false,Rx,0,8,00,6F,85,00,33,0C,00,00,
224771659,00000570,false,Rx,0,8,00,74,85,00,36,0E,00,00,
224871648,00000570,false,Rx,0,8,00,79,85,00,3A,10,00,00,
224971643,00000570,false,Rx,0,8,00,7D,85,00,3D,12,00,00,
225071633,00000570,false,Rx,0,8,00,82,85,00,41,15,00,00,
225171634,00000570,false,Rx,0,8,00,86,85,00,44,17,00,00,
225271675,00000570,false,Rx,0,8,00,89,85,00,47,1A,00,00,
225371666,00000570,false,Rx,0,8,00,8C,85,00,49,1D,00,00,
225471660,00000570,false,Rx,0,8,00,8F,85,00,4C,1F,00,00,
225571691,00000570,false,Rx,0,8,00,91,85,00,4E,22,00,00,
225671649,00000570,false,Rx,0,8,00,93,85,00,50,24,00,00,
225771742,00000570,false,Rx,0,8,00,8D,85,00,54,26,00,00,
225871681,00000570,false,Rx,0,8,00,56,85,00,43,24,00,00,
225971674,00000570,false,Rx,0,8,00,4B,85,00,28,1C,00,00,
226071664,00000570,false,Rx,0,8,00,4E,85,00,23,16,00,00,
226171666,00000570,false,Rx,0,8,00,4E,85,00,21,11,00,00,
226271645,00000570,false,Rx,0,8,00,4E,85,00,21,0E,00,00,
226371634,00000570,false,Rx,0,8,00,4E,85,00,21,0B,00,00,
226471637,00000570,false,Rx,0,8,00,4D,85,00,21,0A,00,00,
226571690,00000570,false,Rx,0,8,00,4E,85,00,21,08,00,00,
226671680,00000570,false,Rx,0,8,00,4E,85,00,21,07,00,00,
226771669,00000570,false,Rx,0,8,00,4E,85,00,21,07,00,00,
226871660,00000570,false,Rx,0,8,00,4E,85,00,21,06,00,00,
226971653,00000570,false,Rx,0,8,00,54,85,00,23,06,00,00,
227071644,00000570,false,Rx,0,8,00,5A,85,00,26,07,00,00,
227171696,00000570,false,Rx,0,8,00,5F,85,00,29,08,00,00,
227271686,00000570,false,Rx,0,8,00,65,85,00,2C,09,00,00,
227371676,00000570,false,Rx,0,8,00,6A,85,00,30,0A,00,00,
227471680,00000570,false,Rx,0,8,00,6F,85,00,33,0C,00,00,
227571659,00000570,false,Rx,0,8,00,74,85,00,36,0E,00,00,
227671659,00000570,false,Rx,0,8,00,78,85,00,3A,10,00,00,
227771701,00000570,false,Rx,0,8,00,7D,85,00,3D,12,00,00,
227871701,00000570,false,Rx,0,8,00,82,85,00,41,15,00,00,
227971684,00000570,false,Rx,0,8,00,86,85,00,44,17,00,00,
228071680,00000570,false,Rx,0,8,00,89,85,00,47,1A,00,00,
228171669,00000570,false,Rx,0,8,00,8C,85,00,49,1D,00,00,
228271670,00000570,false,Rx,0,8,00,8F,85,00,4C,1F,00,00,
228371711,00000570,false,Rx,0,8,00,91,85,00,4E,22,00,00,
228471705,00000570,false,Rx,0,8,00,93,85,00,50,24,00,00,
228571799,00000570,false,Rx,0,8,00,8E,85,00,54,26,00,00,
228671694,00000570,false,Rx,0,8,00,41,85,00,38,23,00,00,
228771687,00000570,false,Rx,0,8,00,43,85,00,21,1A,00,00,
228871675,00000570,false,Rx,0,8,00,4E,85,00,21,14,00,00,
228971669,00000570,false,Rx,0,8,00,4D,85,00,20,10,00,00,
229071669,00000570,false,Rx,0,8,00,4D,85,00,20,0D,00,00,
229171711,00000570,false,Rx,0,8,00,4D,85,00,20,0B,00,00,
229271701,00000570,false,Rx,0,8,00,4D,85,00,20,09,00,00,
229371701,00000570,false,Rx,0,8,00,4D,85,00,20,08,00,00,
229471690,00000570,false,Rx,0,8,00,4E,85,00,20,07,00,00,
229571680,00000570,false,Rx,0,8,00,4E,85,00,20,07,00,00,
229671680,00000570,false,Rx,0,8,00,4F,85,00,21,06,00,00,
229771722,00000570,false,Rx,0,8,00,55,85,00,23,06,00,00,
229871711,00000570,false,Rx,0,8,00,5B,85,00,26,07,00,00,
229971705,00000570,false,Rx,0,8,00,61,85,00,2A,08,00,00,
230071695,00000570,false,Rx,0,8,00,66,85,00,2D,09,00,00,
230171697,00000570,false,Rx,0,8,00,6B,85,00,30,0B,00,00,
230271738,00000570,false,Rx,0,8,00,70,85,00,34,0C,00,00,
230371676,00000570,false,Rx,0,8,00,76,85,00,37,0E,00,00,
230471729,00000570,false,Rx,0,8,00,7B,85,00,3B,10,00,00,
230571719,00000570,false,Rx,0,8,00,80,85,00,3E,13,00,00,
230671701,00000570,false,Rx,0,8,00,85,85,00,42,15,00,00,
230771695,00000570,false,Rx,0,8,00,88,85,00,45,18,00,00,
230871695,00000570,false,Rx,0,8,00,8B,85,00,48,1A,00,00,
230971678,00000570,false,Rx,0,8,00,8E,85,00,4A,1D,00,00,
231071731,00000570,false,Rx,0,8,00,90,85,00,4C,1F,00,00,
231171722,00000570,false,Rx,0,8,00,92,85,00,4E,22,00,00,
231271716,00000570,false,Rx,0,8,00,94,85,00,50,24,00,00,
231371758,00000570,false,Rx,0,8,00,94,85,00,52,26,00,00,
231471810,00000570,false,Rx,0,8,00,88,85,00,57,27,00,00,
231571748,00000570,false,Rx,0,8,00,45,85,00,39,24,00,00,
231671302,00000570,false,Rx,0,8,00,03,85,00,03,02,00,00,
231771327,00000570,false,Rx,0,8,00,00,85,00,00,00,00,00,
231871318,00000570,false,Rx,0,8,00,00,85,00,00,00,00,00,
231971311,00000570,false,Rx,0,8,00,00,85,00,00,00,00,00,
232071307,00000570,false,Rx,0,8,00,00,85,00,00,00,00,00,
232171307,00000570,false,Rx,0,8,00,00,85,00,00,00,00,00,
232271307,00000570,false,Rx,0,8,00,00,85,00,00,00,00,00,
232371308,00000570,false,Rx,0,8,00,00,85,00,00,00,00,00,
232471332,00000570,false,Rx,0,8,00,00,85,00,00,00,00,00,
232571318,00000570,false,Rx,0,8,00,00,85,00,00,00,00,00,
232671328,00000570,false,Rx,0,8,00,00,85,00,00,00,00,00,
232771549,00000570,false,Rx,0,8,00,00,85,00,02,00,00,00,
232871545,00000570,false,Rx,0,8,00,03,85,00,0A,02,00,00,
232971539,00000570,false,Rx,0,8,00,0A,85,00,0D,03,00,00,
233071581,00000570,false,Rx,0,8,00,10,85,00,10,05,00,00,
233171572,00000570,false,Rx,0,8,00,18,85,00,13,06,00,00,
233271572,00000570,false,Rx,0,8,00,1F,85,00,17,08,00,00,
233371552,00000570,false,Rx,0,8,00,30,85,00,19,09,00,00,
233471552,00000570,false,Rx,0,8,00,41,85,00,1A,07,00,00,
233571539,00000570,false,Rx,0,8,00,41,85,00,1A,06,00,00,
233671706,00000570,false,Rx,0,8,00,42,85,00,1A,05,00,00,
233771752,00000570,false,Rx,0,8,00,53,85,00,20,05,00,00,
233871742,00000570,false,Rx,0,8,00,64,85,00,2A,07,00,00,
233971733,00000570,false,Rx,0,8,00,6F,85,00,31,09,00,00,
234071722,00000570,false,Rx,0,8,00,77,85,00,37,0C,00,00,
234171722,00000570,false,Rx,0,8,00,7E,85,00,3C,0F,00,00,
234271711,00000570,false,Rx,0,8,00,83,85,00,40,12,00,00,
234371762,00000570,false,Rx,0,8,00,87,85,00,44,16,00,00,
234471754,00000570,false,Rx,0,8,00,8A,85,00,47,19,00,00,
234571742,00000570,false,Rx,0,8,00,8D,85,00,49,1B,00,00,
234671742,00000570,false,Rx,0,8,00,90,85,00,4C,1E,00,00,
234771725,00000570,false,Rx,0,8,00,92,85,00,4E,21,00,00,
234871716,00000570,false,Rx,0,8,00,94,85,00,4F,23,00,00,
234971710,00000570,false,Rx,0,8,00,95,85,00,51,25,00,00,
235071753,00000570,false,Rx,0,8,00,8C,85,00,55,27,00,00,
235171753,00000570,false,Rx,0,8,00,2E,85,00,2C,21,00,00,
235271745,00000570,false,Rx,0,8,00,65,85,00,2B,1B,00,00,
235371742,00000570,false,Rx,0,8,00,5A,85,00,2B,17,00,00,
235471734,00000570,false,Rx,0,8,00,3D,85,00,1D,11,00,00,
235571722,00000570,false,Rx,0,8,00,3A,85,00,18,0D,00,00,
235671763,00000570,false,Rx,0,8,00,3B,85,00,17,0A,00,00,
235771767,00000570,false,Rx,0,8,00,3B,85,00,17,08,00,00,
235871758,00000570,false,Rx,0,8,00,3B,85,00,17,06,00,00,
235971749,00000570,false,Rx,0,8,00,3B,85,00,17,05,00,00,
236071740,00000570,false,Rx,0,8,00,3B,85,00,17,04,00,00,
236171742,00000570,false,Rx,0,8,00,3B,85,00,17,04,00,00,
236271778,00000570,false,Rx,0,8,00,3B,85,00,17,03,00,00,
236371779,00000570,false,Rx,0,8,00,3D,85,00,18,03,00,00,
236471771,00000570,false,Rx,0,8,00,48,85,00,1C,03,00,00,
236571752,00000570,false,Rx,0,8,00,52,85,00,21,04,00,00,
236671752,00000570,false,Rx,0,8,00,5B,85,00,26,05,00,00,
236771742,00000570,false,Rx,0,8,00,61,85,00,2A,07,00,00,
236871743,00000570,false,Rx,0,8,00,68,85,00,2E,08,00,00,
236971785,00000570,false,Rx,0,8,00,6E,85,00,32,0A,00,00,
237071783,00000570,false,Rx,0,8,00,73,85,00,35,0C,00,00,
237171773,00000570,false,Rx,0,8,00,79,85,00,39,0E,00,00,
237271766,00000570,false,Rx,0,8,00,7E,85,00,3D,11,00,00,
237371810,00000570,false,Rx,0,8,00,83,85,00,40,14,00,00,
237471741,00000570,false,Rx,0,8,00,87,85,00,43,16,00,00,
237571742,00000570,false,Rx,0,8,00,8A,85,00,47,19,00,00,
237671773,00000570,false,Rx,0,8,00,8D,85,00,49,1C,00,00,
237771777,00000570,false,Rx,0,8,00,90,85,00,4B,1E,00,00,
237871763,00000570,false,Rx,0,8,00,92,85,00,4E,21,00,00,
237971764,00000570,false,Rx,0,8,00,94,85,00,4F,23,00,00,
238071804,00000570,false,Rx,0,8,00,95,85,00,51,25,00,00,
238171804,00000570,false,Rx,0,8,00,8F,85,00,55,27,00,00,
238271799,00000570,false,Rx,0,8,00,57,85,00,40,25,00,00,
238371374,00000570,false,Rx,0,8,00,04,85,00,05,03,00,00,
238471377,00000570,false,Rx,0,8,00,00,85,00,00,00,00,00,
238571370,00000570,false,Rx,0,8,00,00,85,00,00,00,00,00,
238671370,00000570,false,Rx,0,8,00,00,85,00,00,00,00,00,
238771363,00000570,false,Rx,0,8,00,00,85,00,00,00,00,00,
238871364,00000570,false,Rx,0,8,00,00,85,00,00,00,00,00,
238971396,00000570,false,Rx,0,8,00,00,85,00,00,00,00,00,
239071386,00000570,false,Rx,0,8,00,00,85,00,00,00,00,00,
239171375,00000570,false,Rx,0,8,00,00,85,00,00,00,00,00,
239271369,00000570,false,Rx,0,8,00,00,85,00,00,00,00,00,
239371380,00000570,false,Rx,0,8,00,00,85,00,00,00,00,00,
239471598,00000570,false,Rx,0,8,00,00,85,00,02,00,00,00,
239571639,00000570,false,Rx,0,8,00,03,85,00,0A,01,00,00,
239671638,00000570,false,Rx,0,8,00,09,85,00,0D,03,00,00,
239771632,00000570,false,Rx,0,8,00,10,85,00,10,05,00,00,
239871670,00000570,false,Rx,0,8,00,17,85,00,13,06,00,00,
239971670,00000570,false,Rx,0,8,00,1E,85,00,16,08,00,00,
240071597,00000570,false,Rx,0,8,00,2B,85,00,19,09,00,00,
240171597,00000570,false,Rx,0,8,00,40,85,00,1A,08,00,00,
240271643,00000570,false,Rx,0,8,00,41,85,00,1A,06,00,00,
240371809,00000570,false,Rx,0,8,00,41,85,00,1A,05,00,00,
240471789,00000570,false,Rx,0,8,00,50,85,00,1F,05,00,00,
240571789,00000570,false,Rx,0,8,00,62,85,00,28,07,00,00,
240671789,00000570,false,Rx,0,8,00,6E,85,00,30,09,00,00,
240771780,00000570,false,Rx,0,8,00,76,85,00,36,0C,00,00,
240871771,00000570,false,Rx,0,8,00,7D,85,00,3B,0F,00,00,
240971814,00000570,false,Rx,0,8,00,82,85,00,40,12,00,00,
241071804,00000570,false,Rx,0,8,00,86,85,00,43,15,00,00,
241171794,00000570,false,Rx,0,8,00,8A,85,00,46,18,00,00,
241271784,00000570,false,Rx,0,8,00,8D,85,00,49,1B,00,00,
241371784,00000570,false,Rx,0,8,00,8F,85,00,4B,1E,00,00,
241471773,00000570,false,Rx,0,8,00,92,85,00,4D,20,00,00,
241571815,00000570,false,Rx,0,8,00,94,85,00,4F,23,00,00,
241671815,00000570,false,Rx,0,8,00,96,85,00,51,25,00,00,
241771918,00000570,false,Rx,0,8,00,90,85,00,55,27,00,00,
241871794,00000570,false,Rx,0,8,00,3B,85,00,33,22,00,00,
241971794,00000570,false,Rx,0,8,00,39,85,00,1D,1A,00,00,
242071788,00000570,false,Rx,0,8,00,3A,85,00,18,13,00,00,
242171779,00000570,false,Rx,0,8,00,39,85,00,17,0E,00,00,
242271821,00000570,false,Rx,0,8,00,39,85,00,16,0B,00,00,
242371825,00000570,false,Rx,0,8,00,39,85,00,16,08,00,00,
242471814,00000570,false,Rx,0,8,00,39,85,00,16,06,00,00,
242571809,00000570,false,Rx,0,8,00,39,85,00,16,05,00,00,
242671799,00000570,false,Rx,0,8,00,39,85,00,16,04,00,00,
242771799,00000570,false,Rx,0,8,00,39,85,00,16,04,00,00,
242871782,00000570,false,Rx,0,8,00,39,85,00,17,03,00,00,
242971825,00000570,false,Rx,0,8,00,3C,85,00,17,03,00,00,
243071819,00000570,false,Rx,0,8,00,47,85,00,1B,03,00,00,
243171815,00000570,false,Rx,0,8,00,52,85,00,21,04,00,00,
243271804,00000570,false,Rx,0,8,00,5A,85,00,25,05,00,00,
243371799,00000570,false,Rx,0,8,00,61,85,00,2A,06,00,00,
243471840,00000570,false,Rx,0,8,00,68,85,00,2E,08,00,00,
243571845,00000570,false,Rx,0,8,00,6E,85,00,31,0A,00,00,
243671835,00000570,false,Rx,0,8,00,73,85,00,35,0C,00,00,
243771825,00000570,false,Rx,0,8,00,78,85,00,39,0E,00,00,
243871825,00000570,false,Rx,0,8,00,7E,85,00,3C,11,00,00,
243971815,00000570,false,Rx,0,8,00,83,85,00,40,13,00,00,
244071798,00000570,false,Rx,0,8,00,87,85,00,44,16,00,00,
244171794,00000570,false,Rx,0,8,00,8A,85,00,46,19,00,00,
244271835,00000570,false,Rx,0,8,00,8D,85,00,49,1C,00,00,
244371887,00000570,false,Rx,0,8,00,90,85,00,4B,1E,00,00,
244471825,00000570,false,Rx,0,8,00,92,85,00,4D,21,00,00,
244571808,00000570,false,Rx,0,8,00,94,85,00,4F,23,00,00,
244671804,00000570,false,Rx,0,8,00,95,85,00,51,25,00,00,
244771908,00000570,false,Rx,0,8,00,91,85,00,55,27,00,00,
244871908,00000570,false,Rx,0,8,00,87,85,00,59,28,00,00,
244971836,00000570,false,Rx,0,8,00,52,85,00,3B,24,00,00,
245071840,00000570,false,Rx,0,8,00,4A,85,00,25,1C,00,00,
245171830,00000570,false,Rx,0,8,00,51,85,00,22,15,00,00,
245271820,00000570,false,Rx,0,8,00,50,85,00,22,11,00,00,
245371810,00000570,false,Rx,0,8,00,50,85,00,21,0E,00,00,
245471809,00000570,false,Rx,0,8,00,50,85,00,22,0B,00,00,
245571853,00000570,false,Rx,0,8,00,50,85,00,22,0A,00,00,
245671844,00000570,false,Rx,0,8,00,50,85,00,21,08,00,00,
245771845,00000570,false,Rx,0,8,00,50,85,00,22,08,00,00,
245871828,00000570,false,Rx,0,8,00,50,85,00,21,07,00,00,
245971831,00000570,false,Rx,0,8,00,51,85,00,22,07,00,00,
246071811,00000570,false,Rx,0,8,00,56,85,00,24,07,00,00,
246171866,00000570,false,Rx,0,8,00,5C,85,00,27,07,00,00,
246271855,00000570,false,Rx,0,8,00,61,85,00,2A,08,00,00,
246371846,00000570,false,Rx,0,8,00,67,85,00,2D,09,00,00,
246471836,00000570,false,Rx,0,8,00,6C,85,00,31,0B,00,00,
246571835,00000570,false,Rx,0,8,00,71,85,00,34,0C,00,00,
246671825,00000570,false,Rx,0,8,00,76,85,00,37,0E,00,00,
246771825,00000570,false,Rx,0,8,00,7B,85,00,3A,10,00,00,
246871867,00000570,false,Rx,0,8,00,80,85,00,3E,12,00,00,
246971856,00000570,false,Rx,0,8,00,84,85,00,41,15,00,00,
247071847,00000570,false,Rx,0,8,00,88,85,00,44,17,00,00,
247171835,00000570,false,Rx,0,8,00,8B,85,00,47,1A,00,00,
247271835,00000570,false,Rx,0,8,00,8E,85,00,4A,1C,00,00,
247371881,00000570,false,Rx,0,8,00,91,85,00,4C,1F,00,00,
247471871,00000570,false,Rx,0,8,00,92,85,00,4E,21,00,00,
247571872,00000570,false,Rx,0,8,00,95,85,00,50,23,00,00,
247671855,00000570,false,Rx,0,8,00,96,85,00,51,26,00,00,
247771845,00000570,false,Rx,0,8,00,8A,85,00,56,27,00,00,
247871850,00000570,false,Rx,0,8,00,4F,85,00,34,21,00,00,
247971840,00000570,false,Rx,0,8,00,4E,85,00,25,19,00,00,
248071830,00000570,false,Rx,0,8,00,4F,85,00,22,13,00,00,
248171886,00000570,false,Rx,0,8,00,4F,85,00,21,0F,00,00,
248271877,00000570,false,Rx,0,8,00,4F,85,00,21,0C,00,00,
248371870,00000570,false,Rx,0,8,00,4E,85,00,21,0A,00,00,
248471856,00000570,false,Rx,0,8,00,4E,85,00,21,09,00,00,
248571846,00000570,false,Rx,0,8,00,4E,85,00,21,08,00,00,
248671838,00000570,false,Rx,0,8,00,4F,85,00,21,07,00,00,
248771887,00000570,false,Rx,0,8,00,4F,85,00,21,07,00,00,
248871877,00000570,false,Rx,0,8,00,51,85,00,22,06,00,00,
248971877,00000570,false,Rx,0,8,00,57,85,00,24,07,00,00,
249071866,00000570,false,Rx,0,8,00,5D,85,00,27,07,00,00,
249171867,00000570,false,Rx,0,8,00,62,85,00,2B,08,00,00,
249271846,00000570,false,Rx,0,8,00,68,85,00,2E,09,00,00,
249371846,00000570,false,Rx,0,8,00,6D,85,00,31,0B,00,00,
249471887,00000570,false,Rx,0,8,00,72,85,00,34,0C,00,00,
249571887,00000570,false,Rx,0,8,00,77,85,00,38,0E,00,00,
249671880,00000570,false,Rx,0,8,00,7C,85,00,3B,10,00,00,
249771877,00000570,false,Rx,0,8,00,81,85,00,3F,13,00,00,
249871856,00000570,false,Rx,0,8,00,85,85,00,42,15,00,00,
249971856,00000570,false,Rx,0,8,00,89,85,00,45,18,00,00,
250071897,00000570,false,Rx,0,8,00,8C,85,00,48,1A,00,00,
250171891,00000570,false,Rx,0,8,00,8E,85,00,4A,1D,00,00,
250271887,00000570,false,Rx,0,8,00,91,85,00,4C,1F,00,00,
250371877,00000570,false,Rx,0,8,00,93,85,00,4E,22,00,00,
250471882,00000570,false,Rx,0,8,00,95,85,00,50,24,00,00,
250571968,00000570,false,Rx,0,8,00,95,85,00,52,26,00,00,
250671960,00000570,false,Rx,0,8,00,89,85,00,57,27,00,00,
250771959,00000570,false,Rx,0,8,00,40,85,00,35,23,00,00,
250871493,00000570,false,Rx,0,8,00,03,85,00,03,01,00,00,
250971488,00000570,false,Rx,0,8,00,00,85,00,00,00,00,00,
251071479,00000570,false,Rx,0,8,00,00,85,00,00,00,00,00,
251171481,00000570,false,Rx,0,8,00,00,85,00,00,00,00,00,
251271483,00000570,false,Rx,0,8,00,00,85,00,00,00,00,00,
251371483,00000570,false,Rx,0,8,00,00,85,00,00,00,00,00,
251471505,00000570,false,Rx,0,8,00,00,85,00,00,00,00,00,
251571494,00000570,false,Rx,0,8,00,00,85,00,00,00,00,00,
251671483,00000570,false,Rx,0,8,00,00,85,00,00,00,00,00,
251771483,00000570,false,Rx,0,8,00,00,85,00,00,00,00,00,
251871494,00000570,false,Rx,0,8,00,00,85,00,00,00,00,00,
251971756,00000570,false,Rx,0,8,00,00,85,00,04,00,00,00,
252071752,00000570,false,Rx,0,8,00,04,85,00,0B,02,00,00,
252171753,00000570,false,Rx,0,8,00,0A,85,00,0E,03,00,00,
252271736,00000570,false,Rx,0,8,00,11,85,00,10,05,00,00,
252371727,00000570,false,Rx,0,8,00,19,85,00,13,06,00,00,
252471719,00000570,false,Rx,0,8,00,1F,85,00,17,08,00,00,
252571710,00000570,false,Rx,0,8,00,34,85,00,19,09,00,00,
252671763,00000570,false,Rx,0,8,00,41,85,00,1A,07,00,00,
252771747,00000570,false,Rx,0,8,00,41,85,00,1A,06,00,00,
252871913,00000570,false,Rx,0,8,00,43,85,00,1A,05,00,00,
252971906,00000570,false,Rx,0,8,00,55,85,00,21,06,00,00,
253071898,00000570,false,Rx,0,8,00,65,85,00,2A,07,00,00,
253171887,00000570,false,Rx,0,8,00,70,85,00,32,0A,00,00,
253271887,00000570,false,Rx,0,8,00,78,85,00,38,0C,00,00,
253371928,00000570,false,Rx,0,8,00,7E,85,00,3D,0F,00,00,
253471920,00000570,false,Rx,0,8,00,83,85,00,41,13,00,00,
253571918,00000570,false,Rx,0,8,00,87,85,00,44,16,00,00,
253671960,00000570,false,Rx,0,8,00,8B,85,00,47,19,00,00,
253771897,00000570,false,Rx,0,8,00,8E,85,00,49,1B,00,00,
253871897,00000570,false,Rx,0,8,00,90,85,00,4C,1E,00,00,
253971940,00000570,false,Rx,0,8,00,92,85,00,4E,21,00,00,
254071980,00000570,false,Rx,0,8,00,94,85,00,50,23,00,00,
254171929,00000570,false,Rx,0,8,00,96,85,00,51,25,00,00,
254271974,00000570,false,Rx,0,8,00,8F,85,00,55,27,00,00,
254371913,00000570,false,Rx,0,8,00,54,85,00,3C,23,00,00,
254471904,00000570,false,Rx,0,8,00,4A,85,00,26,1B,00,00,
254571898,00000570,false,Rx,0,8,00,4E,85,00,22,15,00,00,
254671949,00000570,false,Rx,0,8,00,4E,85,00,21,10,00,00,
254771933,00000570,false,Rx,0,8,00,4E,85,00,21,0D,00,00,
254871923,00000570,false,Rx,0,8,00,4E,85,00,21,0B,00,00,
254971914,00000570,false,Rx,0,8,00,4E,85,00,21,09,00,00,
255071908,00000570,false,Rx,0,8,00,4E,85,00,21,08,00,00,
255171908,00000570,false,Rx,0,8,00,4F,85,00,21,07,00,00,
255271953,00000570,false,Rx,0,8,00,4F,85,00,21,07,00,00,
255371949,00000570,false,Rx,0,8,00,50,85,00,22,06,00,00,
255471939,00000570,false,Rx,0,8,00,56,85,00,23,06,00,00,
255571929,00000570,false,Rx,0,8,00,5C,85,00,27,07,00,00,
255671918,00000570,false,Rx,0,8,00,61,85,00,2A,08,00,00,
255771911,00000570,false,Rx,0,8,00,67,85,00,2D,09,00,00,
255871907,00000570,false,Rx,0,8,00,6C,85,00,30,0A,00,00,
255971949,00000570,false,Rx,0,8,00,71,85,00,34,0C,00,00,
256071949,00000570,false,Rx,0,8,00,76,85,00,37,0E,00,00,
256171949,00000570,false,Rx,0,8,00,7B,85,00,3A,10,00,00,
256271938,00000570,false,Rx,0,8,00,7F,85,00,3E,12,00,00,
256371918,00000570,false,Rx,0,8,00,84,85,00,41,15,00,00,
256471918,00000570,false,Rx,0,8,00,88,85,00,44,17,00,00,
256571912,00000570,false,Rx,0,8,00,8B,85,00,47,1A,00,00,
256671959,00000570,false,Rx,0,8,00,8E,85,00,4A,1C,00,00,
256772011,00000570,false,Rx,0,8,00,91,85,00,4C,1F,00,00,
256871939,00000570,false,Rx,0,8,00,93,85,00,4E,21,00,00,
256971939,00000570,false,Rx,0,8,00,95,85,00,50,23,00,00,
257071922,00000570,false,Rx,0,8,00,96,85,00,51,25,00,00,
257171871,00000570,false,Rx,0,8,00,88,85,00,54,27,00,00,
257271562,00000570,false,Rx,0,8,00,1B,85,00,1B,13,00,00,
257371555,00000570,false,Rx,0,8,00,01,85,00,01,01,00,00,
257471545,00000570,false,Rx,0,8,00,00,85,00,00,00,00,00,
257571545,00000570,false,Rx,0,8,00,00,85,00,00,00,00,00,
257671546,00000570,false,Rx,0,8,00,00,85,00,00,00,00,00,
257771546,00000570,false,Rx,0,8,00,00,85,00,00,00,00,00,
257871538,00000570,false,Rx,0,8,00,00,85,00,00,00,00,00,
257971561,00000570,false,Rx,0,8,00,00,85,00,00,00,00,00,
258071562,00000570,false,Rx,0,8,00,00,85,00,00,00,00,00,
258171556,00000570,false,Rx,0,8,00,00,85,00,00,00,00,00,
258271546,00000570,false,Rx,0,8,00,00,85,00,00,00,00,00,
258371559,00000570,false,Rx,0,8,00,00,85,00,00,00,00,00,
258471769,00000570,false,Rx,0,8,00,00,85,00,05,00,00,00,
258571820,00000570,false,Rx,0,8,00,04,85,00,0B,02,00,00,
258671815,00000570,false,Rx,0,8,00,0B,85,00,0E,04,00,00,
258771804,00000570,false,Rx,0,8,00,12,85,00,11,05,00,00,
258871798,00000570,false,Rx,0,8,00,19,85,00,14,07,00,00,
258971789,00000570,false,Rx,0,8,00,20,85,00,17,08,00,00,
259071779,00000570,false,Rx,0,8,00,38,85,00,1A,09,00,00,
259171769,00000570,false,Rx,0,8,00,42,85,00,1A,07,00,00,
259271811,00000570,false,Rx,0,8,00,42,85,00,1A,06,00,00,
259371989,00000570,false,Rx,0,8,00,45,85,00,1B,05,00,00,
259471979,00000570,false,Rx,0,8,00,58,85,00,22,06,00,00,
259571968,00000570,false,Rx,0,8,00,67,85,00,2B,07,00,00,
259671949,00000570,false,Rx,0,8,00,71,85,00,33,0A,00,00,
259771950,00000570,false,Rx,0,8,00,79,85,00,38,0D,00,00,
259871994,00000570,false,Rx,0,8,00,7F,85,00,3D,10,00,00,
259971980,00000570,false,Rx,0,8,00,84,85,00,41,13,00,00,
260071990,00000570,false,Rx,0,8,00,88,85,00,44,16,00,00,
260171975,00000570,false,Rx,0,8,00,8B,85,00,47,19,00,00,
260271969,00000570,false,Rx,0,8,00,8E,85,00,4A,1C,00,00,
260371959,00000570,false,Rx,0,8,00,90,85,00,4C,1E,00,00,
260471949,00000570,false,Rx,0,8,00,92,85,00,4E,21,00,00,
260572001,00000570,false,Rx,0,8,00,94,85,00,50,23,00,00,
260672043,00000570,false,Rx,0,8,00,96,85,00,51,25,00,00,
260772084,00000570,false,Rx,0,8,00,87,85,00,56,27,00,00,
260871980,00000570,false,Rx,0,8,00,4F,85,00,35,21,00,00,
260971970,00000570,false,Rx,0,8,00,4C,85,00,24,19,00,00,
261071959,00000570,false,Rx,0,8,00,4E,85,00,21,14,00,00,
261171964,00000570,false,Rx,0,8,00,4F,85,00,21,10,00,00,
261272001,00000570,false,Rx,0,8,00,4F,85,00,21,0D,00,00,
261371991,00000570,false,Rx,0,8,00,4F,85,00,21,0B,00,00,
261471980,00000570,false,Rx,0,8,00,4F,85,00,21,09,00,00,
261571980,00000570,false,Rx,0,8,00,4F,85,00,21,08,00,00,
261671975,00000570,false,Rx,0,8,00,4F,85,00,21,07,00,00,
261771965,00000570,false,Rx,0,8,00,4F,85,00,21,07,00,00,
261872006,00000570,false,Rx,0,8,00,51,85,00,22,06,00,00,
261972010,00000570,false,Rx,0,8,00,57,85,00,24,07,00,00,
262072000,00000570,false,Rx,0,8,00,5D,85,00,27,07,00,00,
262171995,00000570,false,Rx,0,8,00,62,85,00,2A,08,00,00,
262271975,00000570,false,Rx,0,8,00,68,85,00,2E,09,00,00,
262371964,00000570,false,Rx,0,8,00,6D,85,00,31,0B,00,00,
262471968,00000570,false,Rx,0,8,00,72,85,00,34,0C,00,00,
262572011,00000570,false,Rx,0,8,00,77,85,00,38,0E,00,00,
262672015,00000570,false,Rx,0,8,00,7B,85,00,3B,10,00,00,
262772001,00000570,false,Rx,0,8,00,80,85,00,3E,13,00,00,
262872042,00000570,false,Rx,0,8,00,84,85,00,42,15,00,00,
262971980,00000570,false,Rx,0,8,00,88,85,00,45,18,00,00,
263071969,00000570,false,Rx,0,8,00,8B,85,00,48,1A,00,00,
263172015,00000570,false,Rx,0,8,00,8E,85,00,4A,1D,00,00,
263272022,00000570,false,Rx,0,8,00,91,85,00,4C,1F,00,00,
263372011,00000570,false,Rx,0,8,00,92,85,00,4E,22,00,00,
263472001,00000570,false,Rx,0,8,00,94,85,00,50,24,00,00,
263572053,00000570,false,Rx,0,8,00,95,85,00,52,26,00,00,
263671982,00000570,false,Rx,0,8,00,83,85,00,55,27,00,00,
263771617,00000570,false,Rx,0,8,00,1E,85,00,1B,13,00,00,
263871619,00000570,false,Rx,0,8,00,02,85,00,01,01,00,00,
263971608,00000570,false,Rx,0,8,00,00,85,00,00,00,00,00,
264071608,00000570,false,Rx,0,8,00,00,85,00,00,00,00,00,
264171601,00000570,false,Rx,0,8,00,00,85,00,00,00,00,00,
264271603,00000570,false,Rx,0,8,00,00,85,00,00,00,00,00,
264371603,00000570,false,Rx,0,8,00,00,85,00,00,00,00,00,
264471607,00000570,false,Rx,0,8,00,00,85,00,00,00,00,00,
264571628,00000570,false,Rx,0,8,00,00,85,00,00,00,00,00,
264671611,00000570,false,Rx,0,8,00,00,85,00,00,00,00,00,
264771613,00000570,false,Rx,0,8,00,00,85,00,00,00,00,00,
264871613,00000570,false,Rx,0,8,00,00,85,00,00,00,00,00,
264971844,00000570,false,Rx,0,8,00,00,85,00,05,00,00,00,
265071834,00000570,false,Rx,0,8,00,04,85,00,0B,02,00,00,
265171879,00000570,false,Rx,0,8,00,0B,85,00,0E,04,00,00,
265271866,00000570,false,Rx,0,8,00,12,85,00,11,05,00,00,
265371856,00000570,false,Rx,0,8,00,19,85,00,14,07,00,00,
265471856,00000570,false,Rx,0,8,00,20,85,00,17,08,00,00,
265571846,00000570,false,Rx,0,8,00,38,85,00,1A,09,00,00,
265671837,00000570,false,Rx,0,8,00,41,85,00,1A,07,00,00,
265771877,00000570,false,Rx,0,8,00,41,85,00,1A,06,00,00,
265872094,00000570,false,Rx,0,8,00,45,85,00,1B,05,00,00,
265972037,00000570,false,Rx,0,8,00,57,85,00,22,06,00,00,
266072079,00000570,false,Rx,0,8,00,67,85,00,2C,07,00,00,
266172018,00000570,false,Rx,0,8,00,71,85,00,32,0A,00,00,
266272007,00000570,false,Rx,0,8,00,79,85,00,38,0D,00,00,
266372017,00000570,false,Rx,0,8,00,7F,85,00,3D,10,00,00,
266472053,00000570,false,Rx,0,8,00,83,85,00,41,13,00,00,
266572043,00000570,false,Rx,0,8,00,88,85,00,44,16,00,00,
266672035,00000570,false,Rx,0,8,00,8B,85,00,47,19,00,00,
266772032,00000570,false,Rx,0,8,00,8E,85,00,4A,1C,00,00,
266872021,00000570,false,Rx,0,8,00,90,85,00,4C,1F,00,00,
266972016,00000570,false,Rx,0,8,00,92,85,00,4E,21,00,00,
267072059,00000570,false,Rx,0,8,00,94,85,00,50,23,00,00,
267172049,00000570,false,Rx,0,8,00,95,85,00,51,25,00,00,
267272050,00000570,false,Rx,0,8,00,79,85,00,4C,26,00,00,
267372043,00000570,false,Rx,0,8,00,49,85,00,2B,1E,00,00,
267472026,00000570,false,Rx,0,8,00,4D,85,00,22,17,00,00,
267572017,00000570,false,Rx,0,8,00,4E,85,00,21,12,00,00,
267672016,00000570,false,Rx,0,8,00,4E,85,00,21,0E,00,00,
267772062,00000570,false,Rx,0,8,00,4E,85,00,20,0C,00,00,
267872064,00000570,false,Rx,0,8,00,4E,85,00,20,0A,00,00,
267972046,00000570,false,Rx,0,8,00,4E,85,00,20,08,00,00,
268072047,00000570,false,Rx,0,8,00,4E,85,00,20,07,00,00,
268172037,00000570,false,Rx,0,8,00,4E,85,00,20,07,00,00,
268272032,00000570,false,Rx,0,8,00,4E,85,00,21,06,00,00,
268372074,00000570,false,Rx,0,8,00,52,85,00,22,06,00,00,
268472067,00000570,false,Rx,0,8,00,59,85,00,25,07,00,00,
268572063,00000570,false,Rx,0,8,00,5E,85,00,28,07,00,00,
268672052,00000570,false,Rx,0,8,00,64,85,00,2C,08,00,00,
268772046,00000570,false,Rx,0,8,00,69,85,00,2F,0A,00,00,
268872038,00000570,false,Rx,0,8,00,6E,85,00,32,0B,00,00,
268972030,00000570,false,Rx,0,8,00,73,85,00,36,0D,00,00,
269072072,00000570,false,Rx,0,8,00,78,85,00,39,0F,00,00,
269172072,00000570,false,Rx,0,8,00,7D,85,00,3C,11,00,00,
269272067,00000570,false,Rx,0,8,00,82,85,00,40,14,00,00,
269372053,00000570,false,Rx,0,8,00,86,85,00,43,16,00,00,
269472046,00000570,false,Rx,0,8,00,8A,85,00,46,19,00,00,
269572032,00000570,false,Rx,0,8,00,8C,85,00,49,1B,00,00,
269672042,00000570,false,Rx,0,8,00,8F,85,00,4B,1E,00,00,
269772077,00000570,false,Rx,0,8,00,91,85,00,4D,20,00,00,
269872073,00000570,false,Rx,0,8,00,94,85,00,4F,23,00,00,
269972063,00000570,false,Rx,0,8,00,95,85,00,51,25,00,00,
270072160,00000570,false,Rx,0,8,00,8D,85,00,55,27,00,00,
270172047,00000570,false,Rx,0,8,00,52,85,00,3D,24,00,00,
270272041,00000570,false,Rx,0,8,00,3C,85,00,21,1B,00,00,
270372084,00000570,false,Rx,0,8,00,3B,85,00,1A,14,00,00,
270472084,00000570,false,Rx,0,8,00,39,85,00,17,0F,00,00,
270572073,00000570,false,Rx,0,8,00,39,85,00,16,0B,00,00,
270672073,00000570,false,Rx,0,8,00,39,85,00,16,09,00,00,
270772057,00000570,false,Rx,0,8,00,39,85,00,16,07,00,00,
270872053,00000570,false,Rx,0,8,00,39,85,00,16,05,00,00,
270972094,00000570,false,Rx,0,8,00,39,85,00,16,04,00,00,
271072098,00000570,false,Rx,0,8,00,39,85,00,16,04,00,00,
271172085,00000570,false,Rx,0,8,00,39,85,00,16,03,00,00,
271272084,00000570,false,Rx,0,8,00,3A,85,00,17,03,00,00,
271372074,00000570,false,Rx,0,8,00,43,85,00,1A,03,00,00,
271472073,00000570,false,Rx,0,8,00,4F,85,00,1F,04,00,00,
271572056,00000570,false,Rx,0,8,00,59,85,00,24,05,00,00,
271672058,00000570,false,Rx,0,8,00,60,85,00,29,06,00,00,
271772100,00000570,false,Rx,0,8,00,66,85,00,2D,08,00,00,
271872090,00000570,false,Rx,0,8,00,6C,85,00,30,09,00,00,
271972078,00000570,false,Rx,0,8,00,72,85,00,34,0B,00,00,
272072081,00000570,false,Rx,0,8,00,77,85,00,38,0E,00,00,
272172073,00000570,false,Rx,0,8,00,7C,85,00,3B,10,00,00,
272272115,00000570,false,Rx,0,8,00,81,85,00,3F,13,00,00,
272372100,00000570,false,Rx,0,8,00,86,85,00,43,15,00,00,
272472099,00000570,false,Rx,0,8,00,8A,85,00,46,18,00,00,
272572090,00000570,false,Rx,0,8,00,8C,85,00,49,1B,00,00,
272672084,00000570,false,Rx,0,8,00,8F,85,00,4B,1D,00,00,
272772125,00000570,false,Rx,0,8,00,91,85,00,4D,20,00,00,
272872068,00000570,false,Rx,0,8,00,93,85,00,4F,22,00,00,
272972068,00000570,false,Rx,0,8,00,95,85,00,50,24,00,00,
273072162,00000570,false,Rx,0,8,00,92,85,00,54,26,00,00,
273172100,00000570,false,Rx,0,8,00,7C,85,00,51,27,00,00,
273271696,00000570,false,Rx,0,8,00,0C,85,00,0B,06,00,00,
273371691,00000570,false,Rx,0,8,00,01,85,00,01,00,00,00,
273471691,00000570,false,Rx,0,8,00,00,85,00,00,00,00,00,
273571691,00000570,false,Rx,0,8,00,00,85,00,00,00,00,00,
273671711,00000570,false,Rx,0,8,00,00,85,00,00,00,00,00,
273771711,00000570,false,Rx,0,8,00,00,85,00,00,00,00,00,
273871695,00000570,false,Rx,0,8,00,00,85,00,00,00,00,00,
273971696,00000570,false,Rx,0,8,00,00,85,00,00,00,00,00,
274071696,00000570,false,Rx,0,8,00,00,85,00,00,00,00,00,
274171696,00000570,false,Rx,0,8,00,00,85,00,00,00,00,00,
274271695,00000570,false,Rx,0,8,00,00,85,00,00,00,00,00,
274371731,00000570,false,Rx,0,8,00,00,85,00,00,00,00,00,
274472001,00000570,false,Rx,0,8,00,01,85,00,08,01,00,00,
274571949,00000570,false,Rx,0,8,00,07,85,00,0C,03,00,00,
274671939,00000570,false,Rx,0,8,00,0E,85,00,0F,04,00,00,
274771928,00000570,false,Rx,0,8,00,15,85,00,12,06,00,00,
274871974,00000570,false,Rx,0,8,00,1B,85,00,15,07,00,00,
274971965,00000570,false,Rx,0,8,00,22,85,00,18,09,00,00,
275071954,00000570,false,Rx,0,8,00,40,85,00,1A,08,00,00,
275171949,00000570,false,Rx,0,8,00,41,85,00,1A,07,00,00,
275271949,00000570,false,Rx,0,8,00,41,85,00,1A,06,00,00,
275372098,00000570,false,Rx,0,8,00,4B,85,00,1D,05,00,00,
275472098,00000570,false,Rx,0,8,00,5F,85,00,26,06,00,00,
275572090,00000570,false,Rx,0,8,00,6B,85,00,2F,08,00,00,
275672136,00000570,false,Rx,0,8,00,75,85,00,35,0B,00,00,
275772125,00000570,false,Rx,0,8,00,7C,85,00,3A,0E,00,00,
275872126,00000570,false,Rx,0,8,00,81,85,00,3F,11,00,00,
275972105,00000570,false,Rx,0,8,00,85,85,00,42,14,00,00,
276072094,00000570,false,Rx,0,8,00,89,85,00,45,17,00,00,
276172094,00000570,false,Rx,0,8,00,8C,85,00,48,1A,00,00,
276272145,00000570,false,Rx,0,8,00,8F,85,00,4B,1D,00,00,
276372129,00000570,false,Rx,0,8,00,91,85,00,4D,1F,00,00,
276472131,00000570,false,Rx,0,8,00,93,85,00,4F,22,00,00,
276572173,00000570,false,Rx,0,8,00,95,85,00,50,24,00,00,
276672121,00000570,false,Rx,0,8,00,96,85,00,52,26,00,00,
276772109,00000570,false,Rx,0,8,00,98,85,00,53,28,00,00,
276872093,00000570,false,Rx,0,8,00,99,85,00,54,2A,00,00,
276972146,00000570,false,Rx,0,8,00,9A,85,00,56,2B,00,00,
277072135,00000570,false,Rx,0,8,00,9B,85,00,57,2D,00,00,
277172135,00000570,false,Rx,0,8,00,9C,85,00,58,2E,00,00,
277272125,00000570,false,Rx,0,8,00,9D,85,00,58,30,00,00,
277372118,00000570,false,Rx,0,8,00,9E,85,00,59,31,00,00,
277472110,00000570,false,Rx,0,8,00,9E,85,00,5A,32,00,00,
277572214,00000570,false,Rx,0,8,00,9D,85,00,5B,33,00,00,
277672203,00000570,false,Rx,0,8,00,9A,85,00,5C,33,00,00,
277772203,00000570,false,Rx,0,8,00,91,85,00,5D,34,00,00,
277872187,00000570,false,Rx,0,8,00,91,85,00,5E,34,00,00,
277971732,00000570,false,Rx,0,8,00,21,85,00,22,1A,00,00,
278071721,00000570,false,Rx,0,8,00,01,85,00,02,01,00,00,
278171732,00000570,false,Rx,0,8,00,00,85,00,00,00,00,00,
278271753,00000570,false,Rx,0,8,00,00,85,00,00,00,00,00,
278371746,00000570,false,Rx,0,8,00,00,85,00,00,00,00,00,
278471737,00000570,false,Rx,0,8,00,00,85,00,00,00,00,00,
278571740,00000570,false,Rx,0,8,00,00,85,00,00,00,00,00,
278671732,00000570,false,Rx,0,8,00,00,85,00,00,00,00,00,
278771742,00000570,false,Rx,0,8,00,00,85,00,00,00,00,00,
278871736,00000570,false,Rx,0,8,00,00,85,00,00,00,00,00,
278971757,00000570,false,Rx,0,8,00,00,85,00,00,00,00,00,
279071760,00000570,false,Rx,0,8,00,00,85,00,00,00,00,00,
279171987,00000570,false,Rx,0,8,00,00,85,00,05,00,00,00,
279271978,00000570,false,Rx,0,8,00,04,85,00,0B,02,00,00,
279371979,00000570,false,Rx,0,8,00,0B,85,00,0E,04,00,00,
279471970,00000570,false,Rx,0,8,00,12,85,00,11,05,00,00,
279572011,00000570,false,Rx,0,8,00,19,85,00,14,07,00,00,
279672011,00000570,false,Rx,0,8,00,20,85,00,17,08,00,00,
279771990,00000570,false,Rx,0,8,00,36,85,00,1A,09,00,00,
279871984,00000570,false,Rx,0,8,00,41,85,00,1A,07,00,00,
279971980,00000570,false,Rx,0,8,00,41,85,00,1A,06,00,00,
280072135,00000570,false,Rx,0,8,00,44,85,00,1B,05,00,00,
280172135,00000570,false,Rx,0,8,00,57,85,00,22,06,00,00,
280272177,00000570,false,Rx,0,8,00,67,85,00,2B,07,00,00,
280372223,00000570,false,Rx,0,8,00,71,85,00,32,0A,00,00,
280472172,00000570,false,Rx,0,8,00,79,85,00,38,0D,00,00,
280572162,00000570,false,Rx,0,8,00,7F,85,00,3D,10,00,00,
280672145,00000570,false,Rx,0,8,00,83,85,00,41,13,00,00,
280772136,00000570,false,Rx,0,8,00,87,85,00,44,16,00,00,
280872182,00000570,false,Rx,0,8,00,8B,85,00,47,19,00,00,
280972172,00000570,false,Rx,0,8,00,8D,85,00,49,1C,00,00,
281072172,00000570,false,Rx,0,8,00,90,85,00,4C,1E,00,00,
281172165,00000570,false,Rx,0,8,00,92,85,00,4E,21,00,00,
281272157,00000570,false,Rx,0,8,00,94,85,00,50,23,00,00,
281372150,00000570,false,Rx,0,8,00,95,85,00,51,25,00,00,
281472192,00000570,false,Rx,0,8,00,97,85,00,53,27,00,00,
281572181,00000570,false,Rx,0,8,00,98,85,00,54,29,00,00,
281672177,00000570,false,Rx,0,8,00,9A,85,00,55,2B,00,00,
281772177,00000570,false,Rx,0,8,00,9B,85,00,56,2C,00,00,
281872160,00000570,false,Rx,0,8,00,9C,85,00,57,2E,00,00,
281972156,00000570,false,Rx,0,8,00,9D,85,00,58,2F,00,00,
282072156,00000570,false,Rx,0,8,00,9D,85,00,59,30,00,00,
282172251,00000570,false,Rx,0,8,00,98,85,00,5B,31,00,00,
282272188,00000570,false,Rx,0,8,00,73,85,00,4D,2F,00,00,
282371776,00000570,false,Rx,0,8,00,06,85,00,06,03,00,00,
282471778,00000570,false,Rx,0,8,00,00,85,00,00,00,00,00,
282571779,00000570,false,Rx,0,8,00,00,85,00,00,00,00,00,
282671773,00000570,false,Rx,0,8,00,00,85,00,00,00,00,00,
282771773,00000570,false,Rx,0,8,00,00,85,00,00,00,00,00,
282871798,00000570,false,Rx,0,8,00,00,85,00,00,00,00,00,
282971789,00000570,false,Rx,0,8,00,00,85,00,00,00,00,00,
283071780,00000570,false,Rx,0,8,00,00,85,00,00,00,00,00,
283171779,00000570,false,Rx,0,8,00,00,85,00,00,00,00,00,
283271780,00000570,false,Rx,0,8,00,00,85,00,00,00,00,00,
283371793,00000570,false,Rx,0,8,00,00,85,00,00,00,00,00,
283472053,00000570,false,Rx,0,8,00,00,85,00,02,00,00,00,
283572042,00000570,false,Rx,0,8,00,03,85,00,0A,02,00,00,
283672043,00000570,false,Rx,0,8,00,09,85,00,0D,03,00,00,
283772022,00000570,false,Rx,0,8,00,10,85,00,10,05,00,00,
283872067,00000570,false,Rx,0,8,00,17,85,00,13,06,00,00,
283972016,00000570,false,Rx,0,8,00,1E,85,00,16,08,00,00,
284072006,00000570,false,Rx,0,8,00,2B,85,00,19,09,00,00,
284172052,00000570,false,Rx,0,8,00,40,85,00,1A,08,00,00,
284272042,00000570,false,Rx,0,8,00,41,85,00,1A,06,00,00,
284372208,00000570,false,Rx,0,8,00,41,85,00,1A,05,00,00,
284472197,00000570,false,Rx,0,8,00,50,85,00,1F,05,00,00,
284572188,00000570,false,Rx,0,8,00,63,85,00,29,07,00,00,
284672182,00000570,false,Rx,0,8,00,6E,85,00,30,09,00,00,
284772224,00000570,false,Rx,0,8,00,76,85,00,37,0C,00,00,
284872224,00000570,false,Rx,0,8,00,7D,85,00,3B,0F,00,00,
284972213,00000570,false,Rx,0,8,00,82,85,00,40,12,00,00,
285072204,00000570,false,Rx,0,8,00,86,85,00,43,15,00,00,
285172250,00000570,false,Rx,0,8,00,8A,85,00,46,18,00,00,
285272239,00000570,false,Rx,0,8,00,8D,85,00,49,1B,00,00,
285372187,00000570,false,Rx,0,8,00,8F,85,00,4B,1E,00,00,
285472229,00000570,false,Rx,0,8,00,91,85,00,4D,20,00,00,
285572219,00000570,false,Rx,0,8,00,93,85,00,4F,22,00,00,
285672212,00000570,false,Rx,0,8,00,95,85,00,51,25,00,00,
285772206,00000570,false,Rx,0,8,00,97,85,00,52,27,00,00,
285872206,00000570,false,Rx,0,8,00,98,85,00,54,29,00,00,
285972240,00000570,false,Rx,0,8,00,99,85,00,55,2A,00,00,
286072188,00000570,false,Rx,0,8,00,9A,85,00,56,2C,00,00,
286172276,00000570,false,Rx,0,8,00,9C,85,00,57,2E,00,00,
286272224,00000570,false,Rx,0,8,00,9D,85,00,58,2F,00,00,
286372212,00000570,false,Rx,0,8,00,9D,85,00,59,30,00,00,
286472270,00000570,false,Rx,0,8,00,9B,85,00,5A,31,00,00,
286572197,00000570,false,Rx,0,8,00,76,85,00,4E,30,00,00,
286671839,00000570,false,Rx,0,8,00,0E,85,00,08,05,00,00,
286771841,00000570,false,Rx,0,8,00,01,85,00,00,00,00,00,
286871830,00000570,false,Rx,0,8,00,00,85,00,00,00,00,00,
286971825,00000570,false,Rx,0,8,00,00,85,00,00,00,00,00,
287071814,00000570,false,Rx,0,8,00,00,85,00,00,00,00,00,
287171819,00000570,false,Rx,0,8,00,00,85,00,00,00,00,00,
287271815,00000570,false,Rx,0,8,00,00,85,00,00,00,00,00,
287371825,00000570,false,Rx,0,8,00,00,85,00,00,00,00,00,
287471835,00000570,false,Rx,0,8,00,00,85,00,00,00,00,00,
287571835,00000570,false,Rx,0,8,00,00,85,00,00,00,00,00,
287671829,00000570,false,Rx,0,8,00,00,85,00,00,00,00,00,
287772068,00000570,false,Rx,0,8,00,00,85,00,00,00,00,00,
287872059,00000570,false,Rx,0,8,00,02,85,00,09,01,00,00,
287972042,00000570,false,Rx,0,8,00,08,85,00,0D,03,00,00,
288072094,00000570,false,Rx,0,8,00,0F,85,00,0F,04,00,00,
288172077,00000570,false,Rx,0,8,00,15,85,00,12,06,00,00,
288272125,00000570,false,Rx,0,8,00,1C,85,00,15,07,00,00,
288372063,00000570,false,Rx,0,8,00,23,85,00,19,09,00,00,
288472068,00000570,false,Rx,0,8,00,3F,85,00,1A,08,00,00,
288572059,00000570,false,Rx,0,8,00,41,85,00,1A,07,00,00,
288672269,00000570,false,Rx,0,8,00,41,85,00,1A,05,00,00,
288772259,00000570,false,Rx,0,8,00,4C,85,00,1E,05,00,00,
288872260,00000570,false,Rx,0,8,00,60,85,00,27,06,00,00,
288972251,00000570,false,Rx,0,8,00,6C,85,00,2F,08,00,00,
289072239,00000570,false,Rx,0,8,00,75,85,00,36,0B,00,00,
289172230,00000570,false,Rx,0,8,00,7C,85,00,3B,0E,00,00,
289272228,00000570,false,Rx,0,8,00,81,85,00,3F,11,00,00,
289372261,00000570,false,Rx,0,8,00,85,85,00,43,14,00,00,
289472265,00000570,false,Rx,0,8,00,89,85,00,46,17,00,00,
289572256,00000570,false,Rx,0,8,00,8C,85,00,48,1A,00,00,
289672248,00000570,false,Rx,0,8,00,8F,85,00,4B,1D,00,00,
289772293,00000570,false,Rx,0,8,00,91,85,00,4D,20,00,00,
289872229,00000570,false,Rx,0,8,00,93,85,00,4F,22,00,00,
289972234,00000570,false,Rx,0,8,00,94,85,00,50,24,00,00,
290072266,00000570,false,Rx,0,8,00,96,85,00,52,26,00,00,
290172269,00000570,false,Rx,0,8,00,98,85,00,53,28,00,00,
290272261,00000570,false,Rx,0,8,00,99,85,00,55,2A,00,00,
290372251,00000570,false,Rx,0,8,00,9A,85,00,56,2C,00,00,
290472295,00000570,false,Rx,0,8,00,9B,85,00,57,2D,00,00,
290572239,00000570,false,Rx,0,8,00,9C,85,00,58,2E,00,00,
290672272,00000570,false,Rx,0,8,00,9D,85,00,59,30,00,00,
290772385,00000570,false,Rx,0,8,00,9C,85,00,5A,31,00,00,
290872323,00000570,false,Rx,0,8,00,99,85,00,5B,32,00,00,
290972265,00000570,false,Rx,0,8,00,90,85,00,5C,32,00,00,
291072255,00000570,false,Rx,0,8,00,4C,85,00,33,29,00,00,
291172257,00000570,false,Rx,0,8,00,55,85,00,27,1F,00,00,
291272238,00000570,false,Rx,0,8,00,56,85,00,25,18,00,00,
291372292,00000570,false,Rx,0,8,00,55,85,00,24,13,00,00,
291472285,00000570,false,Rx,0,8,00,55,85,00,24,10,00,00,
291572271,00000570,false,Rx,0,8,00,54,85,00,24,0D,00,00,
291672270,00000570,false,Rx,0,8,00,54,85,00,24,0B,00,00,
291772262,00000570,false,Rx,0,8,00,54,85,00,24,0A,00,00,
291872251,00000570,false,Rx,0,8,00,54,85,00,24,09,00,00,
291972295,00000570,false,Rx,0,8,00,54,85,00,24,08,00,00,
292072281,00000570,false,Rx,0,8,00,56,85,00,25,08,00,00,
292172282,00000570,false,Rx,0,8,00,5B,85,00,26,08,00,00,
292272282,00000570,false,Rx,0,8,00,60,85,00,29,08,00,00,
292372271,00000570,false,Rx,0,8,00,65,85,00,2C,09,00,00,
292472263,00000570,false,Rx,0,8,00,6A,85,00,2F,0A,00,00,
292572260,00000570,false,Rx,0,8,00,6E,85,00,32,0C,00,00,
292672303,00000570,false,Rx,0,8,00,73,85,00,35,0D,00,00,
292772292,00000570,false,Rx,0,8,00,78,85,00,38,0F,00,00,
292872292,00000570,false,Rx,0,8,00,7C,85,00,3C,11,00,00,
292972275,00000570,false,Rx,0,8,00,81,85,00,3F,13,00,00,
293072271,00000570,false,Rx,0,8,00,85,85,00,42,16,00,00,
293172261,00000570,false,Rx,0,8,00,89,85,00,46,18,00,00,
293272265,00000570,false,Rx,0,8,00,8C,85,00,48,1B,00,00,
293372307,00000570,false,Rx,0,8,00,8F,85,00,4B,1D,00,00,
293472301,00000570,false,Rx,0,8,00,91,85,00,4D,20,00,00,
293572334,00000570,false,Rx,0,8,00,93,85,00,4F,22,00,00,
293672282,00000570,false,Rx,0,8,00,95,85,00,50,24,00,00,
293772266,00000570,false,Rx,0,8,00,96,85,00,52,26,00,00,
293872266,00000570,false,Rx,0,8,00,98,85,00,53,28,00,00,
293972308,00000570,false,Rx,0,8,00,99,85,00,55,2A,00,00,
294072308,00000570,false,Rx,0,8,00,9A,85,00,56,2B,00,00,
294172298,00000570,false,Rx,0,8,00,9B,85,00,57,2D,00,00,
294272292,00000570,false,Rx,0,8,00,9C,85,00,58,2E,00,00,
294372281,00000570,false,Rx,0,8,00,9D,85,00,59,30,00,00,
294472336,00000570,false,Rx,0,8,00,9C,85,00,59,31,00,00,
294572375,00000570,false,Rx,0,8,00,95,85,00,5B,31,00,00,
294672313,00000570,false,Rx,0,8,00,5C,85,00,42,2D,00,00,
294771897,00000570,false,Rx,0,8,00,06,85,00,06,04,00,00,
294871898,00000570,false,Rx,0,8,00,00,85,00,00,00,00,00,
294971891,00000570,false,Rx,0,8,00,00,85,00,00,00,00,00,
295071897,00000570,false,Rx,0,8,00,00,85,00,00,00,00,00,
295171898,00000570,false,Rx,0,8,00,00,85,00,00,00,00,00,
295271922,00000570,false,Rx,0,8,00,00,85,00,00,00,00,00,
295371919,00000570,false,Rx,0,8,00,00,85,00,00,00,00,00,
295471911,00000570,false,Rx,0,8,00,00,85,00,00,00,00,00,
295571897,00000570,false,Rx,0,8,00,00,85,00,00,00,00,00,
295671897,00000570,false,Rx,0,8,00,00,85,00,00,00,00,00,
295771913,00000570,false,Rx,0,8,00,00,85,00,00,00,00,00,
295872173,00000570,false,Rx,0,8,00,00,85,00,02,00,00,00,
295972163,00000570,false,Rx,0,8,00,03,85,00,0A,02,00,00,
296072161,00000570,false,Rx,0,8,00,09,85,00,0D,03,00,00,
296172151,00000570,false,Rx,0,8,00,10,85,00,10,05,00,00,
296272146,00000570,false,Rx,0,8,00,17,85,00,13,06,00,00,
296372135,00000570,false,Rx,0,8,00,1E,85,00,16,08,00,00,
296472126,00000570,false,Rx,0,8,00,2A,85,00,19,09,00,00,
296572167,00000570,false,Rx,0,8,00,40,85,00,1A,08,00,00,
296672167,00000570,false,Rx,0,8,00,41,85,00,1A,06,00,00,
296772333,00000570,false,Rx,0,8,00,41,85,00,1A,05,00,00,
296872312,00000570,false,Rx,0,8,00,50,85,00,1F,05,00,00,
296972304,00000570,false,Rx,0,8,00,62,85,00,29,07,00,00,
297072302,00000570,false,Rx,0,8,00,6E,85,00,30,09,00,00,
297172302,00000570,false,Rx,0,8,00,76,85,00,37,0C,00,00,
297272347,00000570,false,Rx,0,8,00,7D,85,00,3C,0F,00,00,
297372343,00000570,false,Rx,0,8,00,82,85,00,40,12,00,00,
297472334,00000570,false,Rx,0,8,00,86,85,00,43,15,00,00,
297572323,00000570,false,Rx,0,8,00,8A,85,00,46,18,00,00,
297672364,00000570,false,Rx,0,8,00,8D,85,00,49,1B,00,00,
297772306,00000570,false,Rx,0,8,00,8F,85,00,4B,1E,00,00,
297872353,00000570,false,Rx,0,8,00,92,85,00,4D,20,00,00,
297972344,00000570,false,Rx,0,8,00,93,85,00,4F,22,00,00,
298072333,00000570,false,Rx,0,8,00,95,85,00,51,25,00,00,
298172323,00000570,false,Rx,0,8,00,97,85,00,52,27,00,00,
298272326,00000570,false,Rx,0,8,00,98,85,00,54,29,00,00,
298372312,00000570,false,Rx,0,8,00,99,85,00,55,2A,00,00,
298472313,00000570,false,Rx,0,8,00,9A,85,00,56,2C,00,00,
298572359,00000570,false,Rx,0,8,00,9C,85,00,57,2D,00,00,
298672349,00000570,false,Rx,0,8,00,9D,85,00,58,2F,00,00,
298772341,00000570,false,Rx,0,8,00,9D,85,00,59,30,00,00,
298872437,00000570,false,Rx,0,8,00,9D,85,00,5A,31,00,00,
298972385,00000570,false,Rx,0,8,00,9A,85,00,5C,32,00,00,
299072313,00000570,false,Rx,0,8,00,86,85,00,55,31,00,00,
299171970,00000570,false,Rx,0,8,00,0D,85,00,0E,0A,00,00,
299271950,00000570,false,Rx,0,8,00,01,85,00,01,00,00,00,
299371949,00000570,false,Rx,0,8,00,00,85,00,00,00,00,00,
299471938,00000570,false,Rx,0,8,00,00,85,00,00,00,00,00,
299571938,00000570,false,Rx,0,8,00,00,85,00,00,00,00,00,
299671939,00000570,false,Rx,0,8,00,00,85,00,00,00,00,00,
299771942,00000570,false,Rx,0,8,00,00,85,00,00,00,00,00,
299871970,00000570,false,Rx,0,8,00,00,85,00,00,00,00,00,
299971959,00000570,false,Rx,0,8,00,00,85,00,00,00,00,00,
300071950,00000570,false,Rx,0,8,00,00,85,00,00,00,00,00,
300171950,00000570,false,Rx,0,8,00,00,85,00,00,00,00,00,
300271952,00000570,false,Rx,0,8,00,00,85,00,00,00,00,00,
300372219,00000570,false,Rx,0,8,00,00,85,00,08,01,00,00,
300472167,00000570,false,Rx,0,8,00,07,85,00,0C,03,00,00,
300572265,00000570,false,Rx,0,8,00,0E,85,00,0F,04,00,00,
300672202,00000570,false,Rx,0,8,00,14,85,00,11,06,00,00,
300772193,00000570,false,Rx,0,8,00,1B,85,00,15,07,00,00,
300872186,00000570,false,Rx,0,8,00,20,85,00,18,09,00,00,
300972177,00000570,false,Rx,0,8,00,3E,85,00,1A,08,00,00,
301072172,00000570,false,Rx,0,8,00,41,85,00,1A,07,00,00,
301172223,00000570,false,Rx,0,8,00,41,85,00,1A,06,00,00,
301272381,00000570,false,Rx,0,8,00,49,85,00,1C,05,00,00,
301372370,00000570,false,Rx,0,8,00,5D,85,00,25,06,00,00,
301472359,00000570,false,Rx,0,8,00,6B,85,00,2E,08,00,00,
301572354,00000570,false,Rx,0,8,00,74,85,00,34,0B,00,00,
301672354,00000570,false,Rx,0,8,00,7B,85,00,3A,0D,00,00,
301772347,00000570,false,Rx,0,8,00,80,85,00,3E,11,00,00,
301872385,00000570,false,Rx,0,8,00,85,85,00,42,14,00,00,
301972375,00000570,false,Rx,0,8,00,89,85,00,45,17,00,00,
302072368,00000570,false,Rx,0,8,00,8C,85,00,48,1A,00,00,
302172370,00000570,false,Rx,0,8,00,8F,85,00,4A,1C,00,00,
302272362,00000570,false,Rx,0,8,00,91,85,00,4C,1F,00,00,
302372350,00000570,false,Rx,0,8,00,93,85,00,4E,21,00,00,
302472401,00000570,false,Rx,0,8,00,95,85,00,50,24,00,00,
302572394,00000570,false,Rx,0,8,00,97,85,00,52,26,00,00,
302672375,00000570,false,Rx,0,8,00,98,85,00,53,28,00,00,
302772375,00000570,false,Rx,0,8,00,99,85,00,54,29,00,00,
302872365,00000570,false,Rx,0,8,00,9A,85,00,55,2B,00,00,
302972354,00000570,false,Rx,0,8,00,9B,85,00,57,2C,00,00,
303072399,00000570,false,Rx,0,8,00,9C,85,00,58,2E,00,00,
303172452,00000570,false,Rx,0,8,00,9D,85,00,58,2F,00,00,
303272401,00000570,false,Rx,0,8,00,9E,85,00,59,30,00,00,
303372435,00000570,false,Rx,0,8,00,9C,85,00,5A,31,00,00,
303472488,00000570,false,Rx,0,8,00,99,85,00,5C,32,00,00,
303572374,00000570,false,Rx,0,8,00,86,85,00,55,31,00,00,
303672365,00000570,false,Rx,0,8,00,4C,85,00,2E,26,00,00,
303772406,00000570,false,Rx,0,8,00,57,85,00,27,1D,00,00,
303872406,00000570,false,Rx,0,8,00,56,85,00,25,17,00,00,
303972395,00000570,false,Rx,0,8,00,55,85,00,24,12,00,00,
304072395,00000570,false,Rx,0,8,00,55,85,00,24,0F,00,00,
304172375,00000570,false,Rx,0,8,00,54,85,00,24,0C,00,00,
304272375,00000570,false,Rx,0,8,00,54,85,00,24,0B,00,00,
304372376,00000570,false,Rx,0,8,00,54,85,00,24,09,00,00,
304472416,00000570,false,Rx,0,8,00,54,85,00,24,09,00,00,
304572417,00000570,false,Rx,0,8,00,54,85,00,24,08,00,00,
304672396,00000570,false,Rx,0,8,00,57,85,00,25,08,00,00,
304772396,00000570,false,Rx,0,8,00,5C,85,00,27,08,00,00,
304872389,00000570,false,Rx,0,8,00,62,85,00,2A,08,00,00,
304972380,00000570,false,Rx,0,8,00,66,85,00,2D,09,00,00,
305072422,00000570,false,Rx,0,8,00,6B,85,00,30,0A,00,00,
305172415,00000570,false,Rx,0,8,00,70,85,00,33,0C,00,00,
305272406,00000570,false,Rx,0,8,00,75,85,00,36,0E,00,00,
305372400,00000570,false,Rx,0,8,00,79,85,00,39,0F,00,00,
305472400,00000570,false,Rx,0,8,00,7E,85,00,3D,11,00,00,
305572393,00000570,false,Rx,0,8,00,83,85,00,40,14,00,00,
305672383,00000570,false,Rx,0,8,00,87,85,00,43,16,00,00,
305772426,00000570,false,Rx,0,8,00,8A,85,00,46,19,00,00,
305872419,00000570,false,Rx,0,8,00,8D,85,00,49,1B,00,00,
305972411,00000570,false,Rx,0,8,00,90,85,00,4B,1E,00,00,
306072412,00000570,false,Rx,0,8,00,92,85,00,4D,20,00,00,
306172385,00000570,false,Rx,0,8,00,94,85,00,4F,22,00,00,
306272385,00000570,false,Rx,0,8,00,95,85,00,51,24,00,00,
306372389,00000570,false,Rx,0,8,00,97,85,00,52,26,00,00,
306472437,00000570,false,Rx,0,8,00,98,85,00,53,28,00,00,
306572427,00000570,false,Rx,0,8,00,9A,85,00,55,2A,00,00,
306672416,00000570,false,Rx,0,8,00,9B,85,00,56,2B,00,00,
306772457,00000570,false,Rx,0,8,00,9B,85,00,57,2D,00,00,
306872396,00000570,false,Rx,0,8,00,9C,85,00,58,2E,00,00,
306972396,00000570,false,Rx,0,8,00,9D,85,00,58,2F,00,00,
307072551,00000570,false,Rx,0,8,00,9E,85,00,59,30,00,00,
307172541,00000570,false,Rx,0,8,00,9C,85,00,5B,31,00,00,
307272488,00000570,false,Rx,0,8,00,94,85,00,5C,32,00,00,
307372419,00000570,false,Rx,0,8,00,3C,85,00,32,2A,00,00,
307472422,00000570,false,Rx,0,8,00,41,85,00,20,1F,00,00,
307572401,00000570,false,Rx,0,8,00,40,85,00,1B,17,00,00,
307672401,00000570,false,Rx,0,8,00,3E,85,00,19,11,00,00,
307772443,00000570,false,Rx,0,8,00,3D,85,00,18,0D,00,00,
307872435,00000570,false,Rx,0,8,00,3C,85,00,18,0A,00,00,
307972427,00000570,false,Rx,0,8,00,3C,85,00,18,08,00,00,
308072416,00000570,false,Rx,0,8,00,3C,85,00,18,06,00,00,
308172416,00000570,false,Rx,0,8,00,3C,85,00,18,05,00,00,
308272405,00000570,false,Rx,0,8,00,3C,85,00,18,04,00,00,
308372452,00000570,false,Rx,0,8,00,3C,85,00,18,04,00,00,
308472453,00000570,false,Rx,0,8,00,40,85,00,19,03,00,00,
308572443,00000570,false,Rx,0,8,00,4A,85,00,1D,04,00,00,
308672437,00000570,false,Rx,0,8,00,55,85,00,22,04,00,00,
308772426,00000570,false,Rx,0,8,00,5D,85,00,27,06,00,00,
308872420,00000570,false,Rx,0,8,00,64,85,00,2B,07,00,00,
308972411,00000570,false,Rx,0,8,00,6A,85,00,2F,09,00,00,
309072463,00000570,false,Rx,0,8,00,6F,85,00,32,0A,00,00,
309172447,00000570,false,Rx,0,8,00,75,85,00,36,0D,00,00,
309272447,00000570,false,Rx,0,8,00,7A,85,00,3A,0F,00,00,
309372431,00000570,false,Rx,0,8,00,7F,85,00,3D,11,00,00,
309472427,00000570,false,Rx,0,8,00,84,85,00,41,14,00,00,
309572427,00000570,false,Rx,0,8,00,88,85,00,44,17,00,00,
309672468,00000570,false,Rx,0,8,00,8B,85,00,47,19,00,00,
309772457,00000570,false,Rx,0,8,00,8E,85,00,4A,1C,00,00,
309872462,00000570,false,Rx,0,8,00,90,85,00,4C,1E,00,00,
309972443,00000570,false,Rx,0,8,00,93,85,00,4E,21,00,00,
310072443,00000570,false,Rx,0,8,00,95,85,00,50,23,00,00,
310172433,00000570,false,Rx,0,8,00,96,85,00,51,25,00,00,
310272422,00000570,false,Rx,0,8,00,98,85,00,53,27,00,00,
310372465,00000570,false,Rx,0,8,00,99,85,00,54,29,00,00,
310472466,00000570,false,Rx,0,8,00,9A,85,00,55,2A,00,00,
310572457,00000570,false,Rx,0,8,00,9B,85,00,56,2C,00,00,
310672451,00000570,false,Rx,0,8,00,9C,85,00,57,2D,00,00,
310772442,00000570,false,Rx,0,8,00,9D,85,00,58,2E,00,00,
310872443,00000570,false,Rx,0,8,00,9E,85,00,59,30,00,00,
310972535,00000570,false,Rx,0,8,00,9E,85,00,5A,31,00,00,
311072576,00000570,false,Rx,0,8,00,9C,85,00,5B,32,00,00,
311172519,00000570,false,Rx,0,8,00,9A,85,00,5C,32,00,00,
311272458,00000570,false,Rx,0,8,00,78,85,00,4F,30,00,00,
311372052,00000570,false,Rx,0,8,00,12,85,00,0D,0A,00,00,
311472052,00000570,false,Rx,0,8,00,01,85,00,01,00,00,00,
311572063,00000570,false,Rx,0,8,00,00,85,00,00,00,00,00,
311672075,00000570,false,Rx,0,8,00,00,85,00,00,00,00,00,
311772073,00000570,false,Rx,0,8,00,00,85,00,00,00,00,00,
311872063,00000570,false,Rx,0,8,00,00,85,00,00,00,00,00,
311972063,00000570,false,Rx,0,8,00,00,85,00,00,00,00,00,
312072063,00000570,false,Rx,0,8,00,00,85,00,00,00,00,00,
312172067,00000570,false,Rx,0,8,00,00,85,00,00,00,00,00,
312272088,00000570,false,Rx,0,8,00,00,85,00,00,00,00,00,
312372079,00000570,false,Rx,0,8,00,00,85,00,00,00,00,00,
312472093,00000570,false,Rx,0,8,00,00,85,00,00,00,00,00,
312572364,00000570,false,Rx,0,8,00,00,85,00,08,01,00,00,
312672307,00000570,false,Rx,0,8,00,07,85,00,0C,03,00,00,
312772351,00000570,false,Rx,0,8,00,0E,85,00,0F,04,00,00,
312872339,00000570,false,Rx,0,8,00,14,85,00,11,06,00,00,
312972328,00000570,false,Rx,0,8,00,1B,85,00,15,07,00,00,
313072328,00000570,false,Rx,0,8,00,20,85,00,18,09,00,00,
313172321,00000570,false,Rx,0,8,00,3E,85,00,1A,08,00,00,
313272313,00000570,false,Rx,0,8,00,41,85,00,1A,07,00,00,
313372303,00000570,false,Rx,0,8,00,41,85,00,1A,06,00,00,
313472468,00000570,false,Rx,0,8,00,48,85,00,1C,05,00,00,
313572457,00000570,false,Rx,0,8,00,5C,85,00,25,06,00,00,
313672503,00000570,false,Rx,0,8,00,6B,85,00,2E,08,00,00,
313772494,00000570,false,Rx,0,8,00,74,85,00,34,0B,00,00,
313872484,00000570,false,Rx,0,8,00,7B,85,00,3A,0E,00,00,
313972484,00000570,false,Rx,0,8,00,80,85,00,3E,11,00,00,
314072525,00000570,false,Rx,0,8,00,85,85,00,42,14,00,00,
314172457,00000570,false,Rx,0,8,00,89,85,00,45,17,00,00,
314272509,00000570,false,Rx,0,8,00,8C,85,00,48,1A,00,00,
314372510,00000570,false,Rx,0,8,00,8F,85,00,4A,1C,00,00,
314472488,00000570,false,Rx,0,8,00,91,85,00,4D,1F,00,00,
314572541,00000570,false,Rx,0,8,00,93,85,00,4E,21,00,00,
314672483,00000570,false,Rx,0,8,00,95,85,00,50,24,00,00,
314772474,00000570,false,Rx,0,8,00,96,85,00,52,26,00,00,
314872515,00000570,false,Rx,0,8,00,97,85,00,53,28,00,00,
314972515,00000570,false,Rx,0,8,00,99,85,00,54,2A,00,00,
315072506,00000570,false,Rx,0,8,00,9A,85,00,56,2B,00,00,
315172496,00000570,false,Rx,0,8,00,9B,85,00,57,2D,00,00,
315272497,00000570,false,Rx,0,8,00,9C,85,00,58,2E,00,00,
315372478,00000570,false,Rx,0,8,00,9D,85,00,58,2F,00,00,
315472581,00000570,false,Rx,0,8,00,9D,85,00,5A,31,00,00,
315572582,00000570,false,Rx,0,8,00,9C,85,00,5B,32,00,00,
315672627,00000570,false,Rx,0,8,00,99,85,00,5C,32,00,00,
315772505,00000570,false,Rx,0,8,00,89,85,00,59,32,00,00,
315872100,00000570,false,Rx,0,8,00,22,85,00,16,12,00,00,
315972100,00000570,false,Rx,0,8,00,02,85,00,01,01,00,00,
316072100,00000570,false,Rx,0,8,00,00,85,00,00,00,00,00,
316172104,00000570,false,Rx,0,8,00,00,85,00,00,00,00,00,
316272126,00000570,false,Rx,0,8,00,00,85,00,00,00,00,00,
316372115,00000570,false,Rx,0,8,00,00,85,00,00,00,00,00,
316472115,00000570,false,Rx,0,8,00,00,85,00,00,00,00,00,
316572104,00000570,false,Rx,0,8,00,00,85,00,00,00,00,00,
316672108,00000570,false,Rx,0,8,00,00,85,00,00,00,00,00,
316772105,00000570,false,Rx,0,8,00,00,85,00,00,00,00,00,
316872136,00000570,false,Rx,0,8,00,00,85,00,00,00,00,00,
316972136,00000570,false,Rx,0,8,00,00,85,00,00,00,00,00,
317072365,00000570,false,Rx,0,8,00,00,85,00,06,00,00,00,
317172348,00000570,false,Rx,0,8,00,05,85,00,0C,02,00,00,
317272350,00000570,false,Rx,0,8,00,0C,85,00,0E,04,00,00,
317372339,00000570,false,Rx,0,8,00,13,85,00,11,05,00,00,
317472381,00000570,false,Rx,0,8,00,1A,85,00,14,07,00,00,
317572380,00000570,false,Rx,0,8,00,20,85,00,18,08,00,00,
317672373,00000570,false,Rx,0,8,00,39,85,00,1A,09,00,00,
317772363,00000570,false,Rx,0,8,00,41,85,00,1A,07,00,00,
317872353,00000570,false,Rx,0,8,00,41,85,00,1A,06,00,00,
317972514,00000570,false,Rx,0,8,00,45,85,00,1B,05,00,00,
318072515,00000570,false,Rx,0,8,00,59,85,00,23,06,00,00,
318172549,00000570,false,Rx,0,8,00,68,85,00,2C,07,00,00,
318272550,00000570,false,Rx,0,8,00,72,85,00,33,0A,00,00,
318372540,00000570,false,Rx,0,8,00,79,85,00,39,0D,00,00,
318472592,00000570,false,Rx,0,8,00,7F,85,00,3D,10,00,00,
318572530,00000570,false,Rx,0,8,00,84,85,00,41,13,00,00,
318672520,00000570,false,Rx,0,8,00,88,85,00,44,16,00,00,
318772509,00000570,false,Rx,0,8,00,8B,85,00,47,19,00,00,
318872562,00000570,false,Rx,0,8,00,8E,85,00,4A,1C,00,00,
318972545,00000570,false,Rx,0,8,00,90,85,00,4C,1E,00,00,
319072587,00000570,false,Rx,0,8,00,93,85,00,4E,21,00,00,
319172528,00000570,false,Rx,0,8,00,94,85,00,50,23,00,00,
319272528,00000570,false,Rx,0,8,00,96,85,00,51,25,00,00,
319372570,00000570,false,Rx,0,8,00,97,85,00,53,27,00,00,
319472561,00000570,false,Rx,0,8,00,99,85,00,54,29,00,00,
319572561,00000570,false,Rx,0,8,00,9A,85,00,55,2B,00,00,
319672554,00000570,false,Rx,0,8,00,9B,85,00,57,2C,00,00,
319772550,00000570,false,Rx,0,8,00,9C,85,00,58,2E,00,00,
319872530,00000570,false,Rx,0,8,00,9D,85,00,58,2F,00,00,
319972576,00000570,false,Rx,0,8,00,9D,85,00,59,30,00,00,
320072576,00000570,false,Rx,0,8,00,9C,85,00,5A,31,00,00,
320172683,00000570,false,Rx,0,8,00,98,85,00,5B,32,00,00,
320272560,00000570,false,Rx,0,8,00,4D,85,00,3E,2D,00,00,
320372551,00000570,false,Rx,0,8,00,4C,85,00,26,22,00,00,
320472545,00000570,false,Rx,0,8,00,56,85,00,25,1A,00,00,
320572546,00000570,false,Rx,0,8,00,55,85,00,24,15,00,00,
320672538,00000570,false,Rx,0,8,00,54,85,00,24,10,00,00,
320772529,00000570,false,Rx,0,8,00,54,85,00,24,0E,00,00,
320872582,00000570,false,Rx,0,8,00,54,85,00,24,0C,00,00,
320972561,00000570,false,Rx,0,8,00,54,85,00,24,0A,00,00,
321072561,00000570,false,Rx,0,8,00,54,85,00,24,09,00,00,
321172553,00000570,false,Rx,0,8,00,54,85,00,24,08,00,00,
321272545,00000570,false,Rx,0,8,00,54,85,00,24,08,00,00,
321372536,00000570,false,Rx,0,8,00,59,85,00,25,08,00,00,
321472588,00000570,false,Rx,0,8,00,5E,85,00,28,08,00,00,
321572578,00000570,false,Rx,0,8,00,63,85,00,2B,09,00,00,
321672579,00000570,false,Rx,0,8,00,68,85,00,2E,0A,00,00,
321772562,00000570,false,Rx,0,8,00,6D,85,00,31,0B,00,00,
321872551,00000570,false,Rx,0,8,00,72,85,00,34,0D,00,00,
321972545,00000570,false,Rx,0,8,00,76,85,00,37,0E,00,00,
322072546,00000570,false,Rx,0,8,00,7B,85,00,3B,10,00,00,
322172598,00000570,false,Rx,0,8,00,80,85,00,3E,13,00,00,
322272578,00000570,false,Rx,0,8,00,84,85,00,41,15,00,00,
322372568,00000570,false,Rx,0,8,00,88,85,00,45,18,00,00,
322472570,00000570,false,Rx,0,8,00,8B,85,00,48,1A,00,00,
322572560,00000570,false,Rx,0,8,00,8E,85,00,4A,1D,00,00,
322672560,00000570,false,Rx,0,8,00,91,85,00,4C,1F,00,00,
322772592,00000570,false,Rx,0,8,00,93,85,00,4E,21,00,00,
322872592,00000570,false,Rx,0,8,00,95,85,00,50,24,00,00,
322972576,00000570,false,Rx,0,8,00,96,85,00,52,26,00,00,
323072577,00000570,false,Rx,0,8,00,98,85,00,53,27,00,00,
323172566,00000570,false,Rx,0,8,00,99,85,00,54,29,00,00,
323272561,00000570,false,Rx,0,8,00,9A,85,00,55,2B,00,00,
323372603,00000570,false,Rx,0,8,00,9B,85,00,57,2C,00,00,
323472596,00000570,false,Rx,0,8,00,9C,85,00,57,2E,00,00,
323572639,00000570,false,Rx,0,8,00,9D,85,00,58,2F,00,00,
323672588,00000570,false,Rx,0,8,00,9E,85,00,59,30,00,00,
323772634,00000570,false,Rx,0,8,00,9C,85,00,5A,31,00,00,
323872675,00000570,false,Rx,0,8,00,99,85,00,5B,32,00,00,
323972613,00000570,false,Rx,0,8,00,53,85,00,3F,2D,00,00,
324072218,00000570,false,Rx,0,8,00,0B,85,00,09,07,00,00,
324172198,00000570,false,Rx,0,8,00,01,85,00,00,00,00,00,
324272191,00000570,false,Rx,0,8,00,00,85,00,00,00,00,00,
324372187,00000570,false,Rx,0,8,00,00,85,00,00,00,00,00,
324472188,00000570,false,Rx,0,8,00,00,85,00,00,00,00,00,
324572188,00000570,false,Rx,0,8,00,00,85,00,00,00,00,00,
324672187,00000570,false,Rx,0,8,00,00,85,00,00,00,00,00,
324772212,00000570,false,Rx,0,8,00,00,85,00,00,00,00,00,
324872207,00000570,false,Rx,0,8,00,00,85,00,00,00,00,00,
324972197,00000570,false,Rx,0,8,00,00,85,00,00,00,00,00,
325072193,00000570,false,Rx,0,8,00,00,85,00,00,00,00,00,
325172431,00000570,false,Rx,0,8,00,00,85,00,00,00,00,00,
325272412,00000570,false,Rx,0,8,00,01,85,00,09,01,00,00,
325372463,00000570,false,Rx,0,8,00,08,85,00,0D,03,00,00,
325472463,00000570,false,Rx,0,8,00,0F,85,00,0F,04,00,00,
325572447,00000570,false,Rx,0,8,00,15,85,00,12,06,00,00,
325672489,00000570,false,Rx,0,8,00,1C,85,00,16,07,00,00,
325772430,00000570,false,Rx,0,8,00,23,85,00,19,09,00,00,
325872427,00000570,false,Rx,0,8,00,40,85,00,1A,08,00,00,
325972426,00000570,false,Rx,0,8,00,41,85,00,1A,07,00,00,
326072634,00000570,false,Rx,0,8,00,41,85,00,1A,05,00,00,
326172623,00000570,false,Rx,0,8,00,4C,85,00,1E,05,00,00,
326272678,00000570,false,Rx,0,8,00,73,85,00,2D,05,00,00,
