Time Stamp,ID,Extended,Dir,Bus,LEN,D1,D2,D3,D4,D5,D6,D7,D8
11641655,00000523,false,Tx,0,8,00,00,00,00,00,00,80,00,
11755160,00000523,false,Tx,0,8,00,00,00,00,00,00,80,00,
11858878,00000523,false,Tx,0,8,00,00,00,00,00,00,80,00,
11967253,00000523,false,Tx,0,8,00,00,00,00,00,00,80,00,
12080137,00000523,false,Tx,0,8,00,00,00,00,00,00,80,00,
12187630,00000523,false,Tx,0,8,00,00,00,00,00,00,80,00,
12301149,00000523,false,Tx,0,8,00,00,00,00,00,00,80,00,
12422192,00000523,false,Tx,0,8,00,00,00,00,00,00,80,00,
12538078,00000523,false,Tx,0,8,00,00,00,00,00,00,80,00,
12639608,00000523,false,Tx,0,8,00,00,00,00,00,00,80,00,
12752611,00000523,false,Tx,0,8,00,00,00,00,00,00,80,00,
12860777,00000523,false,Tx,0,8,00,00,00,00,00,00,80,00,
12976507,00000523,false,Tx,0,8,00,00,00,00,00,00,80,00,
13085660,00000523,false,Tx,0,8,00,00,00,00,00,00,80,00,
13174092,00000570,false,Rx,0,8,00,00,85,00,00,00,00,00,
13187060,00000523,false,Tx,0,8,00,00,00,00,00,00,80,00,
13274807,00000570,false,Rx,0,8,00,00,85,00,00,00,00,00,
13299545,00000523,false,Tx,0,8,00,00,00,00,00,00,80,00,
13374829,00000570,false,Rx,0,8,00,00,85,00,00,00,00,00,
13423646,00000523,false,Tx,0,8,00,00,00,00,00,00,80,00,
13474822,00000570,false,Rx,0,8,00,00,85,00,00,00,00,00,
13539203,00000523,false,Tx,0,8,00,00,00,00,00,00,80,00,
13574812,00000570,false,Rx,0,8,00,00,85,00,00,00,00,00,
13640226,00000523,false,Tx,0,8,00,00,00,00,00,00,80,00,
13674813,00000570,false,Rx,0,8,00,00,85,00,00,00,00,00,
13755746,00000523,false,Tx,0,8,00,00,00,00,00,00,80,00,
13774814,00000570,false,Rx,0,8,00,00,85,00,00,00,00,00,
13862962,00000523,false,Tx,0,8,00,00,00,00,00,00,80,00,
13874814,00000570,false,Rx,0,8,00,00,85,00,00,00,00,00,
13974839,00000570,false,Rx,0,8,00,00,85,00,00,00,00,00,
13985438,00000523,false,Tx,0,8,00,00,00,00,00,00,80,00,
14074839,00000570,false,Rx,0,8,00,00,85,00,00,00,00,00,
14087873,00000523,false,Tx,0,8,00,00,00,00,00,00,80,00,
14174828,00000570,false,Rx,0,8,00,00,85,00,00,00,00,00,
14193419,00000523,false,Tx,0,8,00,00,00,00,00,00,80,00,
14274819,00000570,false,Rx,0,8,00,00,85,00,00,00,00,00,
14302893,00000523,false,Tx,0,8,00,00,00,00,00,00,80,00,
14375056,00000570,false,Rx,0,8,00,00,85,00,04,00,00,00,
14409231,00000523,false,Tx,0,8,00,00,00,00,00,00,80,00,
14475047,00000570,false,Rx,0,8,00,04,85,00,0B,02,00,00,
14525311,00000523,false,Tx,0,8,00,00,00,00,00,00,80,00,
14575047,00000570,false,Rx,0,8,00,0B,85,00,0E,04,00,00,
14626121,00000523,false,Tx,0,8,00,00,00,00,00,00,80,00,
14675077,00000570,false,Rx,0,8,00,12,85,00,10,05,00,00,
14732823,00000523,false,Tx,0,8,00,00,00,00,00,00,80,00,
14775077,00000570,false,Rx,0,8,00,19,85,00,14,07,00,00,
14841730,00000523,false,Tx,0,8,00,00,00,00,00,00,80,00,
14875067,00000570,false,Rx,0,8,00,20,85,00,17,08,00,00,
14975060,00000570,false,Rx,0,8,00,38,85,00,1A,09,00,00,
14990477,00000523,false,Tx,0,8,00,00,00,00,00,00,80,00,
15058079,00000523,false,Tx,0,8,00,00,00,00,00,00,80,00,
15075052,00000570,false,Rx,0,8,00,41,85,00,1A,07,00,00,
15169401,00000523,false,Tx,0,8,00,00,00,00,00,00,80,00,
15175042,00000570,false,Rx,0,8,00,41,85,00,1A,06,00,00,
15275208,00000570,false,Rx,0,8,00,43,85,00,1B,05,00,00,
15284981,00000523,false,Tx,0,8,00,00,00,00,00,00,80,00,
15375260,00000570,false,Rx,0,8,00,4F,85,00,20,05,00,00,
15390119,00000523,false,Tx,0,8,00,00,00,00,00,00,80,00,
15475240,00000570,false,Rx,0,8,00,5A,85,00,25,06,00,00,
15502362,00000523,false,Tx,0,8,00,00,00,00,00,00,80,00,
15575228,00000570,false,Rx,0,8,00,61,85,00,2A,07,00,00,
15608619,00000523,false,Tx,0,8,00,00,00,00,00,00,80,00,
15675228,00000570,false,Rx,0,8,00,66,85,00,2D,09,00,00,
15735637,00000523,false,Tx,0,8,00,00,00,00,00,00,80,00,
15775221,00000570,false,Rx,0,8,00,6A,85,00,30,0A,00,00,
15828875,00000523,false,Tx,0,8,00,00,00,00,00,00,80,00,
15875211,00000570,false,Rx,0,8,00,6E,85,00,33,0C,00,00,
15944872,00000523,false,Tx,0,8,00,00,00,00,00,00,80,00,
15975255,00000570,false,Rx,0,8,00,70,85,00,34,0D,00,00,
16050097,00000523,false,Tx,0,8,00,00,00,00,00,00,80,00,
16075306,00000570,false,Rx,0,8,00,73,85,00,36,0F,00,00,
16168855,00000523,false,Tx,0,8,00,00,00,00,00,00,80,00,
16175244,00000570,false,Rx,0,8,00,74,85,00,37,10,00,00,
16275227,00000570,false,Rx,0,8,00,76,85,00,39,11,00,00,
16292299,00000523,false,Tx,0,8,00,00,00,00,00,00,80,00,
16375218,00000570,false,Rx,0,8,00,77,85,00,3A,12,00,00,
16389039,00000523,false,Tx,0,8,00,00,00,00,00,00,80,00,
16475219,00000570,false,Rx,0,8,00,78,85,00,3A,13,00,00,
16537922,00000523,false,Tx,0,8,00,00,00,00,00,00,80,00,
16575218,00000570,false,Rx,0,8,00,79,85,00,3B,14,00,00,
16612973,00000523,false,Tx,0,8,00,00,00,00,00,00,80,00,
16675260,00000570,false,Rx,0,8,00,7A,85,00,3C,15,00,00,
16739244,00000523,false,Tx,0,8,00,00,00,00,00,00,80,00,
16775254,00000570,false,Rx,0,8,00,7B,85,00,3C,15,00,00,
16847006,00000523,false,Tx,0,8,00,00,00,00,00,00,80,00,
16875244,00000570,false,Rx,0,8,00,7C,85,00,3D,16,00,00,
16963250,00000523,false,Tx,0,8,00,00,00,00,00,00,80,00,
16975244,00000570,false,Rx,0,8,00,7C,85,00,3D,16,00,00,
17061459,00000523,false,Tx,0,8,00,00,00,00,00,00,80,00,
17075233,00000570,false,Rx,0,8,00,7C,85,00,3E,17,00,00,
17175223,00000570,false,Rx,0,8,00,7D,85,00,3E,17,00,00,
17185552,00000523,false,Tx,0,8,00,00,00,00,00,00,80,00,
17277680,00000523,false,Tx,0,8,00,00,00,00,00,00,80,00,
17275226,00000570,false,Rx,0,8,00,7D,85,00,3E,18,00,00,
17375265,00000570,false,Rx,0,8,00,7E,85,00,3E,18,00,00,
17401407,00000523,false,Tx,0,8,00,00,00,00,00,00,80,00,
17475255,00000570,false,Rx,0,8,00,7E,85,00,3F,18,00,00,
17543390,00000523,false,Tx,0,8,00,00,00,00,00,00,80,00,
17575254,00000570,false,Rx,0,8,00,7E,85,00,3F,18,00,00,
17617542,00000523,false,Tx,0,8,00,00,00,00,00,00,80,00,
17675244,00000570,false,Rx,0,8,00,7F,85,00,3F,19,00,00,
17748338,00000523,false,Tx,0,8,00,00,00,00,00,00,80,00,
17775238,00000570,false,Rx,0,8,00,7F,85,00,3F,19,00,00,
17849072,00000523,false,Tx,0,8,00,00,00,00,00,00,80,00,
17875280,00000570,false,Rx,0,8,00,7F,85,00,3F,19,00,00,
17949565,00000523,false,Tx,0,8,00,00,00,00,00,00,80,00,
17975281,00000570,false,Rx,0,8,00,7F,85,00,3F,19,00,00,
18066074,00000523,false,Tx,0,8,00,00,00,00,00,00,80,00,
18075261,00000570,false,Rx,0,8,00,7F,85,00,40,19,00,00,
18175249,00000570,false,Rx,0,8,00,80,85,00,40,19,00,00,
18182004,00000523,false,Tx,0,8,00,00,00,00,00,00,80,00,
18275253,00000570,false,Rx,0,8,00,80,85,00,40,19,00,00,
18294079,00000523,false,Tx,0,8,00,00,00,00,00,00,80,00,
18375244,00000570,false,Rx,0,8,00,7F,85,00,40,1A,00,00,
18396052,00000523,false,Tx,0,8,00,00,00,00,00,00,80,00,
18475234,00000570,false,Rx,0,8,00,7F,85,00,40,1A,00,00,
18546212,00000523,false,Tx,0,8,00,00,00,00,00,00,80,00,
18575234,00000570,false,Rx,0,8,00,7F,85,00,40,1A,00,00,
18614778,00000523,false,Tx,0,8,00,00,00,00,00,00,80,00,
18675275,00000570,false,Rx,0,8,00,80,85,00,40,1A,00,00,
18714716,00000523,false,Tx,0,8,00,00,00,00,00,00,80,00,
18775269,00000570,false,Rx,0,8,00,80,85,00,40,1A,00,00,
18834163,00000523,false,Tx,0,8,00,00,00,00,00,00,80,00,
18875259,00000570,false,Rx,0,8,00,80,85,00,40,1A,00,00,
18934642,00000523,false,Tx,0,8,00,00,00,00,00,00,80,00,
18975250,00000570,false,Rx,0,8,00,80,85,00,40,1A,00,00,
19049041,00000523,false,Tx,0,8,00,00,00,00,00,00,80,00,
19075239,00000570,false,Rx,0,8,00,80,85,00,40,1A,00,00,
19167123,00000523,false,Tx,0,8,00,00,00,00,00,00,80,00,
19175290,00000570,false,Rx,0,8,00,80,85,00,40,1A,00,00,
19271971,00000523,false,Tx,0,8,00,00,00,00,00,00,80,00,
19275284,00000570,false,Rx,0,8,00,80,85,00,40,1A,00,00,
19377736,00000523,false,Tx,0,8,00,00,00,00,00,00,80,00,
19375275,00000570,false,Rx,0,8,00,80,85,00,40,1A,00,00,
19475265,00000570,false,Rx,0,8,00,80,85,00,40,1A,00,00,
19494752,00000523,false,Tx,0,8,00,00,00,00,00,00,80,00,
19575264,00000570,false,Rx,0,8,00,80,85,00,40,1A,00,00,
19598319,00000523,false,Tx,0,8,00,00,00,00,00,00,80,00,
19675254,00000570,false,Rx,0,8,00,80,85,00,40,1A,00,00,
19700985,00000523,false,Tx,0,8,00,00,00,00,00,00,80,00,
19775249,00000570,false,Rx,0,8,00,80,85,00,40,1A,00,00,
19813753,00000523,false,Tx,0,8,00,00,00,00,00,00,80,00,
19875291,00000570,false,Rx,0,8,00,80,85,00,40,1A,00,00,
19937435,00000523,false,Tx,0,8,00,00,00,00,00,00,80,00,
19975280,00000570,false,Rx,0,8,00,80,85,00,40,1A,00,00,
20055088,00000523,false,Tx,0,8,00,00,00,00,00,00,80,00,
20075280,00000570,false,Rx,0,8,00,80,85,00,40,1A,00,00,
20153252,00000523,false,Tx,0,8,00,00,00,00,00,00,80,00,
20175323,00000570,false,Rx,0,8,00,80,85,00,40,1A,00,00,
20281303,00000523,false,Tx,0,8,00,00,00,00,00,00,80,00,
20275267,00000570,false,Rx,0,8,00,80,85,00,40,1A,00,00,
20375259,00000570,false,Rx,0,8,00,80,85,00,40,1A,00,00,
20388221,00000523,false,Tx,0,8,00,00,00,00,00,00,80,00,
20475249,00000570,false,Rx,0,8,00,80,85,00,40,1A,00,00,
20489264,00000523,false,Tx,0,8,00,00,00,00,00,00,80,00,
20575294,00000570,false,Rx,0,8,00,80,85,00,40,1A,00,00,
20599379,00000523,false,Tx,0,8,00,00,00,00,00,00,80,00,
20675295,00000570,false,Rx,0,8,00,80,85,00,40,1A,00,00,
20701713,00000523,false,Tx,0,8,00,00,00,00,00,00,80,00,
20775285,00000570,false,Rx,0,8,00,80,85,00,40,1A,00,00,
20843998,00000523,false,Tx,0,8,00,00,00,00,00,00,80,00,
20875275,00000570,false,Rx,0,8,00,80,85,00,40,1A,00,00,
20917549,00000523,false,Tx,0,8,00,00,00,00,00,00,80,00,
20975265,00000570,false,Rx,0,8,00,80,85,00,40,1A,00,00,
21052533,00000523,false,Tx,0,8,00,00,00,00,00,00,80,00,
21075258,00000570,false,Rx,0,8,00,80,85,00,40,1A,00,00,
21138181,00000523,false,Tx,0,8,00,00,00,00,00,00,80,00,
21175301,00000570,false,Rx,0,8,00,80,85,00,40,1A,00,00,
21246661,00000523,false,Tx,0,8,00,00,00,00,00,00,80,00,
21275302,00000570,false,Rx,0,8,00,80,85,00,40,1A,00,00,
21353961,00000523,false,Tx,0,8,00,00,00,00,00,00,80,00,
21375291,00000570,false,Rx,0,8,00,80,85,00,40,1A,00,00,
21470208,00000523,false,Tx,0,8,00,00,00,00,00,00,80,00,
21475280,00000570,false,Rx,0,8,00,80,85,00,40,1A,00,00,
21575285,00000570,false,Rx,0,8,00,80,85,00,40,1A,00,00,
21590792,00000523,false,Tx,0,8,00,00,00,00,00,00,80,00,
21675265,00000570,false,Rx,0,8,00,80,85,00,40,1A,00,00,
21694550,00000523,false,Tx,0,8,00,00,00,00,00,00,80,00,
21775265,00000570,false,Rx,0,8,00,80,85,00,40,1A,00,00,
21838821,00000523,false,Tx,0,8,00,00,00,00,00,00,80,00,
21875306,00000570,false,Rx,0,8,00,80,85,00,40,1A,00,00,
21900485,00000523,false,Tx,0,8,00,00,00,00,00,00,80,00,
21975295,00000570,false,Rx,0,8,00,80,85,00,40,1A,00,00,
22011300,00000523,false,Tx,0,8,00,00,00,00,00,00,80,00,
22075299,00000570,false,Rx,0,8,00,80,85,00,40,1A,00,00,
22119629,00000523,false,Tx,0,8,00,00,00,00,00,00,80,00,
22175291,00000570,false,Rx,0,8,00,80,85,00,40,1A,00,00,
22248153,00000523,false,Tx,0,8,00,00,00,00,00,00,80,00,
22275281,00000570,false,Rx,0,8,00,80,85,00,40,1A,00,00,
22368818,00000523,false,Tx,0,8,00,00,00,00,00,00,80,00,
22375270,00000570,false,Rx,0,8,00,80,85,00,40,1A,00,00,
22480331,00000523,false,Tx,0,8,00,00,00,00,00,00,80,00,
22475259,00000570,false,Rx,0,8,00,80,85,00,40,1A,00,00,
22575316,00000570,false,Rx,0,8,00,80,85,00,40,1A,00,00,
22593636,00000523,false,Tx,0,8,00,00,00,00,00,00,80,00,
22675358,00000570,false,Rx,0,8,00,80,85,00,40,1A,00,00,
22698832,00000523,false,Tx,0,8,00,00,00,00,00,00,80,00,
22775296,00000570,false,Rx,0,8,00,80,85,00,40,1A,00,00,
22839106,00000523,false,Tx,0,8,00,00,00,00,00,00,80,00,
22875285,00000570,false,Rx,0,8,00,80,85,00,40,1A,00,00,
22921045,00000523,false,Tx,0,8,00,00,00,00,00,00,80,00,
22975275,00000570,false,Rx,0,8,00,80,85,00,40,1A,00,00,
23031761,00000523,false,Tx,0,8,00,00,00,00,00,00,80,00,
23075279,00000570,false,Rx,0,8,00,80,85,00,40,1A,00,00,
23135622,00000523,false,Tx,0,8,00,00,00,00,00,00,80,00,
23175322,00000570,false,Rx,0,8,00,80,85,00,40,1A,00,00,
23248964,00000523,false,Tx,0,8,00,00,00,00,00,00,80,00,
23275311,00000570,false,Rx,0,8,00,80,85,00,40,1A,00,00,
23359426,00000523,false,Tx,0,8,00,00,00,00,00,00,80,00,
23375306,00000570,false,Rx,0,8,00,80,85,00,40,1A,00,00,
23465751,00000523,false,Tx,0,8,00,00,00,00,00,00,80,00,
23475295,00000570,false,Rx,0,8,00,80,85,00,40,1A,00,00,
23575290,00000570,false,Rx,0,8,00,80,85,00,40,1A,00,00,
23587894,00000523,false,Tx,0,8,00,00,00,00,00,00,80,00,
23675281,00000570,false,Rx,0,8,00,80,85,00,40,1A,00,00,
23690284,00000523,false,Tx,0,8,00,00,00,00,00,00,80,00,
23775322,00000570,false,Rx,0,8,00,80,85,00,40,1A,00,00,
23818115,00000523,false,Tx,0,8,00,00,00,00,00,00,80,00,
23875322,00000570,false,Rx,0,8,00,80,85,00,40,1A,00,00,
23975311,00000570,false,Rx,0,8,00,80,85,00,40,1A,00,00,
23983810,00000523,false,Tx,0,8,00,00,00,00,00,00,80,00,
24028271,00000523,false,Tx,0,8,00,00,00,00,00,00,80,00,
24075302,00000570,false,Rx,0,8,00,80,85,00,40,1A,00,00,
24123047,00000523,false,Tx,0,8,00,00,00,00,00,00,80,00,
24175301,00000570,false,Rx,0,8,00,80,85,00,40,1A,00,00,
24244110,00000523,false,Tx,0,8,00,00,00,00,00,00,80,00,
24275290,00000570,false,Rx,0,8,00,80,85,00,40,1A,00,00,
24367696,00000523,false,Tx,0,8,00,00,00,00,00,00,80,00,
24375281,00000570,false,Rx,0,8,00,80,85,00,40,1A,00,00,
24461046,00000523,false,Tx,0,8,00,00,00,00,00,00,80,00,
24475333,00000570,false,Rx,0,8,00,80,85,00,40,1A,00,00,
24575322,00000570,false,Rx,0,8,00,80,85,00,40,1A,00,00,
24630632,00000523,false,Tx,0,8,00,00,00,00,00,00,80,00,
24669809,00000523,false,Tx,0,8,00,00,00,00,00,00,80,00,
24675322,00000570,false,Rx,0,8,00,80,85,00,40,1A,00,00,
24777142,00000523,false,Tx,0,8,00,00,00,00,00,00,80,00,
24775302,00000570,false,Rx,0,8,00,80,85,00,40,1A,00,00,
24875294,00000570,false,Rx,0,8,00,80,85,00,40,1A,00,00,
24895840,00000523,false,Tx,0,8,00,00,00,00,00,00,80,00,
24975295,00000570,false,Rx,0,8,00,80,85,00,40,1A,00,00,
25009638,00000523,false,Tx,0,8,00,00,00,00,00,00,80,00,
25075289,00000570,false,Rx,0,8,00,80,85,00,40,1A,00,00,
25123455,00000523,false,Tx,0,8,00,00,00,00,00,00,80,00,
25175337,00000570,false,Rx,0,8,00,80,85,00,40,1A,00,00,
25216869,00000523,false,Tx,0,8,00,00,00,00,00,00,80,00,
25275326,00000570,false,Rx,0,8,00,80,85,00,40,1A,00,00,
25366716,00000523,false,Tx,0,8,00,00,00,00,00,00,80,00,
25375320,00000570,false,Rx,0,8,00,80,85,00,40,1A,00,00,
25447169,00000523,false,Tx,0,8,00,00,00,00,00,00,80,00,
25475312,00000570,false,Rx,0,8,00,80,85,00,40,1A,00,00,
25573034,00000523,false,Tx,0,8,00,00,00,00,00,00,80,00,
25575302,00000570,false,Rx,0,8,00,80,85,00,40,1A,00,00,
25678971,00000523,false,Tx,0,8,00,00,00,00,00,00,80,00,
25675301,00000570,false,Rx,0,8,00,80,85,00,40,1A,00,00,
25779351,00000523,false,Tx,0,8,00,00,00,00,00,00,80,00,
25775342,00000570,false,Rx,0,8,00,80,85,00,40,1A,00,00,
25875337,00000570,false,Rx,0,8,00,80,85,00,40,1A,00,00,
25891212,00000523,false,Tx,0,8,00,00,00,00,00,00,80,00,
25975327,00000570,false,Rx,0,8,00,80,85,00,40,1A,00,00,
26009108,00000523,false,Tx,0,8,00,00,00,00,00,00,80,00,
26075319,00000570,false,Rx,0,8,00,80,85,00,40,1A,00,00,
26115087,00000523,false,Tx,0,8,00,00,00,00,00,00,80,00,
26175316,00000570,false,Rx,0,8,00,80,85,00,40,1A,00,00,
26225278,00000523,false,Tx,0,8,00,00,00,00,00,00,80,00,
26275306,00000570,false,Rx,0,8,00,80,85,00,40,1A,00,00,
26329872,00000523,false,Tx,0,8,00,00,00,00,00,00,80,00,
26375305,00000570,false,Rx,0,8,00,7F,85,00,40,1A,00,00,
26431943,00000523,false,Tx,0,8,00,00,00,00,00,00,80,00,
26475348,00000570,false,Rx,0,8,00,7F,85,00,40,1A,00,00,
26546978,00000523,false,Tx,0,8,00,00,00,00,00,00,80,00,
26575341,00000570,false,Rx,0,8,00,80,85,00,40,1A,00,00,
26664723,00000523,false,Tx,0,8,00,00,00,00,00,00,80,00,
26675337,00000570,false,Rx,0,8,00,80,85,00,40,1A,00,00,
26777628,00000523,false,Tx,0,8,00,00,00,00,00,00,80,00,
26775316,00000570,false,Rx,0,8,00,80,85,00,40,1A,00,00,
26875316,00000570,false,Rx,0,8,00,80,85,00,40,1A,00,00,
26894911,00000523,false,Tx,0,8,00,00,00,00,00,00,80,00,
26975317,00000570,false,Rx,0,8,00,7F,85,00,40,1A,00,00,
27005846,00000523,false,Tx,0,8,00,00,00,00,00,00,80,00,
27075361,00000570,false,Rx,0,8,00,7F,85,00,40,1A,00,00,
27119135,00000523,false,Tx,0,8,00,00,00,00,00,00,80,00,
27175347,00000570,false,Rx,0,8,00,7F,85,00,40,1A,00,00,
27228179,00000523,false,Tx,0,8,00,00,00,00,00,00,80,00,
27275347,00000570,false,Rx,0,8,00,7F,85,00,40,1A,00,00,
27355010,00000523,false,Tx,0,8,00,00,00,00,00,00,80,00,
27375338,00000570,false,Rx,0,8,00,7F,85,00,40,1A,00,00,
27452358,00000523,false,Tx,0,8,00,00,00,00,00,00,80,00,
27475327,00000570,false,Rx,0,8,00,80,85,00,40,1A,00,00,
27579338,00000523,false,Tx,0,8,00,00,00,00,00,00,80,00,
27575320,00000570,false,Rx,0,8,00,80,85,00,40,1A,00,00,
27676904,00000523,false,Tx,0,8,00,00,00,00,00,00,80,00,
27675316,00000570,false,Rx,0,8,00,80,85,00,40,1A,00,00,
27775409,00000570,false,Rx,0,8,00,80,85,00,40,1A,00,00,
27785617,00000523,false,Tx,0,8,00,00,00,00,00,00,80,00,
27875352,00000570,false,Rx,0,8,00,80,85,00,40,1A,00,00,
27886176,00000523,false,Tx,0,8,00,00,00,00,00,00,80,00,
27975347,00000570,false,Rx,0,8,00,80,85,00,40,1A,00,00,
27998819,00000523,false,Tx,0,8,00,00,00,00,00,00,80,00,
28075330,00000570,false,Rx,0,8,00,80,85,00,40,1A,00,00,
28111017,00000523,false,Tx,0,8,00,00,00,00,00,00,80,00,
28175327,00000570,false,Rx,0,8,00,80,85,00,40,1A,00,00,
28216437,00000523,false,Tx,0,8,00,00,00,00,00,00,80,00,
28275326,00000570,false,Rx,0,8,00,80,85,00,40,1A,00,00,
28342292,00000523,false,Tx,0,8,00,00,00,00,00,00,80,00,
28375368,00000570,false,Rx,0,8,00,80,85,00,40,1B,00,00,
28438876,00000523,false,Tx,0,8,00,00,00,00,00,00,80,00,
28475358,00000570,false,Rx,0,8,00,80,85,00,40,1B,00,00,
28541852,00000523,false,Tx,0,8,00,00,00,00,00,00,80,00,
28575351,00000570,false,Rx,0,8,00,80,85,00,40,1B,00,00,
28653572,00000523,false,Tx,0,8,00,00,00,00,00,00,80,00,
28675347,00000570,false,Rx,0,8,00,80,85,00,40,1B,00,00,
28761609,00000523,false,Tx,0,8,00,00,00,00,00,00,80,00,
28775337,00000570,false,Rx,0,8,00,80,85,00,40,1B,00,00,
28871724,00000523,false,Tx,0,8,00,00,00,00,00,00,80,00,
28875331,00000570,false,Rx,0,8,00,80,85,00,40,1B,00,00,
28975323,00000570,false,Rx,0,8,00,80,85,00,40,1B,00,00,
28984236,00000523,false,Tx,0,8,00,00,00,00,00,00,80,00,
29075375,00000570,false,Rx,0,8,00,80,85,00,40,1B,00,00,
29116604,00000523,false,Tx,0,8,00,00,00,00,00,00,80,00,
29175363,00000570,false,Rx,0,8,00,80,85,00,40,1B,00,00,
29198317,00000523,false,Tx,0,8,00,00,00,00,00,00,80,00,
29275354,00000570,false,Rx,0,8,00,80,85,00,40,1B,00,00,
29310451,00000523,false,Tx,0,8,00,00,00,00,00,00,80,00,
29375343,00000570,false,Rx,0,8,00,80,85,00,40,1B,00,00,
29423472,00000523,false,Tx,0,8,00,00,00,00,00,00,80,00,
29475343,00000570,false,Rx,0,8,00,80,85,00,41,1B,00,00,
29534350,00000523,false,Tx,0,8,00,00,00,00,00,00,80,00,
29575333,00000570,false,Rx,0,8,00,80,85,00,41,1B,00,00,
29645491,00000523,false,Tx,0,8,00,00,00,00,00,00,80,00,
29675383,00000570,false,Rx,0,8,00,80,85,00,41,1B,00,00,
29756268,00000523,false,Tx,0,8,00,00,00,00,00,00,80,00,
29775375,00000570,false,Rx,0,8,00,80,85,00,41,1B,00,00,
29875368,00000570,false,Rx,0,8,00,80,85,00,41,1B,00,00,
29888683,00000523,false,Tx,0,8,00,00,00,00,00,00,80,00,
29976315,00000523,false,Tx,0,8,00,00,00,00,00,00,80,00,
29975358,00000570,false,Rx,0,8,00,80,85,00,41,1B,00,00,
30075357,00000570,false,Rx,0,8,00,80,85,00,41,1B,00,00,
30098700,00000523,false,Tx,0,8,00,00,00,00,00,00,80,00,
30175347,00000570,false,Rx,0,8,00,80,85,00,41,1B,00,00,
30187539,00000523,false,Tx,0,8,00,00,00,00,00,00,80,00,
30275337,00000570,false,Rx,0,8,00,80,85,00,41,1B,00,00,
30313791,00000523,false,Tx,0,8,00,00,00,00,00,00,80,00,
30375389,00000570,false,Rx,0,8,00,80,85,00,41,1B,00,00,
30402915,00000523,false,Tx,0,8,00,00,00,00,00,00,80,00,
30475368,00000570,false,Rx,0,8,00,80,85,00,40,1B,00,00,
30524143,00000523,false,Tx,0,8,00,00,00,00,00,00,80,00,
30575368,00000570,false,Rx,0,8,00,80,85,00,40,1B,00,00,
30658333,00000523,false,Tx,0,8,00,00,00,00,00,00,80,00,
30675367,00000570,false,Rx,0,8,00,80,85,00,41,1B,00,00,
30732507,00000523,false,Tx,0,8,00,00,00,00,00,00,80,00,
30775358,00000570,false,Rx,0,8,00,80,85,00,41,1B,00,00,
30849129,00000523,false,Tx,0,8,00,00,00,00,00,00,80,00,
30875348,00000570,false,Rx,0,8,00,80,85,00,41,1B,00,00,
30959698,00000523,false,Tx,0,8,00,00,00,00,00,00,80,00,
30975337,00000570,false,Rx,0,8,00,80,85,00,40,1B,00,00,
31075379,00000570,false,Rx,0,8,00,80,85,00,40,1B,00,00,
31091324,00000523,false,Tx,0,8,00,00,00,00,00,00,80,00,
31175379,00000570,false,Rx,0,8,00,80,85,00,40,1B,00,00,
31188646,00000523,false,Tx,0,8,00,00,00,00,00,00,80,00,
31275368,00000570,false,Rx,0,8,00,80,85,00,40,1B,00,00,
31306474,00000523,false,Tx,0,8,00,00,00,00,00,00,80,00,
31375359,00000570,false,Rx,0,8,00,80,85,00,40,1B,00,00,
31407482,00000523,false,Tx,0,8,00,00,00,00,00,00,80,00,
31475357,00000570,false,Rx,0,8,00,80,85,00,40,1B,00,00,
31523428,00000523,false,Tx,0,8,00,00,00,00,00,00,80,00,
31575347,00000570,false,Rx,0,8,00,80,85,00,40,1B,00,00,
31649939,00000523,false,Tx,0,8,00,00,00,00,00,00,80,00,
31675400,00000570,false,Rx,0,8,00,80,85,00,40,1B,00,00,
31731570,00000523,false,Tx,0,8,00,00,00,00,00,00,80,00,
31775389,00000570,false,Rx,0,8,00,80,85,00,40,1B,00,00,
31875470,00000523,false,Tx,0,8,00,00,00,00,00,00,80,00,
31875382,00000570,false,Rx,0,8,00,80,85,00,40,1B,00,00,
31975735,00000523,false,Tx,0,8,00,00,00,00,00,00,80,00,
31975368,00000570,false,Rx,0,8,00,80,85,00,40,1B,00,00,
32075368,00000570,false,Rx,0,8,00,80,85,00,40,1B,00,00,
32090224,00000523,false,Tx,0,8,00,00,00,00,00,00,80,00,
32175410,00000570,false,Rx,0,8,00,80,85,00,41,1B,00,00,
32190025,00000523,false,Tx,0,8,00,00,00,00,00,00,80,00,
32275358,00000570,false,Rx,0,8,00,80,85,00,41,1B,00,00,
32294861,00000523,false,Tx,0,8,00,00,00,00,00,00,80,00,
32375402,00000570,false,Rx,0,8,00,80,85,00,41,1B,00,00,
32426610,00000523,false,Tx,0,8,00,00,00,00,00,00,80,00,
32475388,00000570,false,Rx,0,8,00,80,85,00,40,1B,00,00,
32524392,00000523,false,Tx,0,8,00,00,00,00,00,00,80,00,
32575378,00000570,false,Rx,0,8,00,80,85,00,41,1B,00,00,
32627516,00000523,false,Tx,0,8,00,00,00,00,00,00,80,00,
32675374,00000570,false,Rx,0,8,00,80,85,00,40,1B,00,00,
32738568,00000523,false,Tx,0,8,00,00,00,00,00,00,80,00,
32775374,00000570,false,Rx,0,8,00,80,85,00,40,1B,00,00,
32841094,00000523,false,Tx,0,8,00,00,00,00,00,00,80,00,
32875363,00000570,false,Rx,0,8,00,80,85,00,40,1B,00,00,
32968003,00000523,false,Tx,0,8,00,00,00,00,00,00,80,00,
32975404,00000570,false,Rx,0,8,00,80,85,00,40,1B,00,00,
33078198,00000523,false,Tx,0,8,00,00,00,00,00,00,80,00,
33075405,00000570,false,Rx,0,8,00,80,85,00,41,1B,00,00,
33175389,00000570,false,Rx,0,8,00,80,85,00,40,1B,00,00,
33185365,00000523,false,Tx,0,8,00,00,00,00,00,00,80,00,
33275441,00000570,false,Rx,0,8,00,80,85,00,40,1B,00,00,
33294025,00000523,false,Tx,0,8,00,00,00,00,00,00,80,00,
33375382,00000570,false,Rx,0,8,00,80,85,00,40,1B,00,00,
33426189,00000523,false,Tx,0,8,00,00,00,00,00,00,80,00,
33475368,00000570,false,Rx,0,8,00,80,85,00,40,1B,00,00,
33530968,00000523,false,Tx,0,8,00,00,00,00,00,00,80,00,
33575358,00000570,false,Rx,0,8,00,80,85,00,40,1B,00,00,
33655813,00000523,false,Tx,0,8,00,00,00,00,00,00,80,00,
33675410,00000570,false,Rx,0,8,00,80,85,00,40,1B,00,00,
33763699,00000523,false,Tx,0,8,00,00,00,00,00,00,80,00,
33775399,00000570,false,Rx,0,8,00,80,85,00,40,1B,00,00,
33875392,00000570,false,Rx,0,8,00,80,85,00,40,1B,00,00,
33911925,00000523,false,Tx,0,8,00,00,00,00,00,00,80,00,
33975384,00000570,false,Rx,0,8,00,80,85,00,40,1B,00,00,
33995089,00000523,false,Tx,0,8,00,00,00,00,00,00,80,00,
34075374,00000570,false,Rx,0,8,00,80,85,00,40,1A,00,00,
34095108,00000523,false,Tx,0,8,00,00,00,00,00,00,80,00,
34175374,00000570,false,Rx,0,8,00,80,85,00,40,1A,00,00,
34206736,00000523,false,Tx,0,8,00,00,00,00,00,00,80,00,
34275415,00000570,false,Rx,0,8,00,80,85,00,40,1A,00,00,
34311642,00000523,false,Tx,0,8,00,00,00,00,00,00,80,00,
34375408,00000570,false,Rx,0,8,00,80,85,00,40,1A,00,00,
34418828,00000523,false,Tx,0,8,00,00,00,00,00,00,80,00,
34475399,00000570,false,Rx,0,8,00,80,85,00,40,1A,00,00,
34528277,00000523,false,Tx,0,8,00,00,00,00,00,00,80,00,
34575389,00000570,false,Rx,0,8,00,80,85,00,41,1A,00,00,
34664220,00000523,false,Tx,0,8,00,00,00,00,00,00,80,00,
34675389,00000570,false,Rx,0,8,00,80,85,00,41,1A,00,00,
34764974,00000523,false,Tx,0,8,00,00,00,00,00,00,80,00,
34775389,00000570,false,Rx,0,8,00,80,85,00,40,1A,00,00,
34875423,00000570,false,Rx,0,8,00,80,85,00,40,1A,00,00,
34912953,00000523,false,Tx,0,8,00,00,00,00,00,00,80,00,
34979590,00000523,false,Tx,0,8,00,00,00,00,00,00,80,00,
34975427,00000570,false,Rx,0,8,00,80,85,00,40,1A,00,00,
35075415,00000570,false,Rx,0,8,00,80,85,00,40,1A,00,00,
35093458,00000523,false,Tx,0,8,00,00,00,00,00,00,80,00,
35175408,00000570,false,Rx,0,8,00,80,85,00,40,1A,00,00,
35210942,00000523,false,Tx,0,8,00,00,00,00,00,00,80,00,
35275399,00000570,false,Rx,0,8,00,80,85,00,40,1A,00,00,
35317450,00000523,false,Tx,0,8,00,00,00,00,00,00,80,00,
