Time Stamp,ID,Extended,Dir,Bus,LEN,D1,D2,D3,D4,D5,D6,D7,D8
10638810,00000570,false,Rx,0,8,02,00,85,00,00,00,00,02,
10738814,00000570,false,Rx,0,8,02,00,85,00,00,00,00,02,
10838805,00000570,false,Rx,0,8,02,00,85,00,00,00,00,02,
10938795,00000570,false,Rx,0,8,02,00,85,00,00,00,00,02,
11038795,00000570,false,Rx,0,8,02,00,85,00,00,00,00,02,
11138806,00000570,false,Rx,0,8,02,00,85,00,00,00,00,02,
11238800,00000570,false,Rx,0,8,02,00,85,00,00,00,00,02,
11338820,00000570,false,Rx,0,8,02,00,85,00,00,00,00,02,
11438811,00000570,false,Rx,0,8,02,00,85,00,00,00,00,02,
11538810,00000570,false,Rx,0,8,02,00,85,00,00,00,00,02,
11638820,00000570,false,Rx,0,8,00,00,85,00,00,00,00,00,
11739051,00000570,false,Rx,0,8,00,00,85,00,07,01,00,00,
11839038,00000570,false,Rx,0,8,00,07,85,00,0D,03,00,00,
11939090,00000570,false,Rx,0,8,00,0E,85,00,0F,04,00,00,
12039131,00000570,false,Rx,0,8,00,14,85,00,12,06,00,00,
12139068,00000570,false,Rx,0,8,00,1B,85,00,15,07,00,00,
12239063,00000570,false,Rx,0,8,00,20,85,00,19,09,00,00,
12339053,00000570,false,Rx,0,8,00,3E,85,00,1B,09,00,00,
12439044,00000570,false,Rx,0,8,00,42,85,00,1B,07,00,00,
12539044,00000570,false,Rx,0,8,00,42,85,00,1B,06,00,00,
12639254,00000570,false,Rx,0,8,00,49,85,00,1D,05,00,00,
12739256,00000570,false,Rx,0,8,00,5D,85,00,25,06,00,00,
12839246,00000570,false,Rx,0,8,00,6A,85,00,2E,08,00,00,
12939236,00000570,false,Rx,0,8,00,73,85,00,35,0B,00,00,
13039236,00000570,false,Rx,0,8,00,7A,85,00,3B,0E,00,00,
13139226,00000570,false,Rx,0,8,00,7F,85,00,3F,11,00,00,
13239271,00000570,false,Rx,0,8,00,84,85,00,43,14,00,00,
13339262,00000570,false,Rx,0,8,00,88,85,00,47,18,00,00,
13439251,00000570,false,Rx,0,8,00,8B,85,00,4A,1B,00,00,
13539246,00000570,false,Rx,0,8,00,8D,85,00,4D,1E,00,00,
13639298,00000570,false,Rx,0,8,00,90,85,00,4F,20,00,00,
13739237,00000570,false,Rx,0,8,00,92,85,00,51,23,00,00,
13839225,00000570,false,Rx,0,8,00,94,85,00,53,25,00,00,
13939277,00000570,false,Rx,0,8,00,95,85,00,55,28,00,00,
14039267,00000570,false,Rx,0,8,00,97,85,00,56,2A,00,00,
14139256,00000570,false,Rx,0,8,00,98,85,00,58,2C,00,00,
14239364,00000570,false,Rx,0,8,00,99,85,00,59,2E,00,00,
14339359,00000570,false,Rx,0,8,00,9A,85,00,5A,2F,00,00,
14439299,00000570,false,Rx,0,8,00,9A,85,00,5B,31,00,00,
14539343,00000570,false,Rx,0,8,00,9B,85,00,5B,32,00,00,
14639334,00000570,false,Rx,0,8,00,9B,85,00,5C,33,00,00,
14739388,00000570,false,Rx,0,8,00,9B,85,00,5C,34,00,00,
14839327,00000570,false,Rx,0,8,00,9C,85,00,5C,35,00,00,
14939371,00000570,false,Rx,0,8,00,9C,85,00,5D,35,00,00,
15039365,00000570,false,Rx,0,8,00,9D,85,00,5D,36,00,00,
15139303,00000570,false,Rx,0,8,00,9D,85,00,5E,37,00,00,
15239347,00000570,false,Rx,0,8,00,9D,85,00,5E,37,00,00,
15339348,00000570,false,Rx,0,8,00,9E,85,00,5E,38,00,00,
15439391,00000570,false,Rx,0,8,00,9E,85,00,5F,39,00,00,
15539381,00000570,false,Rx,0,8,00,9E,85,00,5F,39,00,00,
15639329,00000570,false,Rx,0,8,00,9E,85,00,5F,3A,00,00,
15739321,00000570,false,Rx,0,8,00,9F,85,00,60,3A,00,00,
15839371,00000570,false,Rx,0,8,00,9F,85,00,60,3B,00,00,
15939422,00000570,false,Rx,0,8,00,9F,85,00,60,3B,00,00,
16039422,00000570,false,Rx,0,8,00,9F,85,00,60,3B,00,00,
16139463,00000570,false,Rx,0,8,00,9F,85,00,60,3B,00,00,
16239393,00000570,false,Rx,0,8,00,9F,85,00,60,3C,00,00,
16339391,00000570,false,Rx,0,8,00,9F,85,00,60,3C,00,00,
16439381,00000570,false,Rx,0,8,00,9E,85,00,60,3C,00,00,
16539375,00000570,false,Rx,0,8,00,9E,85,00,60,3C,00,00,
16639427,00000570,false,Rx,0,8,00,9E,85,00,60,3C,00,00,
16739419,00000570,false,Rx,0,8,00,9E,85,00,60,3C,00,00,
16839464,00000570,false,Rx,0,8,00,9F,85,00,60,3C,00,00,
16939402,00000570,false,Rx,0,8,00,9E,85,00,60,3C,00,00,
17039401,00000570,false,Rx,0,8,00,9F,85,00,60,3C,00,00,
17139391,00000570,false,Rx,0,8,00,9E,85,00,60,3C,00,00,
17239384,00000570,false,Rx,0,8,02,9F,85,00,60,3C,00,02,
17339319,00000570,false,Rx,0,8,02,9A,85,00,5C,3B,00,02,
17439308,00000570,false,Rx,0,8,02,8D,85,00,51,36,00,02,
17539302,00000570,false,Rx,0,8,02,81,85,00,45,2F,00,02,
17639349,00000570,false,Rx,0,8,02,71,85,00,3A,27,00,02,
17739290,00000570,false,Rx,0,8,02,60,85,00,2F,1F,00,02,
17839340,00000570,false,Rx,0,8,02,4F,85,00,25,18,00,02,
17939329,00000570,false,Rx,0,8,02,3D,85,00,1C,12,00,02,
18039380,00000570,false,Rx,0,8,02,2A,85,00,13,0D,00,02,
18138903,00000570,false,Rx,0,8,02,05,85,00,02,01,00,02,
18238905,00000570,false,Rx,0,8,02,00,85,00,00,00,00,02,
18338913,00000570,false,Rx,0,8,02,00,85,00,00,00,00,02,
18438913,00000570,false,Rx,0,8,02,00,85,00,00,00,00,02,
18538935,00000570,false,Rx,0,8,02,00,85,00,00,00,00,02,
18638924,00000570,false,Rx,0,8,02,00,85,00,00,00,00,02,
18738927,00000570,false,Rx,0,8,02,00,85,00,00,00,00,02,
18838913,00000570,false,Rx,0,8,02,00,85,00,00,00,00,02,
18938924,00000570,false,Rx,0,8,02,00,85,00,00,00,00,02,
19038925,00000570,false,Rx,0,8,02,00,85,00,00,00,00,02,
19138945,00000570,false,Rx,0,8,02,00,85,00,00,00,00,02,
19238938,00000570,false,Rx,0,8,02,00,85,00,00,00,00,02,
19338934,00000570,false,Rx,0,8,02,00,85,00,00,00,00,02,
19438924,00000570,false,Rx,0,8,02,00,85,00,00,00,00,02,
19538929,00000570,false,Rx,0,8,02,00,85,00,00,00,00,02,
19638929,00000570,false,Rx,0,8,02,00,85,00,00,00,00,02,
19738931,00000570,false,Rx,0,8,02,00,85,00,00,00,00,02,
19838951,00000570,false,Rx,0,8,02,00,85,00,00,00,00,02,
19938954,00000570,false,Rx,0,8,02,00,85,00,00,00,00,02,
20038945,00000570,false,Rx,0,8,02,00,85,00,00,00,00,02,
20138934,00000570,false,Rx,0,8,02,00,85,00,00,00,00,02,
20238935,00000570,false,Rx,0,8,02,00,85,00,00,00,00,02,
20338944,00000570,false,Rx,0,8,02,00,85,00,00,00,00,02,
20438945,00000570,false,Rx,0,8,02,00,85,00,00,00,00,02,
20538959,00000570,false,Rx,0,8,02,00,85,00,00,00,00,02,
20638955,00000570,false,Rx,0,8,02,00,85,00,00,00,00,02,
20738944,00000570,false,Rx,0,8,02,00,85,00,00,00,00,02,
20838944,00000570,false,Rx,0,8,02,00,85,00,00,00,00,02,
20938955,00000570,false,Rx,0,8,02,00,85,00,00,00,00,02,
21038948,00000570,false,Rx,0,8,02,00,85,00,00,00,00,02,
21138976,00000570,false,Rx,0,8,02,00,85,00,00,00,00,02,
21238965,00000570,false,Rx,0,8,02,00,85,00,00,00,00,02,
21338965,00000570,false,Rx,0,8,02,00,85,00,00,00,00,02,
21438956,00000570,false,Rx,0,8,02,00,85,00,00,00,00,02,
21538955,00000570,false,Rx,0,8,02,00,85,00,00,00,00,02,
21638965,00000570,false,Rx,0,8,02,00,85,00,00,00,00,02,
21738965,00000570,false,Rx,0,8,02,00,85,00,00,00,00,02,
21838980,00000570,false,Rx,0,8,02,00,85,00,00,00,00,02,
21938981,00000570,false,Rx,0,8,02,00,85,00,00,00,00,02,
22038972,00000570,false,Rx,0,8,02,00,85,00,00,00,00,02,
22138964,00000570,false,Rx,0,8,02,00,85,00,00,00,00,02,
22238986,00000570,false,Rx,0,8,00,00,85,00,00,00,00,00,
22339251,00000570,false,Rx,0,8,00,01,85,00,09,01,00,00,
22439251,00000570,false,Rx,0,8,00,07,85,00,0D,03,00,00,
22539234,00000570,false,Rx,0,8,00,0E,85,00,10,04,00,00,
22639226,00000570,false,Rx,0,8,00,15,85,00,12,06,00,00,
22739226,00000570,false,Rx,0,8,00,1B,85,00,15,07,00,00,
22839261,00000570,false,Rx,0,8,00,21,85,00,19,09,00,00,
22939209,00000570,false,Rx,0,8,00,40,85,00,1B,08,00,00,
23039251,00000570,false,Rx,0,8,00,42,85,00,1B,07,00,00,
23139257,00000570,false,Rx,0,8,00,42,85,00,1B,06,00,00,
23239412,00000570,false,Rx,0,8,00,4B,85,00,1D,05,00,00,
23339412,00000570,false,Rx,0,8,00,5E,85,00,26,06,00,00,
23439390,00000570,false,Rx,0,8,00,6B,85,00,2F,08,00,00,
23539391,00000570,false,Rx,0,8,00,74,85,00,35,0B,00,00,
23639381,00000570,false,Rx,0,8,00,7A,85,00,3B,0E,00,00,
23739432,00000570,false,Rx,0,8,00,80,85,00,40,11,00,00,
23839415,00000570,false,Rx,0,8,00,84,85,00,43,15,00,00,
23939417,00000570,false,Rx,0,8,00,88,85,00,47,18,00,00,
24039410,00000570,false,Rx,0,8,00,8B,85,00,4A,1B,00,00,
24139453,00000570,false,Rx,0,8,00,8E,85,00,4D,1E,00,00,
24239391,00000570,false,Rx,0,8,00,90,85,00,4F,21,00,00,
24339447,00000570,false,Rx,0,8,00,92,85,00,51,23,00,00,
24439439,00000570,false,Rx,0,8,00,94,85,00,53,26,00,00,
24539439,00000570,false,Rx,0,8,00,95,85,00,55,28,00,00,
24639419,00000570,false,Rx,0,8,00,97,85,00,56,2A,00,00,
24739472,00000570,false,Rx,0,8,00,98,85,00,58,2C,00,00,
24839463,00000570,false,Rx,0,8,00,99,85,00,59,2E,00,00,
24939515,00000570,false,Rx,0,8,00,9A,85,00,5A,2F,00,00,
25039505,00000570,false,Rx,0,8,00,9A,85,00,5B,31,00,00,
25139505,00000570,false,Rx,0,8,00,9B,85,00,5B,32,00,00,
25239546,00000570,false,Rx,0,8,00,9B,85,00,5C,33,00,00,
25339488,00000570,false,Rx,0,8,00,9C,85,00,5C,34,00,00,
25439474,00000570,false,Rx,0,8,00,9C,85,00,5C,35,00,00,
25539525,00000570,false,Rx,0,8,00,9C,85,00,5D,35,00,00,
25639515,00000570,false,Rx,0,8,00,9D,85,00,5D,36,00,00,
25739515,00000570,false,Rx,0,8,00,9D,85,00,5E,37,00,00,
25839558,00000570,false,Rx,0,8,00,9E,85,00,5E,37,00,00,
25939505,00000570,false,Rx,0,8,00,9E,85,00,5E,38,00,00,
26039546,00000570,false,Rx,0,8,00,9E,85,00,5F,38,00,00,
26139484,00000570,false,Rx,0,8,00,9E,85,00,5F,39,00,00,
26239473,00000570,false,Rx,0,8,00,9E,85,00,5F,3A,00,00,
26339529,00000570,false,Rx,0,8,00,9E,85,00,5F,3A,00,00,
26439582,00000570,false,Rx,0,8,00,9F,85,00,60,3B,00,00,
26539572,00000570,false,Rx,0,8,00,9E,85,00,60,3B,00,00,
26639565,00000570,false,Rx,0,8,00,9F,85,00,60,3B,00,00,
26739609,00000570,false,Rx,0,8,00,9E,85,00,60,3B,00,00,
26839548,00000570,false,Rx,0,8,00,9F,85,00,60,3C,00,00,
26939536,00000570,false,Rx,0,8,00,9F,85,00,60,3C,00,00,
27039598,00000570,false,Rx,0,8,00,9F,85,00,60,3C,00,00,
27139644,00000570,false,Rx,0,8,00,9F,85,00,60,3C,00,00,
27239638,00000570,false,Rx,0,8,00,9F,85,00,60,3C,00,00,
27339577,00000570,false,Rx,0,8,00,9E,85,00,60,3C,00,00,
27439619,00000570,false,Rx,0,8,00,9F,85,00,60,3C,00,00,
27539608,00000570,false,Rx,0,8,00,9F,85,00,60,3C,00,00,
27639550,00000570,false,Rx,0,8,00,9F,85,00,60,3C,00,00,
27739542,00000570,false,Rx,0,8,00,9F,85,00,60,3C,00,00,
27839593,00000570,false,Rx,0,8,02,9F,85,00,60,3C,00,02,
27939469,00000570,false,Rx,0,8,02,98,85,00,5A,3A,00,02,
28039510,00000570,false,Rx,0,8,02,8B,85,00,4E,34,00,02,
28139502,00000570,false,Rx,0,8,02,7F,85,00,44,2D,00,02,
28239505,00000570,false,Rx,0,8,02,6F,85,00,38,25,00,02,
28339495,00000570,false,Rx,0,8,02,5E,85,00,2D,1D,00,02,
28439536,00000570,false,Rx,0,8,02,4B,85,00,23,17,00,02,
28539484,00000570,false,Rx,0,8,02,39,85,00,1A,11,00,02,
28639477,00000570,false,Rx,0,8,02,25,85,00,11,0C,00,02,
28739074,00000570,false,Rx,0,8,02,03,85,00,01,00,00,02,
28839074,00000570,false,Rx,0,8,02,00,85,00,00,00,00,02,
28939077,00000570,false,Rx,0,8,02,00,85,00,00,00,00,02,
29039100,00000570,false,Rx,0,8,02,00,85,00,00,00,00,02,
29139091,00000570,false,Rx,0,8,02,00,85,00,00,00,00,02,
29239079,00000570,false,Rx,0,8,02,00,85,00,00,00,00,02,
29339079,00000570,false,Rx,0,8,02,00,85,00,00,00,00,02,
29439085,00000570,false,Rx,0,8,02,00,85,00,00,00,00,02,
29539085,00000570,false,Rx,0,8,02,00,85,00,00,00,00,02,
29639108,00000570,false,Rx,0,8,02,00,85,00,00,00,00,02,
29739109,00000570,false,Rx,0,8,02,00,85,00,00,00,00,02,
29839099,00000570,false,Rx,0,8,02,00,85,00,00,00,00,02,
29939094,00000570,false,Rx,0,8,02,00,85,00,00,00,00,02,
30039096,00000570,false,Rx,0,8,02,00,85,00,00,00,00,02,
30139098,00000570,false,Rx,0,8,02,00,85,00,00,00,00,02,
30239100,00000570,false,Rx,0,8,02,00,85,00,00,00,00,02,
30339120,00000570,false,Rx,0,8,02,00,85,00,00,00,00,02,
30439116,00000570,false,Rx,0,8,02,00,85,00,00,00,00,02,
30539106,00000570,false,Rx,0,8,02,00,85,00,00,00,00,02,
30639108,00000570,false,Rx,0,8,02,00,85,00,00,00,00,02,
30739110,00000570,false,Rx,0,8,02,00,85,00,00,00,00,02,
30839110,00000570,false,Rx,0,8,02,00,85,00,00,00,00,02,
30939133,00000570,false,Rx,0,8,02,00,85,00,00,00,00,02,
31039131,00000570,false,Rx,0,8,02,00,85,00,00,00,00,02,
31139122,00000570,false,Rx,0,8,02,00,85,00,00,00,00,02,
31239110,00000570,false,Rx,0,8,02,00,85,00,00,00,00,02,
31339121,00000570,false,Rx,0,8,02,00,85,00,00,00,00,02,
31439115,00000570,false,Rx,0,8,02,00,85,00,00,00,00,02,
31539116,00000570,false,Rx,0,8,02,00,85,00,00,00,00,02,
31639140,00000570,false,Rx,0,8,02,00,85,00,00,00,00,02,
31739130,00000570,false,Rx,0,8,02,00,85,00,00,00,00,02,
31839121,00000570,false,Rx,0,8,02,00,85,00,00,00,00,02,
31939126,00000570,false,Rx,0,8,02,00,85,00,00,00,00,02,
32039126,00000570,false,Rx,0,8,02,00,85,00,00,00,00,02,
32139129,00000570,false,Rx,0,8,02,00,85,00,00,00,00,02,
32239151,00000570,false,Rx,0,8,02,00,85,00,00,00,00,02,
32339152,00000570,false,Rx,0,8,02,00,85,00,00,00,00,02,
32439136,00000570,false,Rx,0,8,02,00,85,00,00,00,00,02,
32539136,00000570,false,Rx,0,8,02,00,85,00,00,00,00,02,
32639139,00000570,false,Rx,0,8,02,00,85,00,00,00,00,02,
32739141,00000570,false,Rx,0,8,02,00,85,00,00,00,00,02,
32839412,00000570,false,Rx,0,8,00,00,85,00,01,00,00,00,
32939411,00000570,false,Rx,0,8,00,02,85,00,0A,01,00,00,
33039401,00000570,false,Rx,0,8,00,09,85,00,0E,03,00,00,
33139402,00000570,false,Rx,0,8,00,0F,85,00,10,05,00,00,
33239381,00000570,false,Rx,0,8,00,16,85,00,13,06,00,00,
33339381,00000570,false,Rx,0,8,00,1D,85,00,16,08,00,00,
33439363,00000570,false,Rx,0,8,00,26,85,00,19,09,00,00,
33539421,00000570,false,Rx,0,8,00,41,85,00,1B,08,00,00,
33639412,00000570,false,Rx,0,8,00,42,85,00,1A,07,00,00,
33739577,00000570,false,Rx,0,8,00,42,85,00,1B,06,00,00,
33839577,00000570,false,Rx,0,8,00,4F,85,00,1F,05,00,00,
33939561,00000570,false,Rx,0,8,00,61,85,00,28,07,00,00,
34039553,00000570,false,Rx,0,8,00,6D,85,00,30,09,00,00,
34139543,00000570,false,Rx,0,8,00,75,85,00,37,0C,00,00,
34239595,00000570,false,Rx,0,8,00,7C,85,00,3C,0F,00,00,
34339585,00000570,false,Rx,0,8,00,81,85,00,40,12,00,00,
34439578,00000570,false,Rx,0,8,00,85,85,00,44,15,00,00,
34539567,00000570,false,Rx,0,8,00,88,85,00,47,18,00,00,
34639557,00000570,false,Rx,0,8,00,8B,85,00,4A,1C,00,00,
34739557,00000570,false,Rx,0,8,00,8E,85,00,4D,1E,00,00,
34839608,00000570,false,Rx,0,8,00,90,85,00,50,21,00,00,
34939599,00000570,false,Rx,0,8,00,93,85,00,52,24,00,00,
35039598,00000570,false,Rx,0,8,00,95,85,00,54,26,00,00,
35139587,00000570,false,Rx,0,8,00,96,85,00,55,28,00,00,
35239577,00000570,false,Rx,0,8,00,97,85,00,57,2B,00,00,
35339577,00000570,false,Rx,0,8,00,98,85,00,58,2C,00,00,
35439620,00000570,false,Rx,0,8,00,9A,85,00,5A,2E,00,00,
35539670,00000570,false,Rx,0,8,00,9A,85,00,5A,30,00,00,
35639660,00000570,false,Rx,0,8,00,9B,85,00,5B,31,00,00,
35739660,00000570,false,Rx,0,8,00,9B,85,00,5B,32,00,00,
35839650,00000570,false,Rx,0,8,00,9B,85,00,5C,33,00,00,
35939694,00000570,false,Rx,0,8,00,9C,85,00,5C,34,00,00,
36039640,00000570,false,Rx,0,8,00,9C,85,00,5D,35,00,00,
36139681,00000570,false,Rx,0,8,00,9C,85,00,5D,35,00,00,
36239674,00000570,false,Rx,0,8,00,9D,85,00,5D,36,00,00,
36339665,00000570,false,Rx,0,8,00,9D,85,00,5E,37,00,00,
36439669,00000570,false,Rx,0,8,00,9D,85,00,5E,37,00,00,
36539711,00000570,false,Rx,0,8,00,9E,85,00,5E,38,00,00,
36639659,00000570,false,Rx,0,8,00,9E,85,00,5F,39,00,00,
36739649,00000570,false,Rx,0,8,00,9E,85,00,5F,39,00,00,
36839691,00000570,false,Rx,0,8,00,9E,85,00,5F,3A,00,00,
36939692,00000570,false,Rx,0,8,00,9F,85,00,60,3A,00,00,
37039732,00000570,false,Rx,0,8,00,9F,85,00,60,3B,00,00,
37139732,00000570,false,Rx,0,8,00,9F,85,00,60,3B,00,00,
37239785,00000570,false,Rx,0,8,00,9F,85,00,60,3B,00,00,
37339774,00000570,false,Rx,0,8,00,9F,85,00,60,3B,00,00,
37439705,00000570,false,Rx,0,8,00,9F,85,00,60,3C,00,00,
37539805,00000570,false,Rx,0,8,00,9F,85,00,60,3C,00,00,
37639691,00000570,false,Rx,0,8,00,9F,85,00,60,3C,00,00,
37739795,00000570,false,Rx,0,8,00,9F,85,00,60,3C,00,00,
37839733,00000570,false,Rx,0,8,00,9E,85,00,60,3C,00,00,
37939784,00000570,false,Rx,0,8,00,9F,85,00,60,3C,00,00,
38039773,00000570,false,Rx,0,8,00,9E,85,00,60,3C,00,00,
38139774,00000570,false,Rx,0,8,00,9F,85,00,60,3C,00,00,
38239768,00000570,false,Rx,0,8,00,9F,85,00,60,3C,00,00,
38339748,00000570,false,Rx,0,8,00,9F,85,00,60,3C,00,00,
38439697,00000570,false,Rx,0,8,02,9F,85,00,5F,3C,00,02,
38539627,00000570,false,Rx,0,8,02,96,85,00,59,3A,00,02,
38639670,00000570,false,Rx,0,8,02,8A,85,00,4D,34,00,02,
38739619,00000570,false,Rx,0,8,02,7C,85,00,42,2C,00,02,
38839660,00000570,false,Rx,0,8,02,6C,85,00,37,24,00,02,
38939660,00000570,false,Rx,0,8,02,5C,85,00,2C,1D,00,02,
39039705,00000570,false,Rx,0,8,02,4A,85,00,22,16,00,02,
39139639,00000570,false,Rx,0,8,02,38,85,00,19,10,00,02,
39239691,00000570,false,Rx,0,8,02,24,85,00,10,0C,00,02,
39339245,00000570,false,Rx,0,8,02,02,85,00,01,00,00,02,
39439267,00000570,false,Rx,0,8,02,00,85,00,00,00,00,02,
39539260,00000570,false,Rx,0,8,02,00,85,00,00,00,00,02,
39639256,00000570,false,Rx,0,8,02,00,85,00,00,00,00,02,
39739246,00000570,false,Rx,0,8,02,00,85,00,00,00,00,02,
39839245,00000570,false,Rx,0,8,02,00,85,00,00,00,00,02,
39939246,00000570,false,Rx,0,8,02,00,85,00,00,00,00,02,
40039250,00000570,false,Rx,0,8,02,00,85,00,00,00,00,02,
40139272,00000570,false,Rx,0,8,02,00,85,00,00,00,00,02,
40239273,00000570,false,Rx,0,8,02,00,85,00,00,00,00,02,
40339262,00000570,false,Rx,0,8,02,00,85,00,00,00,00,02,
40439263,00000570,false,Rx,0,8,02,00,85,00,00,00,00,02,
40539265,00000570,false,Rx,0,8,02,00,85,00,00,00,00,02,
40639256,00000570,false,Rx,0,8,02,00,85,00,00,00,00,02,
40739266,00000570,false,Rx,0,8,02,00,85,00,00,00,00,02,
40839288,00000570,false,Rx,0,8,02,00,85,00,00,00,00,02,
40939278,00000570,false,Rx,0,8,02,00,85,00,00,00,00,02,
41039271,00000570,false,Rx,0,8,02,00,85,00,00,00,00,02,
41139272,00000570,false,Rx,0,8,02,00,85,00,00,00,00,02,
41239273,00000570,false,Rx,0,8,02,00,85,00,00,00,00,02,
41339274,00000570,false,Rx,0,8,02,00,85,00,00,00,00,02,
41439295,00000570,false,Rx,0,8,02,00,85,00,00,00,00,02,
41539286,00000570,false,Rx,0,8,02,00,85,00,00,00,00,02,
41639287,00000570,false,Rx,0,8,02,00,85,00,00,00,00,02,
41739276,00000570,false,Rx,0,8,02,00,85,00,00,00,00,02,
41839282,00000570,false,Rx,0,8,02,00,85,00,00,00,00,02,
41939283,00000570,false,Rx,0,8,02,00,85,00,00,00,00,02,
42039283,00000570,false,Rx,0,8,02,00,85,00,00,00,00,02,
42139308,00000570,false,Rx,0,8,02,00,85,00,00,00,00,02,
42239297,00000570,false,Rx,0,8,02,00,85,00,00,00,00,02,
42339292,00000570,false,Rx,0,8,02,00,85,00,00,00,00,02,
42439293,00000570,false,Rx,0,8,02,00,85,00,00,00,00,02,
42539293,00000570,false,Rx,0,8,02,00,85,00,00,00,00,02,
42639298,00000570,false,Rx,0,8,02,00,85,00,00,00,00,02,
42739319,00000570,false,Rx,0,8,02,00,85,00,00,00,00,02,
42839312,00000570,false,Rx,0,8,02,00,85,00,00,00,00,02,
42939308,00000570,false,Rx,0,8,02,00,85,00,00,00,00,02,
43039298,00000570,false,Rx,0,8,02,00,85,00,00,00,00,02,
43139308,00000570,false,Rx,0,8,02,00,85,00,00,00,00,02,
43239309,00000570,false,Rx,0,8,02,00,85,00,00,00,00,02,
43339343,00000570,false,Rx,0,8,00,00,85,00,00,00,00,00,
43439582,00000570,false,Rx,0,8,00,00,85,00,02,00,00,00,
43539573,00000570,false,Rx,0,8,00,03,85,00,0A,02,00,00,
43639563,00000570,false,Rx,0,8,00,09,85,00,0E,03,00,00,
43739553,00000570,false,Rx,0,8,00,10,85,00,10,05,00,00,
43839595,00000570,false,Rx,0,8,00,17,85,00,13,06,00,00,
43939585,00000570,false,Rx,0,8,00,1E,85,00,17,08,00,00,
44039588,00000570,false,Rx,0,8,00,2B,85,00,19,09,00,00,
44139577,00000570,false,Rx,0,8,00,42,85,00,1A,08,00,00,
44239567,00000570,false,Rx,0,8,00,42,85,00,1A,06,00,00,
44339778,00000570,false,Rx,0,8,00,43,85,00,1B,05,00,00,
44439728,00000570,false,Rx,0,8,00,52,85,00,20,05,00,00,
44539717,00000570,false,Rx,0,8,00,64,85,00,29,07,00,00,
44639722,00000570,false,Rx,0,8,00,6F,85,00,31,09,00,00,
44739763,00000570,false,Rx,0,8,00,77,85,00,38,0C,00,00,
44839754,00000570,false,Rx,0,8,00,7D,85,00,3D,0F,00,00,
44939753,00000570,false,Rx,0,8,00,82,85,00,41,12,00,00,
45039743,00000570,false,Rx,0,8,00,87,85,00,45,15,00,00,
45139733,00000570,false,Rx,0,8,00,8A,85,00,48,18,00,00,
45239732,00000570,false,Rx,0,8,00,8D,85,00,4B,1B,00,00,
45339767,00000570,false,Rx,0,8,00,90,85,00,4D,1E,00,00,
45439764,00000570,false,Rx,0,8,00,92,85,00,4F,21,00,00,
45539753,00000570,false,Rx,0,8,00,94,85,00,51,23,00,00,
45639753,00000570,false,Rx,0,8,00,96,85,00,53,25,00,00,
45739743,00000570,false,Rx,0,8,00,97,85,00,55,28,00,00,
45839789,00000570,false,Rx,0,8,00,98,85,00,56,2A,00,00,
45939727,00000570,false,Rx,0,8,00,99,85,00,58,2B,00,00,
46039832,00000570,false,Rx,0,8,00,9B,85,00,59,2D,00,00,
46139824,00000570,false,Rx,0,8,00,9B,85,00,5A,2F,00,00,
46239878,00000570,false,Rx,0,8,00,9C,85,00,5A,30,00,00,
46339815,00000570,false,Rx,0,8,00,9C,85,00,5B,31,00,00,
46439805,00000570,false,Rx,0,8,00,9D,85,00,5B,32,00,00,
46539856,00000570,false,Rx,0,8,00,9D,85,00,5C,32,00,00,
46639850,00000570,false,Rx,0,8,00,9D,85,00,5C,33,00,00,
46739842,00000570,false,Rx,0,8,00,9E,85,00,5C,34,00,00,
46839883,00000570,false,Rx,0,8,00,9E,85,00,5D,34,00,00,
46939877,00000570,false,Rx,0,8,00,9E,85,00,5D,35,00,00,
47039826,00000570,false,Rx,0,8,00,9E,85,00,5D,36,00,00,
47139819,00000570,false,Rx,0,8,00,9F,85,00,5D,36,00,00,
47239810,00000570,false,Rx,0,8,00,9E,85,00,5E,37,00,00,
47339863,00000570,false,Rx,0,8,00,9F,85,00,5E,37,00,00,
47439857,00000570,false,Rx,0,8,00,9F,85,00,5E,38,00,00,
47539846,00000570,false,Rx,0,8,00,9F,85,00,5F,38,00,00,
47639891,00000570,false,Rx,0,8,00,A0,85,00,5F,39,00,00,
47739888,00000570,false,Rx,0,8,00,A0,85,00,5F,39,00,00,
47839878,00000570,false,Rx,0,8,00,A0,85,00,5F,39,00,00,
47939877,00000570,false,Rx,0,8,00,A0,85,00,60,3A,00,00,
48039919,00000570,false,Rx,0,8,00,A0,85,00,60,3A,00,00,
48139913,00000570,false,Rx,0,8,00,A0,85,00,60,3B,00,00,
48239903,00000570,false,Rx,0,8,00,A0,85,00,60,3B,00,00,
48339904,00000570,false,Rx,0,8,00,A0,85,00,60,3B,00,00,
48439946,00000570,false,Rx,0,8,00,A0,85,00,60,3B,00,00,
48539894,00000570,false,Rx,0,8,00,A0,85,00,60,3B,00,00,
48639990,00000570,false,Rx,0,8,00,A0,85,00,60,3B,00,00,
48739989,00000570,false,Rx,0,8,00,A0,85,00,60,3B,00,00,
48839980,00000570,false,Rx,0,8,00,A0,85,00,60,3B,00,00,
48939974,00000570,false,Rx,0,8,00,A0,85,00,60,3B,00,00,
49039965,00000570,false,Rx,0,8,00,A0,85,00,60,3B,00,00,
49139956,00000570,false,Rx,0,8,00,A0,85,00,60,3B,00,00,
49239950,00000570,false,Rx,0,8,00,A0,85,00,60,3B,00,00,
49339950,00000570,false,Rx,0,8,00,A0,85,00,60,3B,00,00,
49439939,00000570,false,Rx,0,8,00,A0,85,00,60,3B,00,00,
49539929,00000570,false,Rx,0,8,00,A0,85,00,60,3B,00,00,
49639920,00000570,false,Rx,0,8,00,A0,85,00,60,3B,00,00,
49739919,00000570,false,Rx,0,8,00,A0,85,00,60,3B,00,00,
49839908,00000570,false,Rx,0,8,00,A0,85,00,60,3B,00,00,
49939961,00000570,false,Rx,0,8,00,A0,85,00,60,3B,00,00,
50039950,00000570,false,Rx,0,8,00,A0,85,00,60,3B,00,00,
50139950,00000570,false,Rx,0,8,00,A0,85,00,60,3B,00,00,
50239940,00000570,false,Rx,0,8,00,A0,85,00,60,3B,00,00,
50339929,00000570,false,Rx,0,8,00,A0,85,00,60,3B,00,00,
50439932,00000570,false,Rx,0,8,00,A0,85,00,60,3B,00,00,
50539971,00000570,false,Rx,0,8,00,A0,85,00,60,3B,00,00,
50639971,00000570,false,Rx,0,8,00,A0,85,00,60,3B,00,00,
50739960,00000570,false,Rx,0,8,00,A0,85,00,60,3B,00,00,
50839950,00000570,false,Rx,0,8,00,A0,85,00,60,3B,00,00,
50939944,00000570,false,Rx,0,8,00,A0,85,00,60,3B,00,00,
51039945,00000570,false,Rx,0,8,00,A0,85,00,60,3B,00,00,
51139935,00000570,false,Rx,0,8,00,A0,85,00,60,3B,00,00,
51239979,00000570,false,Rx,0,8,00,A0,85,00,60,3B,00,00,
51339980,00000570,false,Rx,0,8,00,A0,85,00,60,3B,00,00,
51439975,00000570,false,Rx,0,8,00,A0,85,00,60,3B,00,00,
51539966,00000570,false,Rx,0,8,00,A0,85,00,60,3B,00,00,
51639956,00000570,false,Rx,0,8,00,A0,85,00,60,3B,00,00,
51739950,00000570,false,Rx,0,8,00,A0,85,00,60,3B,00,00,
51839939,00000570,false,Rx,0,8,00,A0,85,00,60,3B,00,00,
51939995,00000570,false,Rx,0,8,00,A0,85,00,60,3B,00,00,
52039981,00000570,false,Rx,0,8,00,A0,85,00,60,3B,00,00,
52139981,00000570,false,Rx,0,8,00,A0,85,00,60,3B,00,00,
52239975,00000570,false,Rx,0,8,00,A0,85,00,60,3B,00,00,
52340017,00000570,false,Rx,0,8,00,A0,85,00,60,3B,00,00,
52440011,00000570,false,Rx,0,8,00,A0,85,00,60,3B,00,00,
52540002,00000570,false,Rx,0,8,00,A0,85,00,60,3B,00,00,
52640053,00000570,false,Rx,0,8,00,A0,85,00,60,3B,00,00,
52740046,00000570,false,Rx,0,8,00,A0,85,00,60,3B,00,00,
52840033,00000570,false,Rx,0,8,00,A0,85,00,60,3B,00,00,
52940026,00000570,false,Rx,0,8,00,A0,85,00,60,3B,00,00,
53040023,00000570,false,Rx,0,8,00,A0,85,00,60,3B,00,00,
53140012,00000570,false,Rx,0,8,00,A0,85,00,60,3B,00,00,
53240016,00000570,false,Rx,0,8,00,A0,85,00,60,3B,00,00,
53340061,00000570,false,Rx,0,8,00,A0,85,00,60,3B,00,00,
53440000,00000570,false,Rx,0,8,00,A0,85,00,60,3B,00,00,
53539989,00000570,false,Rx,0,8,00,A0,85,00,60,3B,00,00,
53640042,00000570,false,Rx,0,8,00,A0,85,00,60,3B,00,00,
53740027,00000570,false,Rx,0,8,00,A0,85,00,60,3B,00,00,
53840028,00000570,false,Rx,0,8,00,A0,85,00,60,3B,00,00,
53940018,00000570,false,Rx,0,8,00,A0,85,00,60,3B,00,00,
54040008,00000570,false,Rx,0,8,00,A0,85,00,60,3B,00,00,
54140059,00000570,false,Rx,0,8,00,A0,85,00,60,3B,00,00,
54240053,00000570,false,Rx,0,8,00,A1,85,00,60,3B,00,00,
