Time Stamp,ID,Extended,Dir,Bus,LEN,D1,D2,D3,D4,D5,D6,D7,D8
5636304,00000523,false,Tx,0,8,00,00,00,00,00,00,FF,00,
5760737,00000523,false,Tx,0,8,00,00,00,00,00,00,FF,00,
5854466,00000523,false,Tx,0,8,00,00,00,00,00,00,FF,00,
5970091,00000523,false,Tx,0,8,00,00,00,00,00,00,FF,00,
6094199,00000523,false,Tx,0,8,00,00,00,00,00,00,FF,00,
6208699,00000523,false,Tx,0,8,00,00,00,00,00,00,FF,00,
6308507,00000523,false,Tx,0,8,00,00,00,00,00,00,FF,00,
6420290,00000523,false,Tx,0,8,00,00,00,00,00,00,FF,00,
6520501,00000523,false,Tx,0,8,00,00,00,00,00,00,FF,00,
6637668,00000523,false,Tx,0,8,00,00,00,00,00,00,FF,00,
6762582,00000523,false,Tx,0,8,00,00,00,00,00,00,FF,00,
6871962,00000523,false,Tx,0,8,00,00,00,00,00,00,FF,00,
6994551,00000523,false,Tx,0,8,00,00,00,00,00,00,FF,00,
7110538,00000523,false,Tx,0,8,00,00,00,00,00,00,FF,00,
7210639,00000523,false,Tx,0,8,00,00,00,00,00,00,FF,00,
7322207,00000523,false,Tx,0,8,00,00,00,00,00,00,FF,00,
7443077,00000523,false,Tx,0,8,00,00,00,00,00,00,FF,00,
7547239,00000523,false,Tx,0,8,00,00,00,00,00,00,FF,00,
7659342,00000523,false,Tx,0,8,00,00,00,00,00,00,FF,00,
7762820,00000523,false,Tx,0,8,00,00,00,00,00,00,FF,00,
7867820,00000523,false,Tx,0,8,00,00,00,00,00,00,FF,00,
7997961,00000523,false,Tx,0,8,00,00,00,00,00,00,FF,00,
4303035073,00000570,false,Rx,0,8,00,00,85,00,00,00,00,00,
8112469,00000523,false,Tx,0,8,00,00,00,00,00,00,FF,00,
4303135789,00000570,false,Rx,0,8,00,00,85,00,00,00,00,00,
8212922,00000523,false,Tx,0,8,00,00,00,00,00,00,FF,00,
4303235782,00000570,false,Rx,0,8,00,00,85,00,00,00,00,00,
8322929,00000523,false,Tx,0,8,00,00,00,00,00,00,FF,00,
4303335810,00000570,false,Rx,0,8,00,00,85,00,00,00,00,00,
8433747,00000523,false,Tx,0,8,00,00,00,00,00,00,FF,00,
4303435800,00000570,false,Rx,0,8,00,00,85,00,00,00,00,00,
8552753,00000523,false,Tx,0,8,00,00,00,00,00,00,FF,00,
4303535800,00000570,false,Rx,0,8,00,00,85,00,00,00,00,00,
8672760,00000523,false,Tx,0,8,00,00,00,00,00,00,FF,00,
4303635799,00000570,false,Rx,0,8,00,00,85,00,00,00,00,00,
4303735805,00000570,false,Rx,0,8,00,00,85,00,00,00,00,00,
8808462,00000523,false,Tx,0,8,00,00,00,00,00,00,FF,00,
4303835806,00000570,false,Rx,0,8,00,00,85,00,00,00,00,00,
8898511,00000523,false,Tx,0,8,00,00,00,00,00,00,FF,00,
4303935827,00000570,false,Rx,0,8,00,00,85,00,00,00,00,00,
9008644,00000523,false,Tx,0,8,00,00,00,00,00,00,FF,00,
4304035818,00000570,false,Rx,0,8,00,00,85,00,00,00,00,00,
9116938,00000523,false,Tx,0,8,00,00,00,00,00,00,FF,00,
4304135819,00000570,false,Rx,0,8,00,00,85,00,00,00,00,00,
9221266,00000523,false,Tx,0,8,00,00,00,00,00,00,FF,00,
4304236058,00000570,false,Rx,0,8,00,00,85,00,06,00,00,00,
9329095,00000523,false,Tx,0,8,00,00,00,00,00,00,FF,00,
4304336048,00000570,false,Rx,0,8,00,05,85,00,0C,02,00,00,
9441088,00000523,false,Tx,0,8,00,00,00,00,00,00,FF,00,
4304436037,00000570,false,Rx,0,8,00,0C,85,00,0F,04,00,00,
9556657,00000523,false,Tx,0,8,00,00,00,00,00,00,FF,00,
4304536079,00000570,false,Rx,0,8,00,13,85,00,11,05,00,00,
9675561,00000523,false,Tx,0,8,00,00,00,00,00,00,FF,00,
4304636078,00000570,false,Rx,0,8,00,1A,85,00,14,07,00,00,
9786966,00000523,false,Tx,0,8,00,00,00,00,00,00,FF,00,
4304736076,00000570,false,Rx,0,8,00,20,85,00,18,09,00,00,
9877845,00000523,false,Tx,0,8,00,00,00,00,00,00,FF,00,
4304836069,00000570,false,Rx,0,8,00,3A,85,00,1A,09,00,00,
9985050,00000523,false,Tx,0,8,00,00,00,00,00,00,FF,00,
4304936059,00000570,false,Rx,0,8,00,42,85,00,1B,07,00,00,
4305036059,00000570,false,Rx,0,8,00,42,85,00,1B,06,00,00,
10104393,00000523,false,Tx,0,8,00,00,00,00,00,00,FF,00,
4305136224,00000570,false,Rx,0,8,00,46,85,00,1C,05,00,00,
10214208,00000523,false,Tx,0,8,00,00,00,00,00,00,FF,00,
4305236277,00000570,false,Rx,0,8,00,59,85,00,23,06,00,00,
10313192,00000523,false,Tx,0,8,00,00,00,00,00,00,FF,00,
4305336266,00000570,false,Rx,0,8,00,68,85,00,2C,08,00,00,
10437681,00000523,false,Tx,0,8,00,00,00,00,00,00,FF,00,
4305436255,00000570,false,Rx,0,8,00,72,85,00,33,0A,00,00,
10548316,00000523,false,Tx,0,8,00,00,00,00,00,00,FF,00,
4305536245,00000570,false,Rx,0,8,00,79,85,00,39,0D,00,00,
10650987,00000523,false,Tx,0,8,00,00,00,00,00,00,FF,00,
4305636244,00000570,false,Rx,0,8,00,7F,85,00,3E,10,00,00,
10768480,00000523,false,Tx,0,8,00,00,00,00,00,00,FF,00,
4305736238,00000570,false,Rx,0,8,00,84,85,00,42,14,00,00,
10874500,00000523,false,Tx,0,8,00,00,00,00,00,00,FF,00,
4305836235,00000570,false,Rx,0,8,00,88,85,00,46,17,00,00,
10978108,00000523,false,Tx,0,8,00,00,00,00,00,00,FF,00,
4305936276,00000570,false,Rx,0,8,00,8B,85,00,49,1A,00,00,
4306036276,00000570,false,Rx,0,8,00,8D,85,00,4C,1D,00,00,
11093716,00000523,false,Tx,0,8,00,00,00,00,00,00,FF,00,
4306136276,00000570,false,Rx,0,8,00,90,85,00,4E,20,00,00,
11200247,00000523,false,Tx,0,8,00,00,00,00,00,00,FF,00,
4306236260,00000570,false,Rx,0,8,00,92,85,00,50,22,00,00,
11310994,00000523,false,Tx,0,8,00,00,00,00,00,00,FF,00,
4306336255,00000570,false,Rx,0,8,00,94,85,00,52,25,00,00,
11416285,00000523,false,Tx,0,8,00,00,00,00,00,00,FF,00,
4306436255,00000570,false,Rx,0,8,00,96,85,00,54,27,00,00,
11561259,00000523,false,Tx,0,8,00,00,00,00,00,00,FF,00,
4306536296,00000570,false,Rx,0,8,00,97,85,00,56,29,00,00,
11632076,00000523,false,Tx,0,8,00,00,00,00,00,00,FF,00,
4306636296,00000570,false,Rx,0,8,00,98,85,00,57,2B,00,00,
11743191,00000523,false,Tx,0,8,00,00,00,00,00,00,FF,00,
4306736288,00000570,false,Rx,0,8,00,9A,85,00,59,2D,00,00,
11863935,00000523,false,Tx,0,8,00,00,00,00,00,00,FF,00,
4306836338,00000570,false,Rx,0,8,00,9A,85,00,5A,2E,00,00,
11964321,00000523,false,Tx,0,8,00,00,00,00,00,00,FF,00,
4306936389,00000570,false,Rx,0,8,00,9B,85,00,5A,30,00,00,
12075714,00000523,false,Tx,0,8,00,00,00,00,00,00,FF,00,
4307036327,00000570,false,Rx,0,8,00,9B,85,00,5B,31,00,00,
12182078,00000523,false,Tx,0,8,00,00,00,00,00,00,FF,00,
4307136327,00000570,false,Rx,0,8,00,9C,85,00,5B,32,00,00,
4307236374,00000570,false,Rx,0,8,00,9C,85,00,5C,33,00,00,
12312714,00000523,false,Tx,0,8,00,00,00,00,00,00,FF,00,
4307336415,00000570,false,Rx,0,8,00,9C,85,00,5C,34,00,00,
12399519,00000523,false,Tx,0,8,00,00,00,00,00,00,FF,00,
4307436364,00000570,false,Rx,0,8,00,9D,85,00,5C,35,00,00,
12531411,00000523,false,Tx,0,8,00,00,00,00,00,00,FF,00,
4307536353,00000570,false,Rx,0,8,00,9E,85,00,5D,35,00,00,
12617137,00000523,false,Tx,0,8,00,00,00,00,00,00,FF,00,
4307636344,00000570,false,Rx,0,8,00,9E,85,00,5D,36,00,00,
12733231,00000523,false,Tx,0,8,00,00,00,00,00,00,FF,00,
4307736390,00000570,false,Rx,0,8,00,9E,85,00,5E,36,00,00,
12831037,00000523,false,Tx,0,8,00,00,00,00,00,00,FF,00,
4307836441,00000570,false,Rx,0,8,00,9F,85,00,5E,37,00,00,
12945278,00000523,false,Tx,0,8,00,00,00,00,00,00,FF,00,
4307936389,00000570,false,Rx,0,8,00,9F,85,00,5E,37,00,00,
13055870,00000523,false,Tx,0,8,00,00,00,00,00,00,FF,00,
4308036430,00000570,false,Rx,0,8,00,9F,85,00,5E,38,00,00,
13167388,00000523,false,Tx,0,8,00,00,00,00,00,00,FF,00,
4308136431,00000570,false,Rx,0,8,00,9F,85,00,5F,38,00,00,
4308236374,00000570,false,Rx,0,8,00,9F,85,00,5F,39,00,00,
13334184,00000523,false,Tx,0,8,00,00,00,00,00,00,FF,00,
4308336365,00000570,false,Rx,0,8,00,A0,85,00,5F,39,00,00,
13393029,00000523,false,Tx,0,8,00,00,00,00,00,00,FF,00,
4308436365,00000570,false,Rx,0,8,00,A0,85,00,60,3A,00,00,
13506298,00000523,false,Tx,0,8,00,00,00,00,00,00,FF,00,
4308536417,00000570,false,Rx,0,8,00,A0,85,00,60,3A,00,00,
13606006,00000523,false,Tx,0,8,00,00,00,00,00,00,FF,00,
4308636407,00000570,false,Rx,0,8,00,9F,85,00,60,3B,00,00,
13721645,00000523,false,Tx,0,8,00,00,00,00,00,00,FF,00,
4308736451,00000570,false,Rx,0,8,00,9F,85,00,60,3B,00,00,
13827966,00000523,false,Tx,0,8,00,00,00,00,00,00,FF,00,
4308836449,00000570,false,Rx,0,8,00,9F,85,00,60,3B,00,00,
13935265,00000523,false,Tx,0,8,00,00,00,00,00,00,FF,00,
4308936501,00000570,false,Rx,0,8,00,9F,85,00,60,3B,00,00,
14054144,00000523,false,Tx,0,8,00,00,00,00,00,00,FF,00,
4309036442,00000570,false,Rx,0,8,00,9F,85,00,60,3B,00,00,
14153622,00000523,false,Tx,0,8,00,00,00,00,00,00,FF,00,
4309136483,00000570,false,Rx,0,8,00,A0,85,00,60,3B,00,00,
14279501,00000523,false,Tx,0,8,00,00,00,00,00,00,FF,00,
4309236535,00000570,false,Rx,0,8,00,A0,85,00,60,3B,00,00,
14381044,00000523,false,Tx,0,8,00,00,00,00,00,00,FF,00,
4309336523,00000570,false,Rx,0,8,00,A0,85,00,60,3B,00,00,
4309436525,00000570,false,Rx,0,8,00,A0,85,00,60,3B,00,00,
14492302,00000523,false,Tx,0,8,00,00,00,00,00,00,FF,00,
4309536462,00000570,false,Rx,0,8,00,A0,85,00,60,3B,00,00,
14601190,00000523,false,Tx,0,8,00,00,00,00,00,00,FF,00,
4309636514,00000570,false,Rx,0,8,00,A0,85,00,60,3B,00,00,
14718443,00000523,false,Tx,0,8,00,00,00,00,00,00,FF,00,
4309736507,00000570,false,Rx,0,8,00,A0,85,00,60,3B,00,00,
14819238,00000523,false,Tx,0,8,00,00,00,00,00,00,FF,00,
4309836503,00000570,false,Rx,0,8,00,A0,85,00,60,3B,00,00,
14934257,00000523,false,Tx,0,8,00,00,00,00,00,00,FF,00,
4309936494,00000570,false,Rx,0,8,00,A0,85,00,60,3B,00,00,
15033838,00000523,false,Tx,0,8,00,00,00,00,00,00,FF,00,
4310036545,00000570,false,Rx,0,8,00,9F,85,00,60,3B,00,00,
15156944,00000523,false,Tx,0,8,00,00,00,00,00,00,FF,00,
4310136483,00000570,false,Rx,0,8,00,A0,85,00,60,3B,00,00,
15276724,00000523,false,Tx,0,8,00,00,00,00,00,00,FF,00,
4310236486,00000570,false,Rx,0,8,00,9F,85,00,60,3B,00,00,
15371223,00000523,false,Tx,0,8,00,00,00,00,00,00,FF,00,
4310336524,00000570,false,Rx,0,8,00,A0,85,00,60,3B,00,00,
4310436473,00000570,false,Rx,0,8,00,A0,85,00,60,3B,00,00,
15490762,00000523,false,Tx,0,8,00,00,00,00,00,00,FF,00,
4310536566,00000570,false,Rx,0,8,00,A0,85,00,60,3B,00,00,
15593358,00000523,false,Tx,0,8,00,00,00,00,00,00,FF,00,
4310636566,00000570,false,Rx,0,8,00,A0,85,00,60,3B,00,00,
15697563,00000523,false,Tx,0,8,00,00,00,00,00,00,FF,00,
4310736507,00000570,false,Rx,0,8,00,A0,85,00,60,3B,00,00,
15809412,00000523,false,Tx,0,8,00,00,00,00,00,00,FF,00,
4310836447,00000570,false,Rx,0,8,00,A0,85,00,60,3B,00,00,
15924779,00000523,false,Tx,0,8,00,00,00,00,00,00,FF,00,
4310936489,00000570,false,Rx,0,8,00,A0,85,00,60,3B,00,00,
16042991,00000523,false,Tx,0,8,00,00,00,00,00,00,FF,00,
4311036483,00000570,false,Rx,0,8,00,A0,85,00,60,3B,00,00,
16135031,00000523,false,Tx,0,8,00,00,00,00,00,00,FF,00,
4311136483,00000570,false,Rx,0,8,00,A0,85,00,60,3B,00,00,
16243510,00000523,false,Tx,0,8,00,00,00,00,00,00,FF,00,
4311236529,00000570,false,Rx,0,8,00,A0,85,00,60,3B,00,00,
16357013,00000523,false,Tx,0,8,00,00,00,00,00,00,FF,00,
4311336470,00000570,false,Rx,0,8,00,A0,85,00,60,3B,00,00,
16463883,00000523,false,Tx,0,8,00,00,00,00,00,00,FF,00,
4311436511,00000570,false,Rx,0,8,00,A0,85,00,60,3B,00,00,
16577121,00000523,false,Tx,0,8,00,00,00,00,00,00,FF,00,
4311536461,00000570,false,Rx,0,8,00,A0,85,00,60,3B,00,00,
16681870,00000523,false,Tx,0,8,00,00,00,00,00,00,FF,00,
4311636450,00000570,false,Rx,0,8,00,A0,85,00,60,3B,00,00,
4311736502,00000570,false,Rx,0,8,00,A0,85,00,60,3B,00,00,
16810492,00000523,false,Tx,0,8,00,00,00,00,00,00,FF,00,
4311836545,00000570,false,Rx,0,8,00,A0,85,00,60,3B,00,00,
16891419,00000523,false,Tx,0,8,00,00,00,00,00,00,FF,00,
4311936545,00000570,false,Rx,0,8,00,A0,85,00,60,3B,00,00,
17032833,00000523,false,Tx,0,8,00,00,00,00,00,00,FF,00,
4312036535,00000570,false,Rx,0,8,00,A0,85,00,60,3B,00,00,
17125947,00000523,false,Tx,0,8,00,00,00,00,00,00,FF,00,
4312136535,00000570,false,Rx,0,8,00,A0,85,00,60,3B,00,00,
17226726,00000523,false,Tx,0,8,00,00,00,00,00,00,FF,00,
4312236538,00000570,false,Rx,0,8,00,9F,85,00,60,3B,00,00,
17338897,00000523,false,Tx,0,8,00,00,00,00,00,00,FF,00,
4312336525,00000570,false,Rx,0,8,00,9F,85,00,60,3C,00,00,
17439395,00000523,false,Tx,0,8,00,00,00,00,00,00,FF,00,
4312436628,00000570,false,Rx,0,8,00,A0,85,00,60,3C,00,00,
17560210,00000523,false,Tx,0,8,00,00,00,00,00,00,FF,00,
4312536617,00000570,false,Rx,0,8,00,9F,85,00,60,3C,00,00,
17670899,00000523,false,Tx,0,8,00,00,00,00,00,00,FF,00,
4312636503,00000570,false,Rx,0,8,00,9F,85,00,60,3C,00,00,
17770066,00000523,false,Tx,0,8,00,00,00,00,00,00,FF,00,
4312736548,00000570,false,Rx,0,8,00,9F,85,00,60,3C,00,00,
17877467,00000523,false,Tx,0,8,00,00,00,00,00,00,FF,00,
4312836545,00000570,false,Rx,0,8,00,9F,85,00,60,3C,00,00,
4312936545,00000570,false,Rx,0,8,00,9F,85,00,60,3C,00,00,
17991170,00000523,false,Tx,0,8,00,00,00,00,00,00,FF,00,
4313036535,00000570,false,Rx,0,8,00,9F,85,00,60,3C,00,00,
18116144,00000523,false,Tx,0,8,00,00,00,00,00,00,FF,00,
4313136586,00000570,false,Rx,0,8,00,9F,85,00,60,3C,00,00,
18215660,00000523,false,Tx,0,8,00,00,00,00,00,00,FF,00,
4313236528,00000570,false,Rx,0,8,00,9F,85,00,60,3B,00,00,
18324774,00000523,false,Tx,0,8,00,00,00,00,00,00,FF,00,
4313336530,00000570,false,Rx,0,8,00,9F,85,00,60,3B,00,00,
18440905,00000523,false,Tx,0,8,00,00,00,00,00,00,FF,00,
4313436572,00000570,false,Rx,0,8,00,9F,85,00,60,3B,00,00,
18549644,00000523,false,Tx,0,8,00,00,00,00,00,00,FF,00,
4313536561,00000570,false,Rx,0,8,00,9F,85,00,60,3C,00,00,
18650886,00000523,false,Tx,0,8,00,00,00,00,00,00,FF,00,
4313636561,00000570,false,Rx,0,8,00,9F,85,00,60,3C,00,00,
18761566,00000523,false,Tx,0,8,00,00,00,00,00,00,FF,00,
4313736606,00000570,false,Rx,0,8,00,9F,85,00,60,3C,00,00,
18864630,00000523,false,Tx,0,8,00,00,00,00,00,00,FF,00,
4313836606,00000570,false,Rx,0,8,00,A0,85,00,60,3B,00,00,
18972818,00000523,false,Tx,0,8,00,00,00,00,00,00,FF,00,
4313936593,00000570,false,Rx,0,8,00,A0,85,00,60,3B,00,00,
4314036532,00000570,false,Rx,0,8,00,A0,85,00,60,3B,00,00,
19090715,00000523,false,Tx,0,8,00,00,00,00,00,00,FF,00,
4314136585,00000570,false,Rx,0,8,00,9F,85,00,60,3B,00,00,
19190886,00000523,false,Tx,0,8,00,00,00,00,00,00,FF,00,
4314236576,00000570,false,Rx,0,8,00,9F,85,00,60,3B,00,00,
19323455,00000523,false,Tx,0,8,00,00,00,00,00,00,FF,00,
4314336576,00000570,false,Rx,0,8,00,A0,85,00,60,3B,00,00,
19415061,00000523,false,Tx,0,8,00,00,00,00,00,00,FF,00,
4314436617,00000570,false,Rx,0,8,00,A0,85,00,60,3B,00,00,
19542032,00000523,false,Tx,0,8,00,00,00,00,00,00,FF,00,
4314536566,00000570,false,Rx,0,8,00,A0,85,00,60,3B,00,00,
19632602,00000523,false,Tx,0,8,00,00,00,00,00,00,FF,00,
4314636607,00000570,false,Rx,0,8,00,9F,85,00,60,3B,00,00,
19748818,00000523,false,Tx,0,8,00,00,00,00,00,00,FF,00,
4314736548,00000570,false,Rx,0,8,00,A0,85,00,60,3B,00,00,
19857458,00000523,false,Tx,0,8,00,00,00,00,00,00,FF,00,
4314836545,00000570,false,Rx,0,8,00,9F,85,00,60,3B,00,00,
19961712,00000523,false,Tx,0,8,00,00,00,00,00,00,FF,00,
4314936534,00000570,false,Rx,0,8,00,A0,85,00,60,3B,00,00,
20065064,00000523,false,Tx,0,8,00,00,00,00,00,00,FF,00,
4315036586,00000570,false,Rx,0,8,00,A0,85,00,60,3B,00,00,
20182697,00000523,false,Tx,0,8,00,00,00,00,00,00,FF,00,
4315136585,00000570,false,Rx,0,8,00,A0,85,00,60,3B,00,00,
4315236631,00000570,false,Rx,0,8,00,9F,85,00,60,3B,00,00,
20301214,00000523,false,Tx,0,8,00,00,00,00,00,00,FF,00,
4315336628,00000570,false,Rx,0,8,00,9F,85,00,60,3B,00,00,
20421888,00000523,false,Tx,0,8,00,00,00,00,00,00,FF,00,
4315436617,00000570,false,Rx,0,8,00,A0,85,00,60,3B,00,00,
20543583,00000523,false,Tx,0,8,00,00,00,00,00,00,FF,00,
4315536617,00000570,false,Rx,0,8,00,A0,85,00,60,3B,00,00,
20631956,00000523,false,Tx,0,8,00,00,00,00,00,00,FF,00,
4315636618,00000570,false,Rx,0,8,00,9F,85,00,60,3B,00,00,
20750122,00000523,false,Tx,0,8,00,00,00,00,00,00,FF,00,
4315736663,00000570,false,Rx,0,8,00,A0,85,00,60,3B,00,00,
20846777,00000523,false,Tx,0,8,00,00,00,00,00,00,FF,00,
4315836654,00000570,false,Rx,0,8,00,9F,85,00,60,3B,00,00,
20968964,00000523,false,Tx,0,8,00,00,00,00,00,00,FF,00,
4315936644,00000570,false,Rx,0,8,00,A0,85,00,60,3B,00,00,
21062786,00000523,false,Tx,0,8,00,00,00,00,00,00,FF,00,
4316036582,00000570,false,Rx,0,8,00,A0,85,00,60,3B,00,00,
21184883,00000523,false,Tx,0,8,00,00,00,00,00,00,FF,00,
4316136585,00000570,false,Rx,0,8,00,A0,85,00,60,3B,00,00,
4316236627,00000570,false,Rx,0,8,00,A0,85,00,60,3B,00,00,
21297379,00000523,false,Tx,0,8,00,00,00,00,00,00,FF,00,
4316336628,00000570,false,Rx,0,8,00,9F,85,00,60,3B,00,00,
21401254,00000523,false,Tx,0,8,00,00,00,00,00,00,FF,00,
4316436669,00000570,false,Rx,0,8,00,A0,85,00,60,3B,00,00,
21540280,00000523,false,Tx,0,8,00,00,00,00,00,00,FF,00,
4316536668,00000570,false,Rx,0,8,00,9F,85,00,60,3B,00,00,
21638678,00000523,false,Tx,0,8,00,00,00,00,00,00,FF,00,
4316636659,00000570,false,Rx,0,8,00,A0,85,00,60,3B,00,00,
21755397,00000523,false,Tx,0,8,00,00,00,00,00,00,FF,00,
4316736607,00000570,false,Rx,0,8,00,A0,85,00,60,3B,00,00,
21849345,00000523,false,Tx,0,8,00,00,00,00,00,00,FF,00,
4316836648,00000570,false,Rx,0,8,00,A0,85,00,60,3B,00,00,
21972800,00000523,false,Tx,0,8,00,00,00,00,00,00,FF,00,
4316936597,00000570,false,Rx,0,8,00,9F,85,00,60,3B,00,00,
22072268,00000523,false,Tx,0,8,00,00,00,00,00,00,FF,00,
4317036638,00000570,false,Rx,0,8,00,9F,85,00,60,3B,00,00,
22182831,00000523,false,Tx,0,8,00,00,00,00,00,00,FF,00,
4317136638,00000570,false,Rx,0,8,00,9F,85,00,60,3B,00,00,
4317236682,00000570,false,Rx,0,8,00,9F,85,00,60,3B,00,00,
22304068,00000523,false,Tx,0,8,00,00,00,00,00,00,FF,00,
4317336679,00000570,false,Rx,0,8,00,9F,85,00,60,3B,00,00,
22405036,00000523,false,Tx,0,8,00,00,00,00,00,00,FF,00,
4317436679,00000570,false,Rx,0,8,00,9F,85,00,60,3B,00,00,
22520436,00000523,false,Tx,0,8,00,00,00,00,00,00,FF,00,
4317536664,00000570,false,Rx,0,8,00,A0,85,00,60,3B,00,00,
22642238,00000523,false,Tx,0,8,00,00,00,00,00,00,FF,00,
4317636706,00000570,false,Rx,0,8,00,A0,85,00,60,3B,00,00,
22741774,00000523,false,Tx,0,8,00,00,00,00,00,00,FF,00,
4317736708,00000570,false,Rx,0,8,00,A0,85,00,60,3B,00,00,
22850604,00000523,false,Tx,0,8,00,00,00,00,00,00,FF,00,
4317836654,00000570,false,Rx,0,8,00,9F,85,00,60,3B,00,00,
22962737,00000523,false,Tx,0,8,00,00,00,00,00,00,FF,00,
4317936695,00000570,false,Rx,0,8,00,9F,85,00,60,3B,00,00,
4318036696,00000570,false,Rx,0,8,00,9F,85,00,60,3B,00,00,
23100088,00000523,false,Tx,0,8,00,00,00,00,00,00,FF,00,
4318136686,00000570,false,Rx,0,8,00,9F,85,00,60,3B,00,00,
23189575,00000523,false,Tx,0,8,00,00,00,00,00,00,FF,00,
4318236626,00000570,false,Rx,0,8,00,9F,85,00,60,3B,00,00,
23305157,00000523,false,Tx,0,8,00,00,00,00,00,00,FF,00,
4318336675,00000570,false,Rx,0,8,00,9F,85,00,60,3B,00,00,
23403327,00000523,false,Tx,0,8,00,00,00,00,00,00,FF,00,
4318436676,00000570,false,Rx,0,8,00,9F,85,00,60,3B,00,00,
23527983,00000523,false,Tx,0,8,00,00,00,00,00,00,FF,00,
4318536659,00000570,false,Rx,0,8,00,A0,85,00,60,3B,00,00,
23643762,00000523,false,Tx,0,8,00,00,00,00,00,00,FF,00,
4318636659,00000570,false,Rx,0,8,00,A0,85,00,60,3B,00,00,
23741706,00000523,false,Tx,0,8,00,00,00,00,00,00,FF,00,
4318736650,00000570,false,Rx,0,8,00,A0,85,00,60,3B,00,00,
23853036,00000523,false,Tx,0,8,00,00,00,00,00,00,FF,00,
4318836700,00000570,false,Rx,0,8,00,9F,85,00,60,3B,00,00,
23959987,00000523,false,Tx,0,8,00,00,00,00,00,00,FF,00,
4318936701,00000570,false,Rx,0,8,00,9F,85,00,60,3B,00,00,
4319036742,00000570,false,Rx,0,8,00,A0,85,00,60,3B,00,00,
24090301,00000523,false,Tx,0,8,00,00,00,00,00,00,FF,00,
4319136741,00000570,false,Rx,0,8,00,A0,85,00,60,3B,00,00,
24192458,00000523,false,Tx,0,8,00,00,00,00,00,00,FF,00,
4319236742,00000570,false,Rx,0,8,00,9F,85,00,60,3B,00,00,
24304853,00000523,false,Tx,0,8,00,00,00,00,00,00,FF,00,
4319336731,00000570,false,Rx,0,8,00,9F,85,00,60,3B,00,00,
24399834,00000523,false,Tx,0,8,00,00,00,00,00,00,FF,00,
4319436670,00000570,false,Rx,0,8,00,9F,85,00,60,3B,00,00,
24515264,00000523,false,Tx,0,8,00,00,00,00,00,00,FF,00,
4319536714,00000570,false,Rx,0,8,00,9F,85,00,60,3B,00,00,
24624490,00000523,false,Tx,0,8,00,00,00,00,00,00,FF,00,
4319636762,00000570,false,Rx,0,8,00,9F,85,00,60,3B,00,00,
24730680,00000523,false,Tx,0,8,00,00,00,00,00,00,FF,00,
4319736762,00000570,false,Rx,0,8,00,9F,85,00,60,3B,00,00,
24845782,00000523,false,Tx,0,8,00,00,00,00,00,00,FF,00,
4319836751,00000570,false,Rx,0,8,00,9F,85,00,60,3B,00,00,
24946906,00000523,false,Tx,0,8,00,00,00,00,00,00,FF,00,
4319936701,00000570,false,Rx,0,8,00,9F,85,00,60,3B,00,00,
25068079,00000523,false,Tx,0,8,00,00,00,00,00,00,FF,00,
4320036694,00000570,false,Rx,0,8,00,9F,85,00,60,3B,00,00,
25172643,00000523,false,Tx,0,8,00,00,00,00,00,00,FF,00,
4320136685,00000570,false,Rx,0,8,00,A0,85,00,60,3B,00,00,
25279494,00000523,false,Tx,0,8,00,00,00,00,00,00,FF,00,
4320236676,00000570,false,Rx,0,8,00,A0,85,00,60,3B,00,00,
25376773,00000523,false,Tx,0,8,00,00,00,00,00,00,FF,00,
4320336726,00000570,false,Rx,0,8,00,9F,85,00,60,3B,00,00,
4320436769,00000570,false,Rx,0,8,00,A0,85,00,60,3B,00,00,
25497725,00000523,false,Tx,0,8,00,00,00,00,00,00,FF,00,
4320536772,00000570,false,Rx,0,8,00,9F,85,00,60,3B,00,00,
25610336,00000523,false,Tx,0,8,00,00,00,00,00,00,FF,00,
4320636772,00000570,false,Rx,0,8,00,9F,85,00,60,3B,00,00,
25713903,00000523,false,Tx,0,8,00,00,00,00,00,00,FF,00,
4320736761,00000570,false,Rx,0,8,00,9F,85,00,60,3B,00,00,
25862729,00000523,false,Tx,0,8,00,00,00,00,00,00,FF,00,
4320836763,00000570,false,Rx,0,8,00,9F,85,00,60,3B,00,00,
25934729,00000523,false,Tx,0,8,00,00,00,00,00,00,FF,00,
4320936805,00000570,false,Rx,0,8,00,9F,85,00,60,3B,00,00,
26042022,00000523,false,Tx,0,8,00,00,00,00,00,00,FF,00,
4321036799,00000570,false,Rx,0,8,00,9F,85,00,60,3B,00,00,
26148865,00000523,false,Tx,0,8,00,00,00,00,00,00,FF,00,
4321136736,00000570,false,Rx,0,8,00,9F,85,00,60,3B,00,00,
26266573,00000523,false,Tx,0,8,00,00,00,00,00,00,FF,00,
4321236789,00000570,false,Rx,0,8,00,9F,85,00,60,3B,00,00,
26360325,00000523,false,Tx,0,8,00,00,00,00,00,00,FF,00,
4321336779,00000570,false,Rx,0,8,00,9F,85,00,60,3B,00,00,
26484777,00000523,false,Tx,0,8,00,00,00,00,00,00,FF,00,
4321436834,00000570,false,Rx,0,8,00,9F,85,00,60,3B,00,00,
26585665,00000523,false,Tx,0,8,00,00,00,00,00,00,FF,00,
4321536772,00000570,false,Rx,0,8,00,9F,85,00,60,3B,00,00,
4321636762,00000570,false,Rx,0,8,00,9F,85,00,60,3B,00,00,
26700909,00000523,false,Tx,0,8,00,00,00,00,00,00,FF,00,
4321736762,00000570,false,Rx,0,8,00,9F,85,00,60,3B,00,00,
26812490,00000523,false,Tx,0,8,00,00,00,00,00,00,FF,00,
4321836751,00000570,false,Rx,0,8,00,9F,85,00,60,3B,00,00,
26920490,00000523,false,Tx,0,8,00,00,00,00,00,00,FF,00,
4321936752,00000570,false,Rx,0,8,00,9F,85,00,60,3B,00,00,
27036603,00000523,false,Tx,0,8,00,00,00,00,00,00,FF,00,
4322036798,00000570,false,Rx,0,8,00,9F,85,00,60,3B,00,00,
27132182,00000523,false,Tx,0,8,00,00,00,00,00,00,FF,00,
4322136794,00000570,false,Rx,0,8,00,9F,85,00,60,3B,00,00,
27251966,00000523,false,Tx,0,8,00,00,00,00,00,00,FF,00,
4322236836,00000570,false,Rx,0,8,00,9F,85,00,60,3B,00,00,
27353256,00000523,false,Tx,0,8,00,00,00,00,00,00,FF,00,
4322336831,00000570,false,Rx,0,8,00,9F,85,00,60,3B,00,00,
27465552,00000523,false,Tx,0,8,00,00,00,00,00,00,FF,00,
4322436831,00000570,false,Rx,0,8,00,9F,85,00,60,3B,00,00,
27570098,00000523,false,Tx,0,8,00,00,00,00,00,00,FF,00,
4322536873,00000570,false,Rx,0,8,00,9F,85,00,60,3B,00,00,
27684610,00000523,false,Tx,0,8,00,00,00,00,00,00,FF,00,
4322636767,00000570,false,Rx,0,8,00,9F,85,00,60,3B,00,00,
4322736811,00000570,false,Rx,0,8,00,9F,85,00,60,3B,00,00,
27788502,00000523,false,Tx,0,8,00,00,00,00,00,00,FF,00,
4322836806,00000570,false,Rx,0,8,00,9F,85,00,60,3B,00,00,
27896031,00000523,false,Tx,0,8,00,00,00,00,00,00,FF,00,
4322936806,00000570,false,Rx,0,8,00,9F,85,00,60,3B,00,00,
28021296,00000523,false,Tx,0,8,00,00,00,00,00,00,FF,00,
4323036798,00000570,false,Rx,0,8,00,9F,85,00,60,3B,00,00,
28124631,00000523,false,Tx,0,8,00,00,00,00,00,00,FF,00,
4323136794,00000570,false,Rx,0,8,00,9F,85,00,60,3B,00,00,
28238790,00000523,false,Tx,0,8,00,00,00,00,00,00,FF,00,
4323236784,00000570,false,Rx,0,8,00,9F,85,00,60,3B,00,00,
28355638,00000523,false,Tx,0,8,00,00,00,00,00,00,FF,00,
4323336881,00000570,false,Rx,0,8,00,9F,85,00,60,3B,00,00,
28454465,00000523,false,Tx,0,8,00,00,00,00,00,00,FF,00,
4323436820,00000570,false,Rx,0,8,00,A0,85,00,60,3B,00,00,
28555120,00000523,false,Tx,0,8,00,00,00,00,00,00,FF,00,
4323536824,00000570,false,Rx,0,8,00,A0,85,00,60,3B,00,00,
28669440,00000523,false,Tx,0,8,00,00,00,00,00,00,FF,00,
4323636866,00000570,false,Rx,0,8,00,A0,85,00,60,3B,00,00,
28775934,00000523,false,Tx,0,8,00,00,00,00,00,00,FF,00,
4323736866,00000570,false,Rx,0,8,00,A0,85,00,60,3B,00,00,
28886319,00000523,false,Tx,0,8,00,00,00,00,00,00,FF,00,
4323836861,00000570,false,Rx,0,8,00,A1,85,00,60,3B,00,00,
4323936851,00000570,false,Rx,0,8,00,A1,85,00,60,3B,00,00,
29002249,00000523,false,Tx,0,8,00,00,00,00,00,00,FF,00,
4324036903,00000570,false,Rx,0,8,00,A1,85,00,60,3A,00,00,
29110359,00000523,false,Tx,0,8,00,00,00,00,00,00,FF,00,
4324136841,00000570,false,Rx,0,8,00,A2,85,00,60,3A,00,00,
29224021,00000523,false,Tx,0,8,00,00,00,00,00,00,FF,00,
4324236945,00000570,false,Rx,0,8,00,A2,85,00,60,3A,00,00,
29351806,00000523,false,Tx,0,8,00,00,00,00,00,00,FF,00,
4324336939,00000570,false,Rx,0,8,00,A2,85,00,60,3A,00,00,
29456218,00000523,false,Tx,0,8,00,00,00,00,00,00,FF,00,
4324436877,00000570,false,Rx,0,8,00,A3,85,00,60,3A,00,00,
29581354,00000523,false,Tx,0,8,00,00,00,00,00,00,FF,00,
4324536930,00000570,false,Rx,0,8,00,A3,85,00,60,3A,00,00,
29687037,00000523,false,Tx,0,8,00,00,00,00,00,00,FF,00,
4324636970,00000570,false,Rx,0,8,00,A3,85,00,60,3A,00,00,
4324736857,00000570,false,Rx,0,8,00,A3,85,00,60,3A,00,00,
29790313,00000523,false,Tx,0,8,00,00,00,00,00,00,FF,00,
4324836913,00000570,false,Rx,0,8,00,A3,85,00,60,3A,00,00,
29896816,00000523,false,Tx,0,8,00,00,00,00,00,00,FF,00,
4324936955,00000570,false,Rx,0,8,00,A5,85,00,60,39,00,00,
30019598,00000523,false,Tx,0,8,00,00,00,00,00,00,FF,00,
4325036948,00000570,false,Rx,0,8,00,A5,85,00,60,39,00,00,
30148468,00000523,false,Tx,0,8,00,00,00,00,00,00,FF,00,
4325136949,00000570,false,Rx,0,8,00,A5,85,00,60,39,00,00,
30242070,00000523,false,Tx,0,8,00,00,00,00,00,00,FF,00,
4325236940,00000570,false,Rx,0,8,00,A6,85,00,60,39,00,00,
30365234,00000523,false,Tx,0,8,00,00,00,00,00,00,FF,00,
4325336882,00000570,false,Rx,0,8,00,A6,85,00,60,39,00,00,
30466404,00000523,false,Tx,0,8,00,00,00,00,00,00,FF,00,
4325436924,00000570,false,Rx,0,8,00,A6,85,00,60,38,00,00,
4325536928,00000570,false,Rx,0,8,00,A7,85,00,60,38,00,00,
30602980,00000523,false,Tx,0,8,00,00,00,00,00,00,FF,00,
4325636968,00000570,false,Rx,0,8,00,A7,85,00,60,38,00,00,
30708425,00000523,false,Tx,0,8,00,00,00,00,00,00,FF,00,
4325736968,00000570,false,Rx,0,8,00,A7,85,00,60,38,00,00,
30820310,00000523,false,Tx,0,8,00,00,00,00,00,00,FF,00,
4325836959,00000570,false,Rx,0,8,00,A7,85,00,60,38,00,00,
30942859,00000523,false,Tx,0,8,00,00,00,00,00,00,FF,00,
4325936898,00000570,false,Rx,0,8,00,A8,85,00,60,38,00,00,
31043923,00000523,false,Tx,0,8,00,00,00,00,00,00,FF,00,
4326036950,00000570,false,Rx,0,8,00,A7,85,00,60,38,00,00,
31152351,00000523,false,Tx,0,8,00,00,00,00,00,00,FF,00,
4326137001,00000570,false,Rx,0,8,00,A7,85,00,60,37,00,00,
31259149,00000523,false,Tx,0,8,00,00,00,00,00,00,FF,00,
4326236991,00000570,false,Rx,0,8,00,A7,85,00,60,37,00,00,
31367564,00000523,false,Tx,0,8,00,00,00,00,00,00,FF,00,
4326336991,00000570,false,Rx,0,8,00,A7,85,00,60,37,00,00,
31475462,00000523,false,Tx,0,8,00,00,00,00,00,00,FF,00,
4326436981,00000570,false,Rx,0,8,00,A7,85,00,60,37,00,00,
4326537033,00000570,false,Rx,0,8,00,A7,85,00,60,37,00,00,
31593563,00000523,false,Tx,0,8,00,00,00,00,00,00,FF,00,
4326636969,00000570,false,Rx,0,8,00,A7,85,00,60,37,00,00,
31705349,00000523,false,Tx,0,8,00,00,00,00,00,00,FF,00,
4326736908,00000570,false,Rx,0,8,00,A8,85,00,60,36,00,00,
31814113,00000523,false,Tx,0,8,00,00,00,00,00,00,FF,00,
4326837012,00000570,false,Rx,0,8,00,A8,85,00,60,36,00,00,
31912228,00000523,false,Tx,0,8,00,00,00,00,00,00,FF,00,
4326937012,00000570,false,Rx,0,8,00,A8,85,00,60,36,00,00,
32023414,00000523,false,Tx,0,8,00,00,00,00,00,00,FF,00,
4327036950,00000570,false,Rx,0,8,00,A8,85,00,60,36,00,00,
32161568,00000523,false,Tx,0,8,00,00,00,00,00,00,FF,00,
4327136991,00000570,false,Rx,0,8,00,AD,85,00,60,36,00,00,
32246145,00000523,false,Tx,0,8,00,00,00,00,00,00,FF,00,
4327236991,00000570,false,Rx,0,8,00,AE,85,00,60,36,00,00,
32372542,00000523,false,Tx,0,8,00,00,00,00,00,00,FF,00,
4327336985,00000570,false,Rx,0,8,00,AE,85,00,60,35,00,00,
32459634,00000523,false,Tx,0,8,00,00,00,00,00,00,FF,00,
4327436987,00000570,false,Rx,0,8,00,AE,85,00,60,35,00,00,
4327536977,00000570,false,Rx,0,8,00,AF,85,00,60,35,00,00,
32591062,00000523,false,Tx,0,8,00,00,00,00,00,00,FF,00,
4327637028,00000570,false,Rx,0,8,00,AF,85,00,60,35,00,00,
32693109,00000523,false,Tx,0,8,00,00,00,00,00,00,FF,00,
4327736966,00000570,false,Rx,0,8,00,AF,85,00,60,35,00,00,
32808937,00000523,false,Tx,0,8,00,00,00,00,00,00,FF,00,
4327837021,00000570,false,Rx,0,8,00,B0,85,00,60,35,00,00,
32916858,00000523,false,Tx,0,8,00,00,00,00,00,00,FF,00,
4327937002,00000570,false,Rx,0,8,00,B0,85,00,60,35,00,00,
33026780,00000523,false,Tx,0,8,00,00,00,00,00,00,FF,00,
4328036950,00000570,false,Rx,0,8,00,B1,85,00,60,35,00,00,
33138582,00000523,false,Tx,0,8,00,00,00,00,00,00,FF,00,
4328137001,00000570,false,Rx,0,8,00,B2,85,00,60,35,00,00,
33249424,00000523,false,Tx,0,8,00,00,00,00,00,00,FF,00,
4328237053,00000570,false,Rx,0,8,00,B3,85,00,60,34,00,00,
33365704,00000523,false,Tx,0,8,00,00,00,00,00,00,FF,00,
4328337045,00000570,false,Rx,0,8,00,B4,85,00,60,34,00,00,
33469049,00000523,false,Tx,0,8,00,00,00,00,00,00,FF,00,
4328436971,00000570,false,Rx,0,8,00,B5,85,00,60,34,00,00,
4328536919,00000570,false,Rx,0,8,00,B6,85,00,60,33,00,00,
33600809,00000523,false,Tx,0,8,00,00,00,00,00,00,FF,00,
4328636913,00000570,false,Rx,0,8,00,B6,85,00,5F,33,00,00,
33703316,00000523,false,Tx,0,8,00,00,00,00,00,00,FF,00,
4328736954,00000570,false,Rx,0,8,00,B6,85,00,5F,32,00,00,
33804011,00000523,false,Tx,0,8,00,00,00,00,00,00,FF,00,
4328837001,00000570,false,Rx,0,8,00,B6,85,00,5E,32,00,00,
33909164,00000523,false,Tx,0,8,00,00,00,00,00,00,FF,00,
4328937002,00000570,false,Rx,0,8,00,B5,85,00,5E,31,00,00,
34051442,00000523,false,Tx,0,8,00,00,00,00,00,00,FF,00,
4329036991,00000570,false,Rx,0,8,00,B5,85,00,5D,30,00,00,
34173091,00000523,false,Tx,0,8,00,00,00,00,00,00,FF,00,
4329136991,00000570,false,Rx,0,8,00,B4,85,00,5D,2F,00,00,
34267582,00000523,false,Tx,0,8,00,00,00,00,00,00,FF,00,
4329236980,00000570,false,Rx,0,8,00,B4,85,00,5C,2E,00,00,
4329336974,00000570,false,Rx,0,8,00,B3,85,00,5B,2D,00,00,
34392085,00000523,false,Tx,0,8,00,00,00,00,00,00,FF,00,
34483831,00000523,false,Tx,0,8,00,00,00,00,00,00,FF,00,
4329437027,00000570,false,Rx,0,8,00,B3,85,00,5B,2C,00,00,
34585606,00000523,false,Tx,0,8,00,00,00,00,00,00,FF,00,
4329536966,00000570,false,Rx,0,8,00,B3,85,00,5A,2C,00,00,
4329637011,00000570,false,Rx,0,8,00,B3,85,00,5A,2B,00,00,
34712769,00000523,false,Tx,0,8,00,00,00,00,00,00,FF,00,
4329736960,00000570,false,Rx,0,8,00,B2,85,00,59,2A,00,00,
34822643,00000523,false,Tx,0,8,00,00,00,00,00,00,FF,00,
4329836955,00000570,false,Rx,0,8,00,B2,85,00,59,29,00,00,
34933895,00000523,false,Tx,0,8,00,00,00,00,00,00,FF,00,
4329936997,00000570,false,Rx,0,8,00,B3,85,00,59,28,00,00,
35052288,00000523,false,Tx,0,8,00,00,00,00,00,00,FF,00,
4330036997,00000570,false,Rx,0,8,00,B2,85,00,58,27,00,00,
35180805,00000523,false,Tx,0,8,00,00,00,00,00,00,FF,00,
4330137043,00000570,false,Rx,0,8,00,B2,85,00,58,27,00,00,
35267041,00000523,false,Tx,0,8,00,00,00,00,00,00,FF,00,
4330237033,00000570,false,Rx,0,8,00,B2,85,00,57,26,00,00,
35386701,00000523,false,Tx,0,8,00,00,00,00,00,00,FF,00,
4330336975,00000570,false,Rx,0,8,00,B1,85,00,57,25,00,00,
35482999,00000523,false,Tx,0,8,00,00,00,00,00,00,FF,00,
4330437029,00000570,false,Rx,0,8,00,B0,85,00,56,24,00,00,
4330536968,00000570,false,Rx,0,8,00,AF,85,00,56,24,00,00,
35600062,00000523,false,Tx,0,8,00,00,00,00,00,00,FF,00,
4330637020,00000570,false,Rx,0,8,00,AF,85,00,56,23,00,00,
35695867,00000523,false,Tx,0,8,00,00,00,00,00,00,FF,00,
4330736959,00000570,false,Rx,0,8,00,AE,85,00,55,22,00,00,
35809935,00000523,false,Tx,0,8,00,00,00,00,00,00,FF,00,
4330837003,00000570,false,Rx,0,8,00,AE,85,00,55,22,00,00,
35912058,00000523,false,Tx,0,8,00,00,00,00,00,00,FF,00,
4330936950,00000570,false,Rx,0,8,00,AD,85,00,55,21,00,00,
36034451,00000523,false,Tx,0,8,00,00,00,00,00,00,FF,00,
4331036939,00000570,false,Rx,0,8,00,AC,85,00,54,21,00,00,
36172883,00000523,false,Tx,0,8,00,00,00,00,00,00,FF,00,
4331136929,00000570,false,Rx,0,8,00,AB,85,00,53,20,00,00,
36257435,00000523,false,Tx,0,8,00,00,00,00,00,00,FF,00,
4331236928,00000570,false,Rx,0,8,00,AA,85,00,52,20,00,00,
4331336920,00000570,false,Rx,0,8,00,AA,85,00,52,1F,00,00,
36389039,00000523,false,Tx,0,8,00,00,00,00,00,00,FF,00,
36483686,00000523,false,Tx,0,8,00,00,00,00,00,00,FF,00,
4331436971,00000570,false,Rx,0,8,00,AA,85,00,52,1F,00,00,
4331536970,00000570,false,Rx,0,8,00,AC,85,00,52,1E,00,00,
36590712,00000523,false,Tx,0,8,00,00,00,00,00,00,FF,00,
4331637022,00000570,false,Rx,0,8,00,B0,85,00,53,1E,00,00,
36704567,00000523,false,Tx,0,8,00,00,00,00,00,00,FF,00,
4331737064,00000570,false,Rx,0,8,00,B3,85,00,53,1E,00,00,
36819236,00000523,false,Tx,0,8,00,00,00,00,00,00,FF,00,
4331837005,00000570,false,Rx,0,8,00,B5,85,00,53,1D,00,00,
36933043,00000523,false,Tx,0,8,00,00,00,00,00,00,FF,00,
4331936991,00000570,false,Rx,0,8,00,B6,85,00,53,1C,00,00,
37030112,00000523,false,Tx,0,8,00,00,00,00,00,00,FF,00,
4332037042,00000570,false,Rx,0,8,00,B6,85,00,52,1C,00,00,
37137878,00000523,false,Tx,0,8,00,00,00,00,00,00,FF,00,
4332136991,00000570,false,Rx,0,8,00,B6,85,00,52,1B,00,00,
37259410,00000523,false,Tx,0,8,00,00,00,00,00,00,FF,00,
4332236981,00000570,false,Rx,0,8,00,B3,85,00,50,1A,00,00,
37384579,00000523,false,Tx,0,8,00,00,00,00,00,00,FF,00,
4332336975,00000570,false,Rx,0,8,00,B0,85,00,4E,19,00,00,
37484656,00000523,false,Tx,0,8,00,00,00,00,00,00,FF,00,
4332436966,00000570,false,Rx,0,8,00,AE,85,00,4D,17,00,00,
4332536966,00000570,false,Rx,0,8,00,AE,85,00,4C,17,00,00,
37608475,00000523,false,Tx,0,8,00,00,00,00,00,00,FF,00,
4332636956,00000570,false,Rx,0,8,00,AD,85,00,4B,16,00,00,
37718411,00000523,false,Tx,0,8,00,00,00,00,00,00,FF,00,
4332737008,00000570,false,Rx,0,8,00,AC,85,00,4A,15,00,00,
37815757,00000523,false,Tx,0,8,00,00,00,00,00,00,FF,00,
4332837000,00000570,false,Rx,0,8,00,AC,85,00,4A,14,00,00,
37924232,00000523,false,Tx,0,8,00,00,00,00,00,00,FF,00,
4332936991,00000570,false,Rx,0,8,00,AA,85,00,49,13,00,00,
38039251,00000523,false,Tx,0,8,00,00,00,00,00,00,FF,00,
4333036991,00000570,false,Rx,0,8,00,AA,85,00,48,13,00,00,
38186484,00000523,false,Tx,0,8,00,00,00,00,00,00,FF,00,
4333136980,00000570,false,Rx,0,8,00,A9,85,00,48,12,00,00,
38256787,00000523,false,Tx,0,8,00,00,00,00,00,00,FF,00,
4333236971,00000570,false,Rx,0,8,00,A7,85,00,47,12,00,00,
4333337025,00000570,false,Rx,0,8,00,A6,85,00,47,12,00,00,
38394233,00000523,false,Tx,0,8,00,00,00,00,00,00,FF,00,
38478277,00000523,false,Tx,0,8,00,00,00,00,00,00,FF,00,
4333437022,00000570,false,Rx,0,8,00,A6,85,00,47,11,00,00,
4333537011,00000570,false,Rx,0,8,00,A7,85,00,47,11,00,00,
38597882,00000523,false,Tx,0,8,00,00,00,00,00,00,FF,00,
38688089,00000523,false,Tx,0,8,00,00,00,00,00,00,FF,00,
4333637016,00000570,false,Rx,0,8,00,A6,85,00,47,11,00,00,
4333737001,00000570,false,Rx,0,8,00,A6,85,00,47,11,00,00,
38805220,00000523,false,Tx,0,8,00,00,00,00,00,00,FF,00,
4333837002,00000570,false,Rx,0,8,00,A6,85,00,47,11,00,00,
38938620,00000523,false,Tx,0,8,00,00,00,00,00,00,FF,00,
4333936991,00000570,false,Rx,0,8,00,A6,85,00,47,11,00,00,
39024937,00000523,false,Tx,0,8,00,00,00,00,00,00,FF,00,
4334036991,00000570,false,Rx,0,8,00,A6,85,00,46,11,00,00,
39153958,00000523,false,Tx,0,8,00,00,00,00,00,00,FF,00,
4334137043,00000570,false,Rx,0,8,00,A6,85,00,46,11,00,00,
39242697,00000523,false,Tx,0,8,00,00,00,00,00,00,FF,00,
4334237033,00000570,false,Rx,0,8,00,A6,85,00,46,10,00,00,
39365630,00000523,false,Tx,0,8,00,00,00,00,00,00,FF,00,
4334337022,00000570,false,Rx,0,8,00,A6,85,00,46,10,00,00,
39458788,00000523,false,Tx,0,8,00,00,00,00,00,00,FF,00,
4334437022,00000570,false,Rx,0,8,00,A6,85,00,46,10,00,00,
39581277,00000523,false,Tx,0,8,00,00,00,00,00,00,FF,00,
4334537011,00000570,false,Rx,0,8,00,A5,85,00,46,10,00,00,
39684123,00000523,false,Tx,0,8,00,00,00,00,00,00,FF,00,
4334637013,00000570,false,Rx,0,8,00,A5,85,00,46,10,00,00,
4334737054,00000570,false,Rx,0,8,00,A5,85,00,46,10,00,00,
39800704,00000523,false,Tx,0,8,00,00,00,00,00,00,FF,00,
4334837047,00000570,false,Rx,0,8,00,A5,85,00,46,10,00,00,
39930805,00000523,false,Tx,0,8,00,00,00,00,00,00,FF,00,
4334937053,00000570,false,Rx,0,8,00,A5,85,00,46,11,00,00,
40022637,00000523,false,Tx,0,8,00,00,00,00,00,00,FF,00,
4335037043,00000570,false,Rx,0,8,00,A5,85,00,46,11,00,00,
40160219,00000523,false,Tx,0,8,00,00,00,00,00,00,FF,00,
4335137033,00000570,false,Rx,0,8,00,A6,85,00,47,11,00,00,
40246363,00000523,false,Tx,0,8,00,00,00,00,00,00,FF,00,
4335237033,00000570,false,Rx,0,8,00,A7,85,00,47,11,00,00,
40376588,00000523,false,Tx,0,8,00,00,00,00,00,00,FF,00,
4335337075,00000570,false,Rx,0,8,00,A7,85,00,47,11,00,00,
40481610,00000523,false,Tx,0,8,00,00,00,00,00,00,FF,00,
4335437084,00000570,false,Rx,0,8,00,A8,85,00,48,11,00,00,
4335537074,00000570,false,Rx,0,8,00,A9,85,00,4A,11,00,00,
40596540,00000523,false,Tx,0,8,00,00,00,00,00,00,FF,00,
4335637064,00000570,false,Rx,0,8,00,A8,85,00,49,11,00,00,
40691778,00000523,false,Tx,0,8,00,00,00,00,00,00,FF,00,
4335737053,00000570,false,Rx,0,8,00,A8,85,00,48,10,00,00,
40818466,00000523,false,Tx,0,8,00,00,00,00,00,00,FF,00,
4335837056,00000570,false,Rx,0,8,00,A7,85,00,47,10,00,00,
40925425,00000523,false,Tx,0,8,00,00,00,00,00,00,FF,00,
4335937047,00000570,false,Rx,0,8,00,A7,85,00,46,0F,00,00,
41028875,00000523,false,Tx,0,8,00,00,00,00,00,00,FF,00,
4336037100,00000570,false,Rx,0,8,00,A7,85,00,46,0F,00,00,
41159664,00000523,false,Tx,0,8,00,00,00,00,00,00,FF,00,
4336137094,00000570,false,Rx,0,8,00,A7,85,00,45,0F,00,00,
41244913,00000523,false,Tx,0,8,00,00,00,00,00,00,FF,00,
4336237084,00000570,false,Rx,0,8,00,A7,85,00,45,0E,00,00,
41367097,00000523,false,Tx,0,8,00,00,00,00,00,00,FF,00,
4336337075,00000570,false,Rx,0,8,00,A7,85,00,45,0E,00,00,
41488277,00000523,false,Tx,0,8,00,00,00,00,00,00,FF,00,
4336437073,00000570,false,Rx,0,8,00,A7,85,00,44,0E,00,00,
4336537074,00000570,false,Rx,0,8,00,A6,85,00,44,0E,00,00,
41614571,00000523,false,Tx,0,8,00,00,00,00,00,00,FF,00,
4336637069,00000570,false,Rx,0,8,00,A6,85,00,44,0E,00,00,
41711238,00000523,false,Tx,0,8,00,00,00,00,00,00,FF,00,
4336737110,00000570,false,Rx,0,8,00,A6,85,00,44,0D,00,00,
41830863,00000523,false,Tx,0,8,00,00,00,00,00,00,FF,00,
4336837102,00000570,false,Rx,0,8,00,A7,85,00,44,0D,00,00,
41928150,00000523,false,Tx,0,8,00,00,00,00,00,00,FF,00,
4336937101,00000570,false,Rx,0,8,00,A5,85,00,43,0D,00,00,
42043649,00000523,false,Tx,0,8,00,00,00,00,00,00,FF,00,
4337037101,00000570,false,Rx,0,8,00,A5,85,00,44,0D,00,00,
42161128,00000523,false,Tx,0,8,00,00,00,00,00,00,FF,00,
4337137083,00000570,false,Rx,0,8,00,A6,85,00,44,0D,00,00,
42268477,00000523,false,Tx,0,8,00,00,00,00,00,00,FF,00,
4337237136,00000570,false,Rx,0,8,00,A7,85,00,44,0D,00,00,
42369149,00000523,false,Tx,0,8,00,00,00,00,00,00,FF,00,
4337337136,00000570,false,Rx,0,8,00,A7,85,00,44,0D,00,00,
42470583,00000523,false,Tx,0,8,00,00,00,00,00,00,FF,00,
4337437116,00000570,false,Rx,0,8,00,A7,85,00,45,0D,00,00,
42585656,00000523,false,Tx,0,8,00,00,00,00,00,00,FF,00,
4337537125,00000570,false,Rx,0,8,00,A6,85,00,44,0D,00,00,
4337637219,00000570,false,Rx,0,8,00,A5,85,00,45,0D,00,00,
42707508,00000523,false,Tx,0,8,00,00,00,00,00,00,FF,00,
42819182,00000523,false,Tx,0,8,00,00,00,00,00,00,FF,00,
42932147,00000523,false,Tx,0,8,00,00,00,00,00,00,FF,00,
43030759,00000523,false,Tx,0,8,00,00,00,00,00,00,FF,00,
43149089,00000523,false,Tx,0,8,00,00,00,00,00,00,FF,00,
43255440,00000523,false,Tx,0,8,00,00,00,00,00,00,FF,00,
43368502,00000523,false,Tx,0,8,00,00,00,00,00,00,FF,00,
43486834,00000523,false,Tx,0,8,00,00,00,00,00,00,FF,00,
43592539,00000523,false,Tx,0,8,00,00,00,00,00,00,FF,00,
43696284,00000523,false,Tx,0,8,00,00,00,00,00,00,FF,00,
43818490,00000523,false,Tx,0,8,00,00,00,00,00,00,FF,00,
43941276,00000523,false,Tx,0,8,00,00,00,00,00,00,FF,00,
4338923297,00000570,false,Rx,0,8,00,00,85,00,00,00,00,00,
44034895,00000523,false,Tx,0,8,00,00,00,00,00,00,FF,00,
4339024012,00000570,false,Rx,0,8,00,00,85,00,00,00,00,00,
44155051,00000523,false,Tx,0,8,00,00,00,00,00,00,FF,00,
4339124015,00000570,false,Rx,0,8,00,00,85,00,00,00,00,00,
44251005,00000523,false,Tx,0,8,00,00,00,00,00,00,FF,00,
4339224027,00000570,false,Rx,0,8,00,00,85,00,00,00,00,00,
44351251,00000523,false,Tx,0,8,00,00,00,00,00,00,FF,00,
4339324028,00000570,false,Rx,0,8,00,00,85,00,00,00,00,00,
44473742,00000523,false,Tx,0,8,00,00,00,00,00,00,FF,00,
4339424017,00000570,false,Rx,0,8,00,00,85,00,00,00,00,00,
44574084,00000523,false,Tx,0,8,00,00,00,00,00,00,FF,00,
4339524027,00000570,false,Rx,0,8,00,00,85,00,00,00,00,00,
4339624021,00000570,false,Rx,0,8,00,00,85,00,00,00,00,00,
44696736,00000523,false,Tx,0,8,00,00,00,00,00,00,FF,00,
4339724033,00000570,false,Rx,0,8,00,00,85,00,00,00,00,00,
44800093,00000523,false,Tx,0,8,00,00,00,00,00,00,FF,00,
4339824055,00000570,false,Rx,0,8,00,00,85,00,00,00,00,00,
44906047,00000523,false,Tx,0,8,00,00,00,00,00,00,FF,00,
4339924044,00000570,false,Rx,0,8,00,00,85,00,00,00,00,00,
45005968,00000523,false,Tx,0,8,00,00,00,00,00,00,FF,00,
4340024054,00000570,false,Rx,0,8,00,00,85,00,00,00,00,00,
45121593,00000523,false,Tx,0,8,00,00,00,00,00,00,FF,00,
4340124334,00000570,false,Rx,0,8,00,00,85,00,06,00,00,00,
45236939,00000523,false,Tx,0,8,00,00,00,00,00,00,FF,00,
4340224272,00000570,false,Rx,0,8,00,05,85,00,0D,02,00,00,
45346864,00000523,false,Tx,0,8,00,00,00,00,00,00,FF,00,
4340324261,00000570,false,Rx,0,8,00,0C,85,00,11,04,00,00,
45453327,00000523,false,Tx,0,8,00,00,00,00,00,00,FF,00,
4340424315,00000570,false,Rx,0,8,00,13,85,00,12,06,00,00,
45575527,00000523,false,Tx,0,8,00,00,00,00,00,00,FF,00,
4340524305,00000570,false,Rx,0,8,00,1A,85,00,15,07,00,00,
4340624307,00000570,false,Rx,0,8,00,20,85,00,18,09,00,00,
45687866,00000523,false,Tx,0,8,00,00,00,00,00,00,FF,00,
4340724296,00000570,false,Rx,0,8,00,3D,85,00,1B,09,00,00,
45791504,00000523,false,Tx,0,8,00,00,00,00,00,00,FF,00,
4340824287,00000570,false,Rx,0,8,00,49,85,00,1B,07,00,00,
45900855,00000523,false,Tx,0,8,00,00,00,00,00,00,FF,00,
4340924286,00000570,false,Rx,0,8,00,49,85,00,1A,05,00,00,
46008881,00000523,false,Tx,0,8,00,00,00,00,00,00,FF,00,
4341024442,00000570,false,Rx,0,8,00,4F,85,00,1C,04,00,00,
46124128,00000523,false,Tx,0,8,00,00,00,00,00,00,FF,00,
4341124493,00000570,false,Rx,0,8,00,6D,85,00,27,05,00,00,
46231126,00000523,false,Tx,0,8,00,00,00,00,00,00,FF,00,
4341224483,00000570,false,Rx,0,8,00,8E,85,00,35,06,00,00,
46339433,00000523,false,Tx,0,8,00,00,00,00,00,00,FF,00,
4341324482,00000570,false,Rx,0,8,00,A1,85,00,3F,08,00,00,
46448512,00000523,false,Tx,0,8,00,00,00,00,00,00,FF,00,
4341424472,00000570,false,Rx,0,8,00,A7,85,00,44,0A,00,00,
46561671,00000523,false,Tx,0,8,00,00,00,00,00,00,FF,00,
4341524473,00000570,false,Rx,0,8,00,A7,85,00,46,0B,00,00,
46675464,00000523,false,Tx,0,8,00,00,00,00,00,00,FF,00,
4341624460,00000570,false,Rx,0,8,00,A7,85,00,46,0C,00,00,
4341724462,00000570,false,Rx,0,8,00,A7,85,00,45,0D,00,00,
46778623,00000523,false,Tx,0,8,00,00,00,00,00,00,FF,00,
4341824555,00000570,false,Rx,0,8,00,A7,85,00,45,0D,00,00,
46898798,00000523,false,Tx,0,8,00,00,00,00,00,00,FF,00,
4341924504,00000570,false,Rx,0,8,00,A7,85,00,45,0D,00,00,
46994286,00000523,false,Tx,0,8,00,00,00,00,00,00,FF,00,
4342024493,00000570,false,Rx,0,8,00,A7,85,00,45,0D,00,00,
47100549,00000523,false,Tx,0,8,00,00,00,00,00,00,FF,00,
4342124493,00000570,false,Rx,0,8,00,A6,85,00,44,0D,00,00,
47208669,00000523,false,Tx,0,8,00,00,00,00,00,00,FF,00,
4342224483,00000570,false,Rx,0,8,00,A6,85,00,44,0D,00,00,
47325440,00000523,false,Tx,0,8,00,00,00,00,00,00,FF,00,
4342324482,00000570,false,Rx,0,8,00,A6,85,00,44,0D,00,00,
47435127,00000523,false,Tx,0,8,00,00,00,00,00,00,FF,00,
4342424535,00000570,false,Rx,0,8,00,A6,85,00,44,0D,00,00,
47552351,00000523,false,Tx,0,8,00,00,00,00,00,00,FF,00,
4342524524,00000570,false,Rx,0,8,00,A6,85,00,44,0D,00,00,
47642237,00000523,false,Tx,0,8,00,00,00,00,00,00,FF,00,
4342624571,00000570,false,Rx,0,8,00,A6,85,00,44,0D,00,00,
47756631,00000523,false,Tx,0,8,00,00,00,00,00,00,FF,00,
4342724512,00000570,false,Rx,0,8,00,A6,85,00,44,0D,00,00,
4342824511,00000570,false,Rx,0,8,00,A6,85,00,44,0D,00,00,
47879558,00000523,false,Tx,0,8,00,00,00,00,00,00,FF,00,
4342924502,00000570,false,Rx,0,8,00,A6,85,00,44,0D,00,00,
47983435,00000523,false,Tx,0,8,00,00,00,00,00,00,FF,00,
4343024502,00000570,false,Rx,0,8,00,A6,85,00,44,0D,00,00,
48095233,00000523,false,Tx,0,8,00,00,00,00,00,00,FF,00,
4343124555,00000570,false,Rx,0,8,00,A6,85,00,44,0D,00,00,
48188645,00000523,false,Tx,0,8,00,00,00,00,00,00,FF,00,
4343224544,00000570,false,Rx,0,8,00,A6,85,00,44,0D,00,00,
48314122,00000523,false,Tx,0,8,00,00,00,00,00,00,FF,00,
4343324535,00000570,false,Rx,0,8,00,A6,85,00,44,0D,00,00,
48435665,00000523,false,Tx,0,8,00,00,00,00,00,00,FF,00,
4343424524,00000570,false,Rx,0,8,00,A6,85,00,44,0D,00,00,
48532211,00000523,false,Tx,0,8,00,00,00,00,00,00,FF,00,
4343524524,00000570,false,Rx,0,8,00,A6,85,00,44,0D,00,00,
48660035,00000523,false,Tx,0,8,00,00,00,00,00,00,FF,00,
4343624570,00000570,false,Rx,0,8,00,A6,85,00,44,0D,00,00,
48756026,00000523,false,Tx,0,8,00,00,00,00,00,00,FF,00,
4343724560,00000570,false,Rx,0,8,00,A6,85,00,44,0D,00,00,
48864983,00000523,false,Tx,0,8,00,00,00,00,00,00,FF,00,
4343824561,00000570,false,Rx,0,8,00,A6,85,00,44,0D,00,00,
48956618,00000523,false,Tx,0,8,00,00,00,00,00,00,FF,00,
4343924551,00000570,false,Rx,0,8,00,A7,85,00,44,0D,00,00,
4344024545,00000570,false,Rx,0,8,00,A6,85,00,44,0D,00,00,
49081375,00000523,false,Tx,0,8,00,00,00,00,00,00,FF,00,
4344124549,00000570,false,Rx,0,8,00,A6,85,00,44,0D,00,00,
49197148,00000523,false,Tx,0,8,00,00,00,00,00,00,FF,00,
4344224539,00000570,false,Rx,0,8,00,A5,85,00,44,0D,00,00,
49297176,00000523,false,Tx,0,8,00,00,00,00,00,00,FF,00,
4344324583,00000570,false,Rx,0,8,00,A5,85,00,44,0D,00,00,
49418917,00000523,false,Tx,0,8,00,00,00,00,00,00,FF,00,
4344424582,00000570,false,Rx,0,8,00,A5,85,00,44,0D,00,00,
49513334,00000523,false,Tx,0,8,00,00,00,00,00,00,FF,00,
4344524582,00000570,false,Rx,0,8,00,A5,85,00,44,0D,00,00,
49630388,00000523,false,Tx,0,8,00,00,00,00,00,00,FF,00,
4344624571,00000570,false,Rx,0,8,00,A6,85,00,44,0D,00,00,
49728709,00000523,false,Tx,0,8,00,00,00,00,00,00,FF,00,
4344724571,00000570,false,Rx,0,8,00,A6,85,00,44,0D,00,00,
49844664,00000523,false,Tx,0,8,00,00,00,00,00,00,FF,00,
4344824563,00000570,false,Rx,0,8,00,A6,85,00,44,0D,00,00,
49941130,00000523,false,Tx,0,8,00,00,00,00,00,00,FF,00,
4344924551,00000570,false,Rx,0,8,00,A6,85,00,44,0D,00,00,
50054798,00000523,false,Tx,0,8,00,00,00,00,00,00,FF,00,
4345024603,00000570,false,Rx,0,8,00,A6,85,00,44,0E,00,00,
4345124596,00000570,false,Rx,0,8,00,A6,85,00,44,0D,00,00,
50193441,00000523,false,Tx,0,8,00,00,00,00,00,00,FF,00,
4345224586,00000570,false,Rx,0,8,00,A6,85,00,44,0E,00,00,
50302017,00000523,false,Tx,0,8,00,00,00,00,00,00,FF,00,
4345324587,00000570,false,Rx,0,8,00,A6,85,00,44,0E,00,00,
50400070,00000523,false,Tx,0,8,00,00,00,00,00,00,FF,00,
4345424575,00000570,false,Rx,0,8,00,A6,85,00,44,0D,00,00,
50515275,00000523,false,Tx,0,8,00,00,00,00,00,00,FF,00,
4345524575,00000570,false,Rx,0,8,00,A6,85,00,44,0E,00,00,
50645130,00000523,false,Tx,0,8,00,00,00,00,00,00,FF,00,
4345624565,00000570,false,Rx,0,8,00,A5,85,00,44,0E,00,00,
50747129,00000523,false,Tx,0,8,00,00,00,00,00,00,FF,00,
4345724618,00000570,false,Rx,0,8,00,A5,85,00,44,0D,00,00,
50864131,00000523,false,Tx,0,8,00,00,00,00,00,00,FF,00,
4345824617,00000570,false,Rx,0,8,00,A5,85,00,44,0E,00,00,
50959531,00000523,false,Tx,0,8,00,00,00,00,00,00,FF,00,
4345924607,00000570,false,Rx,0,8,00,A5,85,00,44,0E,00,00,
4346024597,00000570,false,Rx,0,8,00,A5,85,00,44,0E,00,00,
51085041,00000523,false,Tx,0,8,00,00,00,00,00,00,FF,00,
4346124589,00000570,false,Rx,0,8,00,A4,85,00,43,0E,00,00,
51194503,00000523,false,Tx,0,8,00,00,00,00,00,00,FF,00,
4346224597,00000570,false,Rx,0,8,00,A3,85,00,41,0E,00,00,
51317156,00000523,false,Tx,0,8,00,00,00,00,00,00,FF,00,
4346324638,00000570,false,Rx,0,8,00,A2,85,00,40,0E,00,00,
51452376,00000523,false,Tx,0,8,00,00,00,00,00,00,FF,00,
4346424638,00000570,false,Rx,0,8,00,A1,85,00,40,0E,00,00,
51525498,00000523,false,Tx,0,8,00,00,00,00,00,00,FF,00,
4346524627,00000570,false,Rx,0,8,00,A1,85,00,40,0F,00,00,
51647419,00000523,false,Tx,0,8,00,00,00,00,00,00,FF,00,
4346624628,00000570,false,Rx,0,8,00,A0,85,00,40,0F,00,00,
51749372,00000523,false,Tx,0,8,00,00,00,00,00,00,FF,00,
4346724628,00000570,false,Rx,0,8,00,A0,85,00,41,10,00,00,
51871865,00000523,false,Tx,0,8,00,00,00,00,00,00,FF,00,
4346824617,00000570,false,Rx,0,8,00,A0,85,00,42,11,00,00,
4346924617,00000570,false,Rx,0,8,00,A0,85,00,42,12,00,00,
51980988,00000523,false,Tx,0,8,00,00,00,00,00,00,FF,00,
4347024648,00000570,false,Rx,0,8,00,90,85,00,43,14,00,00,
52088388,00000523,false,Tx,0,8,00,00,00,00,00,00,FF,00,
4347124654,00000570,false,Rx,0,8,00,8B,85,00,44,15,00,00,
52198269,00000523,false,Tx,0,8,00,00,00,00,00,00,FF,00,
4347224644,00000570,false,Rx,0,8,00,8B,85,00,45,16,00,00,
52303703,00000523,false,Tx,0,8,00,00,00,00,00,00,FF,00,
4347324634,00000570,false,Rx,0,8,00,8A,85,00,46,18,00,00,
52436913,00000523,false,Tx,0,8,00,00,00,00,00,00,FF,00,
4347424634,00000570,false,Rx,0,8,00,8A,85,00,48,1A,00,00,
52536141,00000523,false,Tx,0,8,00,00,00,00,00,00,FF,00,
4347524625,00000570,false,Rx,0,8,00,8B,85,00,49,1C,00,00,
52652929,00000523,false,Tx,0,8,00,00,00,00,00,00,FF,00,
4347624627,00000570,false,Rx,0,8,00,8C,85,00,4B,1E,00,00,
52764321,00000523,false,Tx,0,8,00,00,00,00,00,00,FF,00,
4347724666,00000570,false,Rx,0,8,00,8D,85,00,4D,20,00,00,
52868564,00000523,false,Tx,0,8,00,00,00,00,00,00,FF,00,
4347824719,00000570,false,Rx,0,8,00,90,85,00,50,22,00,00,
4347924658,00000570,false,Rx,0,8,00,92,85,00,52,24,00,00,
52989818,00000523,false,Tx,0,8,00,00,00,00,00,00,FF,00,
4348024648,00000570,false,Rx,0,8,00,94,85,00,54,26,00,00,
53092288,00000523,false,Tx,0,8,00,00,00,00,00,00,FF,00,
4348124643,00000570,false,Rx,0,8,00,95,85,00,56,28,00,00,
53198788,00000523,false,Tx,0,8,00,00,00,00,00,00,FF,00,
4348224643,00000570,false,Rx,0,8,00,97,85,00,57,2A,00,00,
53310455,00000523,false,Tx,0,8,00,00,00,00,00,00,FF,00,
4348324746,00000570,false,Rx,0,8,00,98,85,00,59,2C,00,00,
53454676,00000523,false,Tx,0,8,00,00,00,00,00,00,FF,00,
4348424740,00000570,false,Rx,0,8,00,98,85,00,5A,2E,00,00,
53523367,00000523,false,Tx,0,8,00,00,00,00,00,00,FF,00,
4348524782,00000570,false,Rx,0,8,00,99,85,00,5A,2F,00,00,
53665276,00000523,false,Tx,0,8,00,00,00,00,00,00,FF,00,
4348624742,00000570,false,Rx,0,8,00,99,85,00,5B,30,00,00,
53768193,00000523,false,Tx,0,8,00,00,00,00,00,00,FF,00,
4348724731,00000570,false,Rx,0,8,00,99,85,00,5B,31,00,00,
53872792,00000523,false,Tx,0,8,00,00,00,00,00,00,FF,00,
4348824720,00000570,false,Rx,0,8,00,9A,85,00,5C,32,00,00,
4348924710,00000570,false,Rx,0,8,00,9A,85,00,5C,33,00,00,
53980050,00000523,false,Tx,0,8,00,00,00,00,00,00,FF,00,
4349024815,00000570,false,Rx,0,8,00,9A,85,00,5D,34,00,00,
54091314,00000523,false,Tx,0,8,00,00,00,00,00,00,FF,00,
4349124809,00000570,false,Rx,0,8,00,9B,85,00,5D,35,00,00,
54206052,00000523,false,Tx,0,8,00,00,00,00,00,00,FF,00,
4349224799,00000570,false,Rx,0,8,00,9B,85,00,5E,36,00,00,
54307028,00000523,false,Tx,0,8,00,00,00,00,00,00,FF,00,
4349324800,00000570,false,Rx,0,8,00,9B,85,00,5E,36,00,00,
54424398,00000523,false,Tx,0,8,00,00,00,00,00,00,FF,00,
4349424738,00000570,false,Rx,0,8,00,9C,85,00,5F,37,00,00,
54530429,00000523,false,Tx,0,8,00,00,00,00,00,00,FF,00,
4349524738,00000570,false,Rx,0,8,00,9C,85,00,5F,38,00,00,
54640217,00000523,false,Tx,0,8,00,00,00,00,00,00,FF,00,
4349624793,00000570,false,Rx,0,8,00,9D,85,00,5F,38,00,00,
54741126,00000523,false,Tx,0,8,00,00,00,00,00,00,FF,00,
4349724831,00000570,false,Rx,0,8,00,9C,85,00,60,39,00,00,
54854373,00000523,false,Tx,0,8,00,00,00,00,00,00,FF,00,
4349824831,00000570,false,Rx,0,8,00,9D,85,00,60,3A,00,00,
54963606,00000523,false,Tx,0,8,00,00,00,00,00,00,FF,00,
4349924832,00000570,false,Rx,0,8,00,9F,85,00,60,3A,00,00,
4350024875,00000570,false,Rx,0,8,00,9F,85,00,60,3A,00,00,
55086273,00000523,false,Tx,0,8,00,00,00,00,00,00,FF,00,
4350124876,00000570,false,Rx,0,8,00,9F,85,00,60,3A,00,00,
55190709,00000523,false,Tx,0,8,00,00,00,00,00,00,FF,00,
4350224866,00000570,false,Rx,0,8,00,9F,85,00,60,3A,00,00,
55291756,00000523,false,Tx,0,8,00,00,00,00,00,00,FF,00,
4350324867,00000570,false,Rx,0,8,00,9F,85,00,60,3A,00,00,
55434618,00000523,false,Tx,0,8,00,00,00,00,00,00,FF,00,
4350424903,00000570,false,Rx,0,8,00,9E,85,00,60,3A,00,00,
55517235,00000523,false,Tx,0,8,00,00,00,00,00,00,FF,00,
4350524851,00000570,false,Rx,0,8,00,9F,85,00,60,3A,00,00,
55640026,00000523,false,Tx,0,8,00,00,00,00,00,00,FF,00,
4350624845,00000570,false,Rx,0,8,00,9F,85,00,60,3A,00,00,
55755114,00000523,false,Tx,0,8,00,00,00,00,00,00,FF,00,
4350724886,00000570,false,Rx,0,8,00,9F,85,00,60,3A,00,00,
55855599,00000523,false,Tx,0,8,00,00,00,00,00,00,FF,00,
4350824888,00000570,false,Rx,0,8,00,9F,85,00,60,3A,00,00,
55976353,00000523,false,Tx,0,8,00,00,00,00,00,00,FF,00,
4350924940,00000570,false,Rx,0,8,00,9F,85,00,60,3A,00,00,
4351024929,00000570,false,Rx,0,8,00,9F,85,00,60,3A,00,00,
56078566,00000523,false,Tx,0,8,00,00,00,00,00,00,FF,00,
4351124870,00000570,false,Rx,0,8,00,9F,85,00,60,3A,00,00,
56224735,00000523,false,Tx,0,8,00,00,00,00,00,00,FF,00,
4351224918,00000570,false,Rx,0,8,00,9F,85,00,60,3A,00,00,
56302674,00000523,false,Tx,0,8,00,00,00,00,00,00,FF,00,
4351324909,00000570,false,Rx,0,8,00,9F,85,00,60,3A,00,00,
56410219,00000523,false,Tx,0,8,00,00,00,00,00,00,FF,00,
4351424847,00000570,false,Rx,0,8,00,9E,85,00,60,3A,00,00,
56503715,00000523,false,Tx,0,8,00,00,00,00,00,00,FF,00,
4351524846,00000570,false,Rx,0,8,00,9F,85,00,60,3A,00,00,
56618360,00000523,false,Tx,0,8,00,00,00,00,00,00,FF,00,
4351624952,00000570,false,Rx,0,8,00,9F,85,00,60,3A,00,00,
56722179,00000523,false,Tx,0,8,00,00,00,00,00,00,FF,00,
4351724950,00000570,false,Rx,0,8,00,9F,85,00,60,3A,00,00,
56849128,00000523,false,Tx,0,8,00,00,00,00,00,00,FF,00,
4351824940,00000570,false,Rx,0,8,00,9F,85,00,60,3A,00,00,
4351924878,00000570,false,Rx,0,8,00,9F,85,00,60,3A,00,00,
56986628,00000523,false,Tx,0,8,00,00,00,00,00,00,FF,00,
57060708,00000523,false,Tx,0,8,00,00,00,00,00,00,FF,00,
4352024929,00000570,false,Rx,0,8,00,9F,85,00,60,3A,00,00,
4352124922,00000570,false,Rx,0,8,00,9F,85,00,60,3A,00,00,
57187607,00000523,false,Tx,0,8,00,00,00,00,00,00,FF,00,
57275845,00000523,false,Tx,0,8,00,00,00,00,00,00,FF,00,
4352225049,00000570,false,Rx,0,8,00,9F,85,00,60,3A,00,00,
4352324919,00000570,false,Rx,0,8,00,9F,85,00,60,3A,00,00,
57396645,00000523,false,Tx,0,8,00,00,00,00,00,00,FF,00,
4352424908,00000570,false,Rx,0,8,00,9F,85,00,60,3A,00,00,
57498443,00000523,false,Tx,0,8,00,00,00,00,00,00,FF,00,
4352524897,00000570,false,Rx,0,8,00,9F,85,00,60,3A,00,00,
57612862,00000523,false,Tx,0,8,00,00,00,00,00,00,FF,00,
4352624951,00000570,false,Rx,0,8,00,9F,85,00,60,3A,00,00,
57725111,00000523,false,Tx,0,8,00,00,00,00,00,00,FF,00,
4352724950,00000570,false,Rx,0,8,00,9F,85,00,60,3A,00,00,
57827796,00000523,false,Tx,0,8,00,00,00,00,00,00,FF,00,
4352824939,00000570,false,Rx,0,8,00,9F,85,00,60,3A,00,00,
57951556,00000523,false,Tx,0,8,00,00,00,00,00,00,FF,00,
4352924986,00000570,false,Rx,0,8,00,9F,85,00,60,3A,00,00,
58046041,00000523,false,Tx,0,8,00,00,00,00,00,00,FF,00,
4353024979,00000570,false,Rx,0,8,00,9F,85,00,60,3A,00,00,
58158006,00000523,false,Tx,0,8,00,00,00,00,00,00,FF,00,
4353124981,00000570,false,Rx,0,8,00,9F,85,00,60,3A,00,00,
58259403,00000523,false,Tx,0,8,00,00,00,00,00,00,FF,00,
4353224971,00000570,false,Rx,0,8,00,9F,85,00,60,3A,00,00,
4353324909,00000570,false,Rx,0,8,00,9F,85,00,60,3A,00,00,
58376831,00000523,false,Tx,0,8,00,00,00,00,00,00,FF,00,
4353424908,00000570,false,Rx,0,8,00,9F,85,00,60,3A,00,00,
58479939,00000523,false,Tx,0,8,00,00,00,00,00,00,FF,00,
4353524949,00000570,false,Rx,0,8,00,9F,85,00,60,3A,00,00,
58588451,00000523,false,Tx,0,8,00,00,00,00,00,00,FF,00,
4353625005,00000570,false,Rx,0,8,00,9F,85,00,60,3A,00,00,
58726151,00000523,false,Tx,0,8,00,00,00,00,00,00,FF,00,
4353725002,00000570,false,Rx,0,8,00,9F,85,00,60,3A,00,00,
58812915,00000523,false,Tx,0,8,00,00,00,00,00,00,FF,00,
4353824991,00000570,false,Rx,0,8,00,9F,85,00,60,3A,00,00,
58915360,00000523,false,Tx,0,8,00,00,00,00,00,00,FF,00,
4353924991,00000570,false,Rx,0,8,00,9F,85,00,60,3A,00,00,
59031646,00000523,false,Tx,0,8,00,00,00,00,00,00,FF,00,
4354024929,00000570,false,Rx,0,8,00,9F,85,00,60,3A,00,00,
59134151,00000523,false,Tx,0,8,00,00,00,00,00,00,FF,00,
4354124972,00000570,false,Rx,0,8,00,9F,85,00,60,3A,00,00,
59240491,00000523,false,Tx,0,8,00,00,00,00,00,00,FF,00,
4354225023,00000570,false,Rx,0,8,00,9F,85,00,60,3A,00,00,
59357551,00000523,false,Tx,0,8,00,00,00,00,00,00,FF,00,
4354324970,00000570,false,Rx,0,8,00,9F,85,00,60,3A,00,00,
59458965,00000523,false,Tx,0,8,00,00,00,00,00,00,FF,00,
4354424954,00000570,false,Rx,0,8,00,9F,85,00,60,3A,00,00,
4354524956,00000570,false,Rx,0,8,00,9F,85,00,60,3A,00,00,
59580833,00000523,false,Tx,0,8,00,00,00,00,00,00,FF,00,
4354625000,00000570,false,Rx,0,8,00,9F,85,00,60,3A,00,00,
59697620,00000523,false,Tx,0,8,00,00,00,00,00,00,FF,00,
4354724991,00000570,false,Rx,0,8,00,9F,85,00,60,3A,00,00,
59800553,00000523,false,Tx,0,8,00,00,00,00,00,00,FF,00,
4354825042,00000570,false,Rx,0,8,00,9F,85,00,60,3A,00,00,
59902377,00000523,false,Tx,0,8,00,00,00,00,00,00,FF,00,
4354925042,00000570,false,Rx,0,8,00,9F,85,00,60,3A,00,00,
60011109,00000523,false,Tx,0,8,00,00,00,00,00,00,FF,00,
4355025033,00000570,false,Rx,0,8,00,9F,85,00,60,3A,00,00,
60118676,00000523,false,Tx,0,8,00,00,00,00,00,00,FF,00,
4355125022,00000570,false,Rx,0,8,00,9F,85,00,60,3A,00,00,
60248807,00000523,false,Tx,0,8,00,00,00,00,00,00,FF,00,
4355225022,00000570,false,Rx,0,8,00,9F,85,00,60,3A,00,00,
60350608,00000523,false,Tx,0,8,00,00,00,00,00,00,FF,00,
4355324970,00000570,false,Rx,0,8,00,9F,85,00,60,3A,00,00,
60450398,00000523,false,Tx,0,8,00,00,00,00,00,00,FF,00,
4355424960,00000570,false,Rx,0,8,00,9F,85,00,60,3A,00,00,
60562475,00000523,false,Tx,0,8,00,00,00,00,00,00,FF,00,
4355525064,00000570,false,Rx,0,8,00,9F,85,00,60,3A,00,00,
60667749,00000523,false,Tx,0,8,00,00,00,00,00,00,FF,00,
4355625054,00000570,false,Rx,0,8,00,9F,85,00,60,3A,00,00,
60770204,00000523,false,Tx,0,8,00,00,00,00,00,00,FF,00,
4355725053,00000570,false,Rx,0,8,00,9F,85,00,60,3A,00,00,
4355825043,00000570,false,Rx,0,8,00,9F,85,00,60,3A,00,00,
60879122,00000523,false,Tx,0,8,00,00,00,00,00,00,FF,00,
4355925036,00000570,false,Rx,0,8,00,9F,85,00,60,3A,00,00,
60997332,00000523,false,Tx,0,8,00,00,00,00,00,00,FF,00,
4356025033,00000570,false,Rx,0,8,00,9F,85,00,60,3A,00,00,
61097591,00000523,false,Tx,0,8,00,00,00,00,00,00,FF,00,
4356125023,00000570,false,Rx,0,8,00,9F,85,00,60,3A,00,00,
61232536,00000523,false,Tx,0,8,00,00,00,00,00,00,FF,00,
4356225022,00000570,false,Rx,0,8,00,9F,85,00,60,3A,00,00,
61316621,00000523,false,Tx,0,8,00,00,00,00,00,00,FF,00,
4356325022,00000570,false,Rx,0,8,00,9F,85,00,60,3A,00,00,
61445814,00000523,false,Tx,0,8,00,00,00,00,00,00,FF,00,
4356425064,00000570,false,Rx,0,8,00,9F,85,00,60,3A,00,00,
61551541,00000523,false,Tx,0,8,00,00,00,00,00,00,FF,00,
4356525064,00000570,false,Rx,0,8,00,9F,85,00,60,3A,00,00,
61652975,00000523,false,Tx,0,8,00,00,00,00,00,00,FF,00,
4356625053,00000570,false,Rx,0,8,00,9F,85,00,60,3A,00,00,
61752569,00000523,false,Tx,0,8,00,00,00,00,00,00,FF,00,
4356725043,00000570,false,Rx,0,8,00,9F,85,00,60,3A,00,00,
61862666,00000523,false,Tx,0,8,00,00,00,00,00,00,FF,00,
4356825043,00000570,false,Rx,0,8,00,9F,85,00,60,3A,00,00,
61974747,00000523,false,Tx,0,8,00,00,00,00,00,00,FF,00,
4356925090,00000570,false,Rx,0,8,00,9F,85,00,60,3A,00,00,
4357025080,00000570,false,Rx,0,8,00,9F,85,00,60,3A,00,00,
62079220,00000523,false,Tx,0,8,00,00,00,00,00,00,FF,00,
4357125030,00000570,false,Rx,0,8,00,9F,85,00,60,3A,00,00,
62202313,00000523,false,Tx,0,8,00,00,00,00,00,00,FF,00,
4357225020,00000570,false,Rx,0,8,00,9F,85,00,60,3A,00,00,
62309903,00000523,false,Tx,0,8,00,00,00,00,00,00,FF,00,
4357325061,00000570,false,Rx,0,8,00,9F,85,00,60,3A,00,00,
62421179,00000523,false,Tx,0,8,00,00,00,00,00,00,FF,00,
4357425063,00000570,false,Rx,0,8,00,9F,85,00,60,3A,00,00,
62529834,00000523,false,Tx,0,8,00,00,00,00,00,00,FF,00,
4357525116,00000570,false,Rx,0,8,00,9F,85,00,60,3A,00,00,
62648696,00000523,false,Tx,0,8,00,00,00,00,00,00,FF,00,
4357625115,00000570,false,Rx,0,8,00,9F,85,00,60,3A,00,00,
62745032,00000523,false,Tx,0,8,00,00,00,00,00,00,FF,00,
4357725053,00000570,false,Rx,0,8,00,9F,85,00,60,3A,00,00,
62854167,00000523,false,Tx,0,8,00,00,00,00,00,00,FF,00,
4357825094,00000570,false,Rx,0,8,00,9F,85,00,60,3A,00,00,
62976292,00000523,false,Tx,0,8,00,00,00,00,00,00,FF,00,
4357925137,00000570,false,Rx,0,8,00,9F,85,00,60,3A,00,00,
63067928,00000523,false,Tx,0,8,00,00,00,00,00,00,FF,00,
4358025032,00000570,false,Rx,0,8,00,9F,85,00,60,3A,00,00,
4358125074,00000570,false,Rx,0,8,00,9F,85,00,60,3A,00,00,
63201358,00000523,false,Tx,0,8,00,00,00,00,00,00,FF,00,
4358225126,00000570,false,Rx,0,8,00,9F,85,00,60,3A,00,00,
63305801,00000523,false,Tx,0,8,00,00,00,00,00,00,FF,00,
4358325116,00000570,false,Rx,0,8,00,9E,85,00,60,3A,00,00,
63424018,00000523,false,Tx,0,8,00,00,00,00,00,00,FF,00,
4358425110,00000570,false,Rx,0,8,00,9C,85,00,60,3A,00,00,
63524050,00000523,false,Tx,0,8,00,00,00,00,00,00,FF,00,
4358525049,00000570,false,Rx,0,8,00,9D,85,00,60,3A,00,00,
63640575,00000523,false,Tx,0,8,00,00,00,00,00,00,FF,00,
4358624550,00000570,false,Rx,0,8,00,13,85,00,0D,07,00,00,
63741479,00000523,false,Tx,0,8,00,00,00,00,00,00,FF,00,
4358724551,00000570,false,Rx,0,8,00,01,85,00,01,00,00,00,
63853266,00000523,false,Tx,0,8,00,00,00,00,00,00,FF,00,
