Time Stamp,ID,Extended,Dir,Bus,LEN,D1,D2,D3,D4,D5,D6,D7,D8
54930411,00000523,false,Tx,0,8,00,00,00,00,00,00,00,00,
55042520,00000523,false,Tx,0,8,00,00,00,00,00,00,00,00,
55148383,00000523,false,Tx,0,8,00,00,00,00,00,00,00,00,
55254015,00000523,false,Tx,0,8,00,00,00,00,00,00,00,00,
55379972,00000523,false,Tx,0,8,00,00,00,00,00,00,00,00,
55499937,00000523,false,Tx,0,8,00,00,00,00,00,00,00,00,
55602598,00000523,false,Tx,0,8,00,00,00,00,00,00,00,00,
55712674,00000523,false,Tx,0,8,00,00,00,00,00,00,00,00,
55841610,00000523,false,Tx,0,8,00,00,00,00,00,00,00,00,
55945707,00000523,false,Tx,0,8,00,00,00,00,00,00,00,00,
56040360,00000523,false,Tx,0,8,00,00,00,00,00,00,00,00,
56150356,00000523,false,Tx,0,8,00,00,00,00,00,00,00,00,
56267470,00000523,false,Tx,0,8,00,00,00,00,00,00,00,00,
56366147,00000523,false,Tx,0,8,00,00,00,00,00,00,00,00,
56473811,00000523,false,Tx,0,8,00,00,00,00,00,00,00,00,
56582284,00000523,false,Tx,0,8,00,00,00,00,00,00,00,00,
56705751,00000523,false,Tx,0,8,00,00,00,00,00,00,00,00,
56820505,00000523,false,Tx,0,8,00,00,00,00,00,00,00,00,
56961863,00000523,false,Tx,0,8,00,00,00,00,00,00,00,00,
57036269,00000523,false,Tx,0,8,00,00,00,00,00,00,00,00,
57148216,00000523,false,Tx,0,8,00,00,00,00,00,00,00,00,
57252723,00000523,false,Tx,0,8,00,00,00,00,00,00,00,00,
57372134,00000523,false,Tx,0,8,00,00,00,00,00,00,00,00,
57464592,00000523,false,Tx,0,8,00,00,00,00,00,00,00,00,
57583904,00000523,false,Tx,0,8,00,00,00,00,00,00,00,00,
57771644,00000523,false,Tx,0,8,00,00,00,00,00,00,00,00,
57793037,00000523,false,Tx,0,8,00,00,00,00,00,00,00,00,
57901625,00000523,false,Tx,0,8,00,00,00,00,00,00,00,00,
58011805,00000523,false,Tx,0,8,00,00,00,00,00,00,00,00,
58125572,00000523,false,Tx,0,8,00,00,00,00,00,00,00,00,
58229624,00000523,false,Tx,0,8,00,00,00,00,00,00,00,00,
58341571,00000523,false,Tx,0,8,00,00,00,00,00,00,00,00,
58449321,00000523,false,Tx,0,8,00,00,00,00,00,00,00,00,
58557484,00000523,false,Tx,0,8,00,00,00,00,00,00,00,00,
58671376,00000523,false,Tx,0,8,00,00,00,00,00,00,00,00,
58793755,00000523,false,Tx,0,8,00,00,00,00,00,00,00,00,
58905302,00000523,false,Tx,0,8,00,00,00,00,00,00,00,00,
58995657,00000523,false,Tx,0,8,00,00,00,00,00,00,00,00,
59111242,00000523,false,Tx,0,8,00,00,00,00,00,00,00,00,
59214927,00000523,false,Tx,0,8,00,00,00,00,00,00,00,00,
59257685,000004DE,false,Tx,0,8,00,FF,FF,FF,FF,FF,FF,FF,
59324439,00000523,false,Tx,0,8,00,00,00,00,00,00,00,00,
59367319,000004DE,false,Tx,0,8,00,FF,FF,FF,FF,FF,FF,FF,
59443217,00000523,false,Tx,0,8,00,00,00,00,00,00,00,00,
59484625,000004DE,false,Tx,0,8,00,FF,FF,FF,FF,FF,FF,FF,
59547340,00000523,false,Tx,0,8,00,00,00,00,00,00,00,00,
59596045,000004DE,false,Tx,0,8,00,FF,FF,FF,FF,FF,FF,FF,
59656389,00000523,false,Tx,0,8,00,00,00,00,00,00,00,00,
59691373,000004DE,false,Tx,0,8,00,FF,FF,FF,FF,FF,FF,FF,
59761156,00000523,false,Tx,0,8,00,00,00,00,00,00,00,00,
59805706,000004DE,false,Tx,0,8,00,FF,FF,FF,FF,FF,FF,FF,
59871814,00000523,false,Tx,0,8,00,00,00,00,00,00,00,00,
59916297,000004DE,false,Tx,0,8,00,FF,FF,FF,FF,FF,FF,FF,
59979643,00000523,false,Tx,0,8,00,00,00,00,00,00,00,00,
60034535,000004DE,false,Tx,0,8,00,FF,FF,FF,FF,FF,FF,FF,
60089223,00000523,false,Tx,0,8,00,00,00,00,00,00,00,00,
60138864,000004DE,false,Tx,0,8,00,FF,FF,FF,FF,FF,FF,FF,
60198947,00000523,false,Tx,0,8,00,00,00,00,00,00,00,00,
60247375,000004DE,false,Tx,0,8,00,FF,FF,FF,FF,FF,FF,FF,
60308384,00000523,false,Tx,0,8,00,00,00,00,00,00,00,00,
60352267,000004DE,false,Tx,0,8,00,FF,FF,FF,FF,FF,FF,FF,
60436155,00000523,false,Tx,0,8,00,00,00,00,00,00,00,00,
60460694,000004DE,false,Tx,0,8,00,FF,FF,FF,FF,FF,FF,FF,
60527402,00000523,false,Tx,0,8,00,00,00,00,00,00,00,00,
60570380,000004DE,false,Tx,0,8,00,FF,FF,FF,FF,FF,FF,FF,
60636655,00000523,false,Tx,0,8,00,00,00,00,00,00,00,00,
60686834,000004DE,false,Tx,0,8,00,FF,FF,FF,FF,FF,FF,FF,
60746089,00000523,false,Tx,0,8,00,00,00,00,00,00,00,00,
60802221,000004DE,false,Tx,0,8,00,FF,FF,FF,FF,FF,FF,FF,
60863399,00000523,false,Tx,0,8,00,00,00,00,00,00,00,00,
60931932,000004DE,false,Tx,0,8,00,FF,FF,FF,FF,FF,FF,FF,
60974113,00000523,false,Tx,0,8,00,00,00,00,00,00,00,00,
61012787,000004DE,false,Tx,0,8,00,FF,FF,FF,FF,FF,FF,FF,
61078153,00000523,false,Tx,0,8,00,00,00,00,00,00,00,00,
61119868,000004DE,false,Tx,0,8,00,FF,FF,FF,FF,FF,FF,FF,
61225246,00000523,false,Tx,0,8,00,00,00,00,00,00,00,00,
61231437,000004DE,false,Tx,0,8,00,FF,FF,FF,FF,FF,FF,FF,
61292337,00000523,false,Tx,0,8,00,00,00,00,00,00,00,00,
61344585,000004DE,false,Tx,0,8,00,FF,FF,FF,FF,FF,FF,FF,
61405547,00000523,false,Tx,0,8,00,00,00,00,00,00,00,00,
61452109,000004DE,false,Tx,0,8,00,FF,FF,FF,FF,FF,FF,FF,
61511522,00000523,false,Tx,0,8,00,00,00,00,00,00,00,00,
61561001,000004DE,false,Tx,0,8,00,FF,FF,FF,FF,FF,FF,FF,
61624842,00000523,false,Tx,0,8,00,00,00,00,00,00,00,00,
61691355,000004DE,false,Tx,0,8,00,FF,FF,FF,FF,FF,FF,FF,
61730318,00000523,false,Tx,0,8,00,00,00,00,00,00,00,00,
61798820,000004DE,false,Tx,0,8,00,FF,FF,FF,FF,FF,FF,FF,
61839988,00000523,false,Tx,0,8,00,00,00,00,00,00,00,00,
61955231,000004DE,false,Tx,0,8,00,FF,FF,FF,FF,FF,FF,FF,
61983394,00000523,false,Tx,0,8,00,00,00,00,00,00,00,00,
62015057,000004DE,false,Tx,0,8,00,FF,FF,FF,FF,FF,FF,FF,
62064070,00000523,false,Tx,0,8,00,00,00,00,00,00,00,00,
62124370,000004DE,false,Tx,0,8,00,FF,FF,FF,FF,FF,FF,FF,
62181342,00000523,false,Tx,0,8,00,00,00,00,00,00,00,00,
62231182,000004DE,false,Tx,0,8,00,FF,FF,FF,FF,FF,FF,FF,
62285240,00000523,false,Tx,0,8,00,00,00,00,00,00,00,00,
62340712,000004DE,false,Tx,0,8,00,FF,FF,FF,FF,FF,FF,FF,
62394446,00000523,false,Tx,0,8,00,00,00,00,00,00,00,00,
62462653,000004DE,false,Tx,0,8,00,FF,FF,FF,FF,FF,FF,FF,
62495230,00000523,false,Tx,0,8,00,00,00,00,00,00,00,00,
62563839,000004DE,false,Tx,0,8,00,FF,FF,FF,FF,FF,FF,FF,
62614230,00000523,false,Tx,0,8,00,00,00,00,00,00,00,00,
62708254,000004DE,false,Tx,0,8,00,FF,FF,FF,FF,FF,FF,FF,
62725721,00000523,false,Tx,0,8,00,00,00,00,00,00,00,00,
62802228,000004DE,false,Tx,0,8,00,FF,FF,FF,FF,FF,FF,FF,
62830042,00000523,false,Tx,0,8,00,00,00,00,00,00,00,00,
62907886,000004DE,false,Tx,0,8,00,FF,FF,FF,FF,FF,FF,FF,
62956802,00000523,false,Tx,0,8,00,00,00,00,00,00,00,00,
63017204,000004DE,false,Tx,0,8,00,FF,FF,FF,FF,FF,FF,FF,
63048817,00000523,false,Tx,0,8,00,00,00,00,00,00,00,00,
63131107,000004DE,false,Tx,0,8,00,FF,FF,FF,FF,FF,FF,FF,
63160791,00000523,false,Tx,0,8,00,00,00,00,00,00,00,00,
63235764,000004DE,false,Tx,0,8,00,FF,FF,FF,FF,FF,FF,FF,
63264773,00000523,false,Tx,0,8,00,00,00,00,00,00,00,00,
63356981,000004DE,false,Tx,0,8,00,FF,FF,FF,FF,FF,FF,FF,
63374984,00000523,false,Tx,0,8,00,00,00,00,00,00,00,00,
63465261,000004DE,false,Tx,0,8,00,FF,FF,FF,FF,FF,FF,FF,
63479952,00000523,false,Tx,0,8,00,00,00,00,00,00,00,00,
63589376,000004DE,false,Tx,0,8,00,FF,FF,FF,FF,FF,FF,FF,
63598505,00000523,false,Tx,0,8,00,00,00,00,00,00,00,00,
4358544835,000004E4,false,Rx,0,8,00,00,85,00,00,00,00,00,
63684510,000004DE,false,Tx,0,8,00,FF,FF,FF,FF,FF,FF,FF,
4358645585,000004E4,false,Rx,0,8,00,00,85,00,00,00,00,00,
63723487,00000523,false,Tx,0,8,00,00,00,00,00,00,00,00,
4358745577,000004E4,false,Rx,0,8,00,00,85,00,00,00,00,00,
63808485,000004DE,false,Tx,0,8,00,FF,FF,FF,FF,FF,FF,FF,
63811590,00000523,false,Tx,0,8,00,00,00,00,00,00,00,00,
4358845577,000004E4,false,Rx,0,8,00,00,85,00,00,00,00,00,
63911297,000004DE,false,Tx,0,8,00,FF,FF,FF,FF,FF,FF,FF,
63931406,00000523,false,Tx,0,8,00,00,00,00,00,00,00,00,
4358945567,000004E4,false,Rx,0,8,00,00,85,00,00,00,00,00,
64021691,000004DE,false,Tx,0,8,00,FF,FF,FF,FF,FF,FF,FF,
64033126,00000523,false,Tx,0,8,00,00,00,00,00,00,00,00,
4359045567,000004E4,false,Rx,0,8,00,00,85,00,00,00,00,00,
64121873,000004DE,false,Tx,0,8,00,FF,FF,FF,FF,FF,FF,FF,
64145607,00000523,false,Tx,0,8,00,00,00,00,00,00,00,00,
4359145566,000004E4,false,Rx,0,8,00,00,85,00,00,00,00,00,
64234446,000004DE,false,Tx,0,8,00,FF,FF,FF,FF,FF,FF,FF,
64245115,00000523,false,Tx,0,8,00,00,00,00,00,00,00,00,
4359245569,000004E4,false,Rx,0,8,00,00,85,00,00,00,00,00,
64353909,000004DE,false,Tx,0,8,00,FF,FF,FF,FF,FF,FF,FF,
64361601,00000523,false,Tx,0,8,00,00,00,00,00,00,00,00,
4359345598,000004E4,false,Rx,0,8,00,00,85,00,00,00,00,00,
64458496,000004DE,false,Tx,0,8,00,FF,FF,FF,FF,FF,FF,FF,
64464673,00000523,false,Tx,0,8,00,00,00,00,00,00,00,00,
4359445586,000004E4,false,Rx,0,8,00,00,85,00,00,00,00,00,
64559629,000004DE,false,Tx,0,8,00,FF,FF,FF,FF,FF,FF,FF,
64582389,00000523,false,Tx,0,8,00,00,00,00,00,00,00,00,
4359545579,000004E4,false,Rx,0,8,00,00,85,00,00,00,00,00,
64681724,000004DE,false,Tx,0,8,00,FF,FF,FF,FF,FF,FF,FF,
4359645580,000004E4,false,Rx,0,8,00,00,85,00,00,00,00,00,
64722752,00000523,false,Tx,0,8,00,00,00,00,00,00,00,00,
64793383,000004DE,false,Tx,0,8,00,FF,FF,FF,FF,FF,FF,FF,
64797270,00000523,false,Tx,0,8,00,00,00,00,00,00,00,00,
4359745581,000004E4,false,Rx,0,8,00,00,85,00,00,00,00,00,
64893388,000004DE,false,Tx,0,8,00,FF,FF,FF,FF,FF,FF,FF,
4359845581,000004E4,false,Rx,0,8,00,00,85,00,00,00,00,00,
64907157,00000523,false,Tx,0,8,00,00,00,00,00,00,00,00,
4359945612,000004E4,false,Rx,0,8,00,00,85,00,00,00,00,00,
65009336,000004DE,false,Tx,0,8,00,FF,FF,FF,FF,FF,FF,FF,
65018448,00000523,false,Tx,0,8,00,00,00,00,00,00,00,00,
4360045602,000004E4,false,Rx,0,8,00,00,85,00,00,00,00,00,
65109845,000004DE,false,Tx,0,8,00,FF,FF,FF,FF,FF,FF,FF,
65129086,00000523,false,Tx,0,8,00,00,00,00,00,00,00,00,
4360145595,000004E4,false,Rx,0,8,00,00,85,00,00,00,00,00,
65219000,000004DE,false,Tx,0,8,00,FF,FF,FF,FF,FF,FF,FF,
65232122,00000523,false,Tx,0,8,00,00,00,00,00,00,00,00,
4360245592,000004E4,false,Rx,0,8,00,00,85,00,00,00,00,00,
65336093,000004DE,false,Tx,0,8,00,FF,FF,FF,FF,FF,FF,FF,
65344788,00000523,false,Tx,0,8,00,00,00,00,00,00,00,00,
4360345591,000004E4,false,Rx,0,8,00,00,85,00,00,00,00,00,
65457845,00000523,false,Tx,0,8,00,00,00,00,00,00,00,00,
65466854,000004DE,false,Tx,0,8,00,FF,FF,FF,FF,FF,FF,FF,
4360445591,000004E4,false,Rx,0,8,00,00,85,00,00,00,00,00,
65555250,000004DE,false,Tx,0,8,00,FF,FF,FF,FF,FF,FF,FF,
65558947,00000523,false,Tx,0,8,00,00,00,00,00,00,00,00,
4360545601,000004E4,false,Rx,0,8,00,00,85,00,00,00,00,00,
65660155,000004DE,false,Tx,0,8,00,FF,FF,FF,FF,FF,FF,FF,
65682363,00000523,false,Tx,0,8,00,00,00,00,00,00,00,00,
4360645623,000004E4,false,Rx,0,8,00,00,85,00,00,00,00,00,
65770143,000004DE,false,Tx,0,8,00,FF,FF,FF,FF,FF,FF,FF,
65777429,00000523,false,Tx,0,8,00,00,00,00,00,00,00,00,
4360745612,000004E4,false,Rx,0,8,00,00,85,00,00,00,00,00,
65887509,00000523,false,Tx,0,8,00,00,00,00,00,00,00,00,
65895459,000004DE,false,Tx,0,8,00,FF,FF,FF,FF,FF,FF,FF,
4360845602,000004E4,false,Rx,0,8,00,00,85,00,00,00,00,00,
66003922,00000523,false,Tx,0,8,00,00,00,00,00,00,00,00,
66005609,000004DE,false,Tx,0,8,00,FF,FF,FF,FF,FF,FF,FF,
4360945725,000004E4,false,Rx,0,8,00,00,85,00,00,00,00,00,
4361045601,000004E4,false,Rx,0,8,00,00,85,00,00,00,00,00,
66111467,000004DE,false,Tx,0,8,00,FF,FF,FF,FF,FF,FF,FF,
66114003,00000523,false,Tx,0,8,00,00,00,00,00,00,00,00,
4361145612,000004E4,false,Rx,0,8,00,00,85,00,00,00,00,00,
66224221,00000523,false,Tx,0,8,00,00,00,00,00,00,00,00,
66230044,000004DE,false,Tx,0,8,00,FF,FF,FF,FF,FF,FF,FF,
4361245633,000004E4,false,Rx,0,8,00,00,85,00,00,00,00,00,
66324407,00000523,false,Tx,0,8,00,00,00,00,00,00,00,00,
66327736,000004DE,false,Tx,0,8,00,FF,FF,FF,FF,FF,FF,FF,
4361345633,000004E4,false,Rx,0,8,00,00,85,00,00,00,00,00,
66461146,00000523,false,Tx,0,8,00,00,00,00,00,00,00,00,
66472764,000004DE,false,Tx,0,8,00,FF,FF,FF,FF,FF,FF,FF,
4361445622,000004E4,false,Rx,0,8,00,00,85,00,00,00,00,00,
66548559,00000523,false,Tx,0,8,00,00,00,00,00,00,00,00,
66559156,000004DE,false,Tx,0,8,00,FF,FF,FF,FF,FF,FF,FF,
4361545612,000004E4,false,Rx,0,8,00,00,85,00,00,00,00,00,
66652442,00000523,false,Tx,0,8,00,00,00,00,00,00,00,00,
66660628,000004DE,false,Tx,0,8,00,FF,FF,FF,FF,FF,FF,FF,
4361645617,000004E4,false,Rx,0,8,00,00,85,00,00,00,00,00,
66763732,000004DE,false,Tx,0,8,00,FF,FF,FF,FF,FF,FF,FF,
66766165,00000523,false,Tx,0,8,00,00,00,00,00,00,00,00,
4361745612,000004E4,false,Rx,0,8,00,00,85,00,00,00,00,00,
66872575,00000523,false,Tx,0,8,00,00,00,00,00,00,00,00,
66879329,000004DE,false,Tx,0,8,00,FF,FF,FF,FF,FF,FF,FF,
4361845622,000004E4,false,Rx,0,8,00,00,85,00,00,00,00,00,
66980485,00000523,false,Tx,0,8,00,00,00,00,00,00,00,00,
66983134,000004DE,false,Tx,0,8,00,FF,FF,FF,FF,FF,FF,FF,
4361945642,000004E4,false,Rx,0,8,00,00,85,00,00,00,00,00,
67098555,00000523,false,Tx,0,8,00,00,00,00,00,00,00,00,
67098911,000004DE,false,Tx,0,8,00,FF,FF,FF,FF,FF,FF,FF,
4362045632,000004E4,false,Rx,0,8,00,00,85,00,00,00,00,00,
4362145632,000004E4,false,Rx,0,8,00,00,85,00,00,00,00,00,
67233622,00000523,false,Tx,0,8,00,00,00,00,00,00,00,00,
67241411,000004DE,false,Tx,0,8,00,FF,FF,FF,FF,FF,FF,FF,
4362245622,000004E4,false,Rx,0,8,00,00,85,00,00,00,00,00,
67314076,00000523,false,Tx,0,8,00,00,00,00,00,00,00,00,
67331253,000004DE,false,Tx,0,8,00,FF,FF,FF,FF,FF,FF,FF,
4362345622,000004E4,false,Rx,0,8,00,00,85,00,00,00,00,00,
67446283,00000523,false,Tx,0,8,00,00,00,00,00,00,00,00,
67469769,000004DE,false,Tx,0,8,00,FF,FF,FF,FF,FF,FF,FF,
4362445622,000004E4,false,Rx,0,8,00,00,85,00,00,00,00,00,
67526409,00000523,false,Tx,0,8,00,00,00,00,00,00,00,00,
67547360,000004DE,false,Tx,0,8,00,FF,FF,FF,FF,FF,FF,FF,
4362545654,000004E4,false,Rx,0,8,00,00,85,00,00,00,00,00,
67637609,00000523,false,Tx,0,8,00,00,00,00,00,00,00,00,
67670424,000004DE,false,Tx,0,8,00,FF,FF,FF,FF,FF,FF,FF,
4362645647,000004E4,false,Rx,0,8,00,00,85,00,00,00,00,00,
67745811,00000523,false,Tx,0,8,00,00,00,00,00,00,00,00,
67783092,000004DE,false,Tx,0,8,00,FF,FF,FF,FF,FF,FF,FF,
4362745643,000004E4,false,Rx,0,8,00,00,85,00,00,00,00,00,
67855743,00000523,false,Tx,0,8,00,00,00,00,00,00,00,00,
67901481,000004DE,false,Tx,0,8,00,FF,FF,FF,FF,FF,FF,FF,
4362845632,000004E4,false,Rx,0,8,00,00,85,00,00,00,00,00,
67965063,00000523,false,Tx,0,8,00,00,00,00,00,00,00,00,
67995823,000004DE,false,Tx,0,8,00,FF,FF,FF,FF,FF,FF,FF,
4362945642,000004E4,false,Rx,0,8,00,00,85,00,00,00,00,00,
68074161,00000523,false,Tx,0,8,00,00,00,00,00,00,00,00,
4363045643,000004E4,false,Rx,0,8,00,00,85,00,00,00,00,00,
68118043,000004DE,false,Tx,0,8,00,FF,FF,FF,FF,FF,FF,FF,
68190530,00000523,false,Tx,0,8,00,00,00,00,00,00,00,00,
4363145637,000004E4,false,Rx,0,8,00,00,85,00,00,00,00,00,
68231427,000004DE,false,Tx,0,8,00,FF,FF,FF,FF,FF,FF,FF,
68293105,00000523,false,Tx,0,8,00,00,00,00,00,00,00,00,
4363245664,000004E4,false,Rx,0,8,00,00,85,00,00,00,00,00,
68329507,000004DE,false,Tx,0,8,00,FF,FF,FF,FF,FF,FF,FF,
68402095,00000523,false,Tx,0,8,00,00,00,00,00,00,00,00,
4363345653,000004E4,false,Rx,0,8,00,00,85,00,00,00,00,00,
68479720,000004DE,false,Tx,0,8,00,FF,FF,FF,FF,FF,FF,FF,
4363445653,000004E4,false,Rx,0,8,00,00,85,00,00,00,00,00,
68511830,00000523,false,Tx,0,8,00,00,00,00,00,00,00,00,
68548433,000004DE,false,Tx,0,8,00,FF,FF,FF,FF,FF,FF,FF,
4363545644,000004E4,false,Rx,0,8,00,00,85,00,00,00,00,00,
68620826,00000523,false,Tx,0,8,00,00,00,00,00,00,00,00,
68667423,000004DE,false,Tx,0,8,00,FF,FF,FF,FF,FF,FF,FF,
4363645648,000004E4,false,Rx,0,8,00,00,85,00,00,00,00,00,
68730668,00000523,false,Tx,0,8,00,00,00,00,00,00,00,00,
68766969,000004DE,false,Tx,0,8,00,FF,FF,FF,FF,FF,FF,FF,
4363745649,000004E4,false,Rx,0,8,00,00,85,00,00,00,00,00,
68839583,00000523,false,Tx,0,8,00,00,00,00,00,00,00,00,
68876555,000004DE,false,Tx,0,8,00,FF,FF,FF,FF,FF,FF,FF,
4363845680,000004E4,false,Rx,0,8,00,00,85,00,00,00,00,00,
68948714,00000523,false,Tx,0,8,00,00,00,00,00,00,00,00,
68998344,000004DE,false,Tx,0,8,00,FF,FF,FF,FF,FF,FF,FF,
4363945671,000004E4,false,Rx,0,8,00,00,85,00,00,00,00,00,
69067598,00000523,false,Tx,0,8,00,00,00,00,00,00,00,00,
4364045662,000004E4,false,Rx,0,8,00,00,85,00,00,00,00,00,
69120859,000004DE,false,Tx,0,8,00,FF,FF,FF,FF,FF,FF,FF,
69194029,00000523,false,Tx,0,8,00,00,00,00,00,00,00,00,
4364145663,000004E4,false,Rx,0,8,00,00,85,00,00,00,00,00,
69223200,000004DE,false,Tx,0,8,00,FF,FF,FF,FF,FF,FF,FF,
69276358,00000523,false,Tx,0,8,00,00,00,00,00,00,00,00,
4364245661,000004E4,false,Rx,0,8,00,00,85,00,00,00,00,00,
69337076,000004DE,false,Tx,0,8,00,FF,FF,FF,FF,FF,FF,FF,
69391530,00000523,false,Tx,0,8,00,00,00,00,00,00,00,00,
4364345660,000004E4,false,Rx,0,8,00,00,85,00,00,00,00,00,
69471797,000004DE,false,Tx,0,8,00,FF,FF,FF,FF,FF,FF,FF,
69496102,00000523,false,Tx,0,8,00,00,00,00,00,00,00,00,
4364445663,000004E4,false,Rx,0,8,00,00,85,00,00,00,00,00,
69568571,000004DE,false,Tx,0,8,00,FF,FF,FF,FF,FF,FF,FF,
69605417,00000523,false,Tx,0,8,00,00,00,00,00,00,00,00,
4364545683,000004E4,false,Rx,0,8,00,00,85,00,00,00,00,00,
69697692,000004DE,false,Tx,0,8,00,FF,FF,FF,FF,FF,FF,FF,
4364645684,000004E4,false,Rx,0,8,00,00,85,00,00,00,00,00,
69714419,00000523,false,Tx,0,8,00,00,00,00,00,00,00,00,
69804785,000004DE,false,Tx,0,8,00,FF,FF,FF,FF,FF,FF,FF,
4364745674,000004E4,false,Rx,0,8,00,00,85,00,00,00,00,00,
69832242,00000523,false,Tx,0,8,00,00,00,00,00,00,00,00,
4364845664,000004E4,false,Rx,0,8,00,00,85,00,00,00,00,00,
69906868,000004DE,false,Tx,0,8,00,FF,FF,FF,FF,FF,FF,FF,
69944194,00000523,false,Tx,0,8,00,00,00,00,00,00,00,00,
4364945665,000004E4,false,Rx,0,8,00,00,85,00,00,00,00,00,
70022809,000004DE,false,Tx,0,8,00,FF,FF,FF,FF,FF,FF,FF,
70042436,00000523,false,Tx,0,8,00,00,00,00,00,00,00,00,
4365045675,000004E4,false,Rx,0,8,00,00,85,00,00,00,00,00,
70139801,000004DE,false,Tx,0,8,00,FF,FF,FF,FF,FF,FF,FF,
70155520,00000523,false,Tx,0,8,00,00,00,00,00,00,00,00,
4365145699,000004E4,false,Rx,0,8,00,00,85,00,00,00,00,00,
70238222,000004DE,false,Tx,0,8,00,FF,FF,FF,FF,FF,FF,FF,
70294824,00000523,false,Tx,0,8,00,00,00,00,00,00,00,00,
4365245695,000004E4,false,Rx,0,8,00,00,85,00,00,00,00,00,
70352856,000004DE,false,Tx,0,8,00,FF,FF,FF,FF,FF,FF,FF,
70370849,00000523,false,Tx,0,8,00,00,00,00,00,00,00,00,
4365345684,000004E4,false,Rx,0,8,00,00,85,00,00,00,00,00,
70480336,00000523,false,Tx,0,8,00,00,00,00,00,00,00,00,
70481190,000004DE,false,Tx,0,8,00,FF,FF,FF,FF,FF,FF,FF,
4365445685,000004E4,false,Rx,0,8,00,00,85,00,00,00,00,00,
70572481,000004DE,false,Tx,0,8,00,FF,FF,FF,FF,FF,FF,FF,
70590050,00000523,false,Tx,0,8,00,00,00,00,00,00,00,00,
4365545674,000004E4,false,Rx,0,8,00,00,85,00,00,00,00,00,
70679764,000004DE,false,Tx,0,8,00,FF,FF,FF,FF,FF,FF,FF,
70699058,00000523,false,Tx,0,8,00,00,00,00,00,00,00,00,
4365645679,000004E4,false,Rx,0,8,00,00,85,00,00,00,00,00,
70785878,000004DE,false,Tx,0,8,00,FF,FF,FF,FF,FF,FF,FF,
4365745679,000004E4,false,Rx,0,8,00,00,85,00,00,00,00,00,
70808926,00000523,false,Tx,0,8,00,00,00,00,00,00,00,00,
4365845712,000004E4,false,Rx,0,8,00,00,85,00,00,00,00,00,
70909863,000004DE,false,Tx,0,8,00,FF,FF,FF,FF,FF,FF,FF,
70922995,00000523,false,Tx,0,8,00,00,00,00,00,00,00,00,
4365945701,000004E4,false,Rx,0,8,00,00,85,00,00,00,00,00,
71019423,000004DE,false,Tx,0,8,00,FF,FF,FF,FF,FF,FF,FF,
71027378,00000523,false,Tx,0,8,00,00,00,00,00,00,00,00,
4366045701,000004E4,false,Rx,0,8,00,00,85,00,00,00,00,00,
71126964,000004DE,false,Tx,0,8,00,FF,FF,FF,FF,FF,FF,FF,
71136265,00000523,false,Tx,0,8,00,00,00,00,00,00,00,00,
4366145693,000004E4,false,Rx,0,8,00,00,85,00,00,00,00,00,
71247060,00000523,false,Tx,0,8,00,00,00,00,00,00,00,00,
71267274,000004DE,false,Tx,0,8,00,FF,FF,FF,FF,FF,FF,FF,
4366245690,000004E4,false,Rx,0,8,00,00,85,00,00,00,00,00,
71354069,000004DE,false,Tx,0,8,00,FF,FF,FF,FF,FF,FF,FF,
71355027,00000523,false,Tx,0,8,00,00,00,00,00,00,00,00,
4366345695,000004E4,false,Rx,0,8,00,00,85,00,00,00,00,00,
71458664,000004DE,false,Tx,0,8,00,FF,FF,FF,FF,FF,FF,FF,
71464515,00000523,false,Tx,0,8,00,00,00,00,00,00,00,00,
4366445716,000004E4,false,Rx,0,8,00,00,85,00,00,00,00,00,
71573009,000004DE,false,Tx,0,8,00,FF,FF,FF,FF,FF,FF,FF,
71574883,00000523,false,Tx,0,8,00,00,00,00,00,00,00,00,
4366545720,000004E4,false,Rx,0,8,00,00,85,00,00,00,00,00,
71677266,000004DE,false,Tx,0,8,00,FF,FF,FF,FF,FF,FF,FF,
71689412,00000523,false,Tx,0,8,00,00,00,00,00,00,00,00,
4366645712,000004E4,false,Rx,0,8,00,00,85,00,00,00,00,00,
71783497,000004DE,false,Tx,0,8,00,FF,FF,FF,FF,FF,FF,FF,
71792525,00000523,false,Tx,0,8,00,00,00,00,00,00,00,00,
4366745703,000004E4,false,Rx,0,8,00,00,85,00,00,00,00,00,
71902158,00000523,false,Tx,0,8,00,00,00,00,00,00,00,00,
4366845704,000004E4,false,Rx,0,8,00,00,85,00,00,00,00,00,
71917745,000004DE,false,Tx,0,8,00,FF,FF,FF,FF,FF,FF,FF,
4366945705,000004E4,false,Rx,0,8,00,00,85,00,00,00,00,00,
72012154,00000523,false,Tx,0,8,00,00,00,00,00,00,00,00,
72024537,000004DE,false,Tx,0,8,00,FF,FF,FF,FF,FF,FF,FF,
4367045705,000004E4,false,Rx,0,8,00,00,85,00,00,00,00,00,
72120558,00000523,false,Tx,0,8,00,00,00,00,00,00,00,00,
72128990,000004DE,false,Tx,0,8,00,FF,FF,FF,FF,FF,FF,FF,
4367145729,000004E4,false,Rx,0,8,00,00,85,00,00,00,00,00,
72229622,00000523,false,Tx,0,8,00,00,00,00,00,00,00,00,
72292604,000004DE,false,Tx,0,8,00,FF,FF,FF,FF,FF,FF,FF,
4367245725,000004E4,false,Rx,0,8,00,00,85,00,00,00,00,00,
72339633,00000523,false,Tx,0,8,00,00,00,00,00,00,00,00,
72344846,000004DE,false,Tx,0,8,00,FF,FF,FF,FF,FF,FF,FF,
4367345716,000004E4,false,Rx,0,8,00,00,85,00,00,00,00,00,
72448585,00000523,false,Tx,0,8,00,00,00,00,00,00,00,00,
72465575,000004DE,false,Tx,0,8,00,FF,FF,FF,FF,FF,FF,FF,
4367445716,000004E4,false,Rx,0,8,00,00,85,00,00,00,00,00,
72558665,00000523,false,Tx,0,8,00,00,00,00,00,00,00,00,
72578591,000004DE,false,Tx,0,8,00,FF,FF,FF,FF,FF,FF,FF,
4367545716,000004E4,false,Rx,0,8,00,00,85,00,00,00,00,00,
72677981,000004DE,false,Tx,0,8,00,FF,FF,FF,FF,FF,FF,FF,
72697140,00000523,false,Tx,0,8,00,00,00,00,00,00,00,00,
4367645719,000004E4,false,Rx,0,8,00,00,85,00,00,00,00,00,
72776865,00000523,false,Tx,0,8,00,00,00,00,00,00,00,00,
72792281,000004DE,false,Tx,0,8,00,FF,FF,FF,FF,FF,FF,FF,
4367745716,000004E4,false,Rx,0,8,00,00,85,00,00,00,00,00,
72892034,00000523,false,Tx,0,8,00,00,00,00,00,00,00,00,
72893846,000004DE,false,Tx,0,8,00,FF,FF,FF,FF,FF,FF,FF,
4367845736,000004E4,false,Rx,0,8,00,00,85,00,00,00,00,00,
72995197,00000523,false,Tx,0,8,00,00,00,00,00,00,00,00,
4367945736,000004E4,false,Rx,0,8,00,00,85,00,00,00,00,00,
73041292,000004DE,false,Tx,0,8,00,FF,FF,FF,FF,FF,FF,FF,
4368045726,000004E4,false,Rx,0,8,00,00,85,00,00,00,00,00,
73110324,00000523,false,Tx,0,8,00,00,00,00,00,00,00,00,
73115112,000004DE,false,Tx,0,8,00,FF,FF,FF,FF,FF,FF,FF,
4368145726,000004E4,false,Rx,0,8,00,00,85,00,00,00,00,00,
73219801,00000523,false,Tx,0,8,00,00,00,00,00,00,00,00,
73231596,000004DE,false,Tx,0,8,00,FF,FF,FF,FF,FF,FF,FF,
4368245727,000004E4,false,Rx,0,8,00,00,85,00,00,00,00,00,
73325978,000004DE,false,Tx,0,8,00,FF,FF,FF,FF,FF,FF,FF,
73332635,00000523,false,Tx,0,8,00,00,00,00,00,00,00,00,
4368345727,000004E4,false,Rx,0,8,00,00,85,00,00,00,00,00,
73447297,00000523,false,Tx,0,8,00,00,00,00,00,00,00,00,
73447422,000004DE,false,Tx,0,8,00,FF,FF,FF,FF,FF,FF,FF,
4368445747,000004E4,false,Rx,0,8,00,00,85,00,00,00,00,00,
73543388,00000523,false,Tx,0,8,00,00,00,00,00,00,00,00,
73557971,000004DE,false,Tx,0,8,00,FF,FF,FF,FF,FF,FF,FF,
4368545746,000004E4,false,Rx,0,8,00,00,85,00,00,00,00,00,
73652793,00000523,false,Tx,0,8,00,00,00,00,00,00,00,00,
73657748,000004DE,false,Tx,0,8,00,FF,FF,FF,FF,FF,FF,FF,
4368645741,000004E4,false,Rx,0,8,00,00,85,00,00,00,00,00,
73760991,00000523,false,Tx,0,8,00,00,00,00,00,00,00,00,
73790317,000004DE,false,Tx,0,8,00,FF,FF,FF,FF,FF,FF,FF,
4368745733,000004E4,false,Rx,0,8,00,00,85,00,00,00,00,00,
73871577,00000523,false,Tx,0,8,00,00,00,00,00,00,00,00,
73881828,000004DE,false,Tx,0,8,00,FF,FF,FF,FF,FF,FF,FF,
4368845733,000004E4,false,Rx,0,8,00,00,85,00,00,00,00,00,
73980952,00000523,false,Tx,0,8,00,00,00,00,00,00,00,00,
4368945733,000004E4,false,Rx,0,8,00,00,85,00,00,00,00,00,
74015801,000004DE,false,Tx,0,8,00,FF,FF,FF,FF,FF,FF,FF,
74090368,00000523,false,Tx,0,8,00,00,00,00,00,00,00,00,
4369045743,000004E4,false,Rx,0,8,00,00,85,00,00,00,00,00,
74118164,000004DE,false,Tx,0,8,00,FF,FF,FF,FF,FF,FF,FF,
74199705,00000523,false,Tx,0,8,00,00,00,00,00,00,00,00,
4369145767,000004E4,false,Rx,0,8,00,00,85,00,00,00,00,00,
74233873,000004DE,false,Tx,0,8,00,FF,FF,FF,FF,FF,FF,FF,
4369245757,000004E4,false,Rx,0,8,00,00,85,00,00,00,00,00,
74308936,00000523,false,Tx,0,8,00,00,00,00,00,00,00,00,
74325981,000004DE,false,Tx,0,8,00,FF,FF,FF,FF,FF,FF,FF,
4369345747,000004E4,false,Rx,0,8,00,00,85,00,00,00,00,00,
74421866,00000523,false,Tx,0,8,00,00,00,00,00,00,00,00,
74449870,000004DE,false,Tx,0,8,00,FF,FF,FF,FF,FF,FF,FF,
4369445747,000004E4,false,Rx,0,8,00,00,85,00,00,00,00,00,
74527485,00000523,false,Tx,0,8,00,00,00,00,00,00,00,00,
74558323,000004DE,false,Tx,0,8,00,FF,FF,FF,FF,FF,FF,FF,
4369545746,000004E4,false,Rx,0,8,00,00,85,00,00,00,00,00,
74642537,00000523,false,Tx,0,8,00,00,00,00,00,00,00,00,
74667804,000004DE,false,Tx,0,8,00,FF,FF,FF,FF,FF,FF,FF,
4369645750,000004E4,false,Rx,0,8,00,00,85,00,00,00,00,00,
74745727,00000523,false,Tx,0,8,00,00,00,00,00,00,00,00,
4369745778,000004E4,false,Rx,0,8,00,00,85,00,00,00,00,00,
74809191,000004DE,false,Tx,0,8,00,FF,FF,FF,FF,FF,FF,FF,
74859333,00000523,false,Tx,0,8,00,00,00,00,00,00,00,00,
74879210,000004DE,false,Tx,0,8,00,FF,FF,FF,FF,FF,FF,FF,
4369845768,000004E4,false,Rx,0,8,00,00,85,00,00,00,00,00,
74964295,00000523,false,Tx,0,8,00,00,00,00,00,00,00,00,
74997864,000004DE,false,Tx,0,8,00,FF,FF,FF,FF,FF,FF,FF,
4369945767,000004E4,false,Rx,0,8,00,00,85,00,00,00,00,00,
75105067,00000523,false,Tx,0,8,00,00,00,00,00,00,00,00,
4370045756,000004E4,false,Rx,0,8,00,00,85,00,00,00,00,00,
75120547,000004DE,false,Tx,0,8,00,FF,FF,FF,FF,FF,FF,FF,
75189641,00000523,false,Tx,0,8,00,00,00,00,00,00,00,00,
4370145757,000004E4,false,Rx,0,8,00,00,85,00,00,00,00,00,
75236042,000004DE,false,Tx,0,8,00,FF,FF,FF,FF,FF,FF,FF,
75297557,00000523,false,Tx,0,8,00,00,00,00,00,00,00,00,
4370245757,000004E4,false,Rx,0,8,00,00,85,00,00,00,00,00,
75330467,000004DE,false,Tx,0,8,00,FF,FF,FF,FF,FF,FF,FF,
75406765,00000523,false,Tx,0,8,00,00,00,00,00,00,00,00,
4370345757,000004E4,false,Rx,0,8,00,00,85,00,00,00,00,00,
75452923,000004DE,false,Tx,0,8,00,FF,FF,FF,FF,FF,FF,FF,
4370445789,000004E4,false,Rx,0,8,00,00,85,00,00,00,00,00,
75521583,00000523,false,Tx,0,8,00,00,00,00,00,00,00,00,
75562691,000004DE,false,Tx,0,8,00,FF,FF,FF,FF,FF,FF,FF,
4370545777,000004E4,false,Rx,0,8,00,00,85,00,00,00,00,00,
75629184,00000523,false,Tx,0,8,00,00,00,00,00,00,00,00,
75671220,000004DE,false,Tx,0,8,00,FF,FF,FF,FF,FF,FF,FF,
4370645773,000004E4,false,Rx,0,8,00,00,85,00,00,00,00,00,
75734368,00000523,false,Tx,0,8,00,00,00,00,00,00,00,00,
75780767,000004DE,false,Tx,0,8,00,FF,FF,FF,FF,FF,FF,FF,
4370745773,000004E4,false,Rx,0,8,00,00,85,00,00,00,00,00,
75839292,00000523,false,Tx,0,8,00,00,00,00,00,00,00,00,
75885586,000004DE,false,Tx,0,8,00,FF,FF,FF,FF,FF,FF,FF,
4370845773,000004E4,false,Rx,0,8,00,00,85,00,00,00,00,00,
75948858,00000523,false,Tx,0,8,00,00,00,00,00,00,00,00,
75988488,000004DE,false,Tx,0,8,00,FF,FF,FF,FF,FF,FF,FF,
4370945773,000004E4,false,Rx,0,8,00,00,85,00,00,00,00,00,
76058828,00000523,false,Tx,0,8,00,00,00,00,00,00,00,00,
76096405,000004DE,false,Tx,0,8,00,FF,FF,FF,FF,FF,FF,FF,
4371045796,000004E4,false,Rx,0,8,00,00,85,00,00,00,00,00,
76187279,00000523,false,Tx,0,8,00,00,00,00,00,00,00,00,
4371145798,000004E4,false,Rx,0,8,00,00,85,00,00,00,00,00,
76222431,000004DE,false,Tx,0,8,00,FF,FF,FF,FF,FF,FF,FF,
76276018,00000523,false,Tx,0,8,00,00,00,00,00,00,00,00,
4371245784,000004E4,false,Rx,0,8,00,00,85,00,00,00,00,00,
76335551,000004DE,false,Tx,0,8,00,FF,FF,FF,FF,FF,FF,FF,
76387102,00000523,false,Tx,0,8,00,00,00,00,00,00,00,00,
4371345785,000004E4,false,Rx,0,8,00,00,85,00,00,00,00,00,
76443692,000004DE,false,Tx,0,8,00,FF,FF,FF,FF,FF,FF,FF,
76495254,00000523,false,Tx,0,8,00,00,00,00,00,00,00,00,
4371445788,000004E4,false,Rx,0,8,00,00,85,00,00,00,00,00,
76576464,000004DE,false,Tx,0,8,00,FF,FF,FF,FF,FF,FF,FF,
76606197,00000523,false,Tx,0,8,00,00,00,00,00,00,00,00,
4371545800,000004E4,false,Rx,0,8,00,00,85,00,00,00,00,00,
76666212,000004DE,false,Tx,0,8,00,FF,FF,FF,FF,FF,FF,FF,
4371645790,000004E4,false,Rx,0,8,00,00,85,00,00,00,00,00,
76713528,00000523,false,Tx,0,8,00,00,00,00,00,00,00,00,
76783999,000004DE,false,Tx,0,8,00,FF,FF,FF,FF,FF,FF,FF,
4371745810,000004E4,false,Rx,0,8,00,00,85,00,00,00,00,00,
76824389,00000523,false,Tx,0,8,00,00,00,00,00,00,00,00,
76886850,000004DE,false,Tx,0,8,00,FF,FF,FF,FF,FF,FF,FF,
4371845799,000004E4,false,Rx,0,8,00,00,85,00,00,00,00,00,
76938389,00000523,false,Tx,0,8,00,00,00,00,00,00,00,00,
76988915,000004DE,false,Tx,0,8,00,FF,FF,FF,FF,FF,FF,FF,
4371945799,000004E4,false,Rx,0,8,00,00,85,00,00,00,00,00,
77042385,00000523,false,Tx,0,8,00,00,00,00,00,00,00,00,
77098604,000004DE,false,Tx,0,8,00,FF,FF,FF,FF,FF,FF,FF,
4372045790,000004E4,false,Rx,0,8,00,00,85,00,00,00,00,00,
77157023,00000523,false,Tx,0,8,00,00,00,00,00,00,00,00,
4372145794,000004E4,false,Rx,0,8,00,00,85,00,00,00,00,00,
77224602,000004DE,false,Tx,0,8,00,FF,FF,FF,FF,FF,FF,FF,
77261846,00000523,false,Tx,0,8,00,00,00,00,00,00,00,00,
4372245795,000004E4,false,Rx,0,8,00,00,85,00,00,00,00,00,
77343208,000004DE,false,Tx,0,8,00,FF,FF,FF,FF,FF,FF,FF,
77373321,00000523,false,Tx,0,8,00,00,00,00,00,00,00,00,
4372345815,000004E4,false,Rx,0,8,00,00,85,00,00,00,00,00,
77441101,000004DE,false,Tx,0,8,00,FF,FF,FF,FF,FF,FF,FF,
77480076,00000523,false,Tx,0,8,00,00,00,00,00,00,00,00,
4372445815,000004E4,false,Rx,0,8,00,00,85,00,00,00,00,00,
77567656,000004DE,false,Tx,0,8,00,FF,FF,FF,FF,FF,FF,FF,
77589990,00000523,false,Tx,0,8,00,00,00,00,00,00,00,00,
4372545805,000004E4,false,Rx,0,8,00,00,85,00,00,00,00,00,
77671816,000004DE,false,Tx,0,8,00,FF,FF,FF,FF,FF,FF,FF,
77699023,00000523,false,Tx,0,8,00,00,00,00,00,00,00,00,
4372645805,000004E4,false,Rx,0,8,00,00,85,00,00,00,00,00,
77786326,000004DE,false,Tx,0,8,00,FF,FF,FF,FF,FF,FF,FF,
4372745805,000004E4,false,Rx,0,8,00,00,85,00,00,00,00,00,
77808858,00000523,false,Tx,0,8,00,00,00,00,00,00,00,00,
77889553,000004DE,false,Tx,0,8,00,FF,FF,FF,FF,FF,FF,FF,
4372845805,000004E4,false,Rx,0,8,00,00,85,00,00,00,00,00,
77922022,00000523,false,Tx,0,8,00,00,00,00,00,00,00,00,
77988617,000004DE,false,Tx,0,8,00,FF,FF,FF,FF,FF,FF,FF,
4372945804,000004E4,false,Rx,0,8,00,00,85,00,00,00,00,00,
78027381,00000523,false,Tx,0,8,00,00,00,00,00,00,00,00,
78092509,000004DE,false,Tx,0,8,00,FF,FF,FF,FF,FF,FF,FF,
4373045826,000004E4,false,Rx,0,8,00,00,85,00,00,00,00,00,
78136580,00000523,false,Tx,0,8,00,00,00,00,00,00,00,00,
4373145827,000004E4,false,Rx,0,8,00,00,85,00,00,00,00,00,
78210131,000004DE,false,Tx,0,8,00,FF,FF,FF,FF,FF,FF,FF,
78246194,00000523,false,Tx,0,8,00,00,00,00,00,00,00,00,
4373245816,000004E4,false,Rx,0,8,00,00,85,00,00,00,00,00,
78320720,000004DE,false,Tx,0,8,00,FF,FF,FF,FF,FF,FF,FF,
78354781,00000523,false,Tx,0,8,00,00,00,00,00,00,00,00,
4373345816,000004E4,false,Rx,0,8,00,00,85,00,00,00,00,00,
78427223,000004DE,false,Tx,0,8,00,FF,FF,FF,FF,FF,FF,FF,
78464224,00000523,false,Tx,0,8,00,00,00,00,00,00,00,00,
4373445817,000004E4,false,Rx,0,8,00,00,85,00,00,00,00,00,
78574517,00000523,false,Tx,0,8,00,00,00,00,00,00,00,00,
78586563,000004DE,false,Tx,0,8,00,FF,FF,FF,FF,FF,FF,FF,
4373545816,000004E4,false,Rx,0,8,00,00,85,00,00,00,00,00,
78648238,000004DE,false,Tx,0,8,00,FF,FF,FF,FF,FF,FF,FF,
78689719,00000523,false,Tx,0,8,00,00,00,00,00,00,00,00,
4373645819,000004E4,false,Rx,0,8,00,00,85,00,00,00,00,00,
78759448,000004DE,false,Tx,0,8,00,FF,FF,FF,FF,FF,FF,FF,
78793248,00000523,false,Tx,0,8,00,00,00,00,00,00,00,00,
4373745837,000004E4,false,Rx,0,8,00,00,85,00,00,00,00,00,
78876134,000004DE,false,Tx,0,8,00,FF,FF,FF,FF,FF,FF,FF,
78902473,00000523,false,Tx,0,8,00,00,00,00,00,00,00,00,
4373845838,000004E4,false,Rx,0,8,00,00,85,00,00,00,00,00,
78976282,000004DE,false,Tx,0,8,00,FF,FF,FF,FF,FF,FF,FF,
4373945831,000004E4,false,Rx,0,8,00,00,85,00,00,00,00,00,
79011585,00000523,false,Tx,0,8,00,00,00,00,00,00,00,00,
79087921,000004DE,false,Tx,0,8,00,FF,FF,FF,FF,FF,FF,FF,
4374045830,000004E4,false,Rx,0,8,00,00,85,00,00,00,00,00,
79121086,00000523,false,Tx,0,8,00,00,00,00,00,00,00,00,
79203454,000004DE,false,Tx,0,8,00,FF,FF,FF,FF,FF,FF,FF,
4374145831,000004E4,false,Rx,0,8,00,00,85,00,00,00,00,00,
79230342,00000523,false,Tx,0,8,00,00,00,00,00,00,00,00,
4374245830,000004E4,false,Rx,0,8,00,00,85,00,00,00,00,00,
79339173,00000523,false,Tx,0,8,00,00,00,00,00,00,00,00,
79339604,000004DE,false,Tx,0,8,00,FF,FF,FF,FF,FF,FF,FF,
4374345851,000004E4,false,Rx,0,8,00,00,85,00,00,00,00,00,
79428352,000004DE,false,Tx,0,8,00,FF,FF,FF,FF,FF,FF,FF,
79448761,00000523,false,Tx,0,8,00,00,00,00,00,00,00,00,
4374445852,000004E4,false,Rx,0,8,00,00,85,00,00,00,00,00,
79557916,000004DE,false,Tx,0,8,00,FF,FF,FF,FF,FF,FF,FF,
79559006,00000523,false,Tx,0,8,00,00,00,00,00,00,00,00,
4374545845,000004E4,false,Rx,0,8,00,00,85,00,00,00,00,00,
79659330,000004DE,false,Tx,0,8,00,FF,FF,FF,FF,FF,FF,FF,
79671814,00000523,false,Tx,0,8,00,00,00,00,00,00,00,00,
4374645841,000004E4,false,Rx,0,8,00,00,85,00,00,00,00,00,
79761200,000004DE,false,Tx,0,8,00,FF,FF,FF,FF,FF,FF,FF,
4374745841,000004E4,false,Rx,0,8,00,00,85,00,00,00,00,00,
79822540,00000523,false,Tx,0,8,00,00,00,00,00,00,00,00,
79877855,000004DE,false,Tx,0,8,00,FF,FF,FF,FF,FF,FF,FF,
79886831,00000523,false,Tx,0,8,00,00,00,00,00,00,00,00,
4374845841,000004E4,false,Rx,0,8,00,00,85,00,00,00,00,00,
79977143,000004DE,false,Tx,0,8,00,FF,FF,FF,FF,FF,FF,FF,
79996116,00000523,false,Tx,0,8,00,00,00,00,00,00,00,00,
4374945841,000004E4,false,Rx,0,8,00,00,85,00,00,00,00,00,
80091892,000004DE,false,Tx,0,8,00,FF,FF,FF,FF,FF,FF,FF,
80105422,00000523,false,Tx,0,8,00,00,00,00,00,00,00,00,
4375045861,000004E4,false,Rx,0,8,00,00,85,00,00,00,00,00,
80205674,000004DE,false,Tx,0,8,00,FF,FF,FF,FF,FF,FF,FF,
4375145856,000004E4,false,Rx,0,8,00,00,85,00,00,00,00,00,
80214592,00000523,false,Tx,0,8,00,00,00,00,00,00,00,00,
4375245846,000004E4,false,Rx,0,8,00,00,85,00,00,00,00,00,
80324583,00000523,false,Tx,0,8,00,00,00,00,00,00,00,00,
80329677,000004DE,false,Tx,0,8,00,FF,FF,FF,FF,FF,FF,FF,
4375345848,000004E4,false,Rx,0,8,00,00,85,00,00,00,00,00,
80431436,000004DE,false,Tx,0,8,00,FF,FF,FF,FF,FF,FF,FF,
80440038,00000523,false,Tx,0,8,00,00,00,00,00,00,00,00,
4375445847,000004E4,false,Rx,0,8,00,00,85,00,00,00,00,00,
80542774,00000523,false,Tx,0,8,00,00,00,00,00,00,00,00,
80558154,000004DE,false,Tx,0,8,00,FF,FF,FF,FF,FF,FF,FF,
4375545847,000004E4,false,Rx,0,8,00,00,85,00,00,00,00,00,
80647798,000004DE,false,Tx,0,8,00,FF,FF,FF,FF,FF,FF,FF,
4375645878,000004E4,false,Rx,0,8,00,00,85,00,00,00,00,00,
80764637,00000523,false,Tx,0,8,00,00,00,00,00,00,00,00,
80765934,000004DE,false,Tx,0,8,00,FF,FF,FF,FF,FF,FF,FF,
4375745877,000004E4,false,Rx,0,8,00,00,85,00,00,00,00,00,
80810590,00000523,false,Tx,0,8,00,00,00,00,00,00,00,00,
80859621,000004DE,false,Tx,0,8,00,FF,FF,FF,FF,FF,FF,FF,
80870806,00000523,false,Tx,0,8,00,00,00,00,00,00,00,00,
4375845868,000004E4,false,Rx,0,8,00,00,85,00,00,00,00,00,
80979719,000004DE,false,Tx,0,8,00,FF,FF,FF,FF,FF,FF,FF,
80981935,00000523,false,Tx,0,8,00,00,00,00,00,00,00,00,
4375945857,000004E4,false,Rx,0,8,00,00,85,00,00,00,00,00,
81089157,00000523,false,Tx,0,8,00,00,00,00,00,00,00,00,
81097601,000004DE,false,Tx,0,8,00,FF,FF,FF,FF,FF,FF,FF,
4376045858,000004E4,false,Rx,0,8,00,00,85,00,00,00,00,00,
81195633,000004DE,false,Tx,0,8,00,FF,FF,FF,FF,FF,FF,FF,
81203992,00000523,false,Tx,0,8,00,00,00,00,00,00,00,00,
4376145860,000004E4,false,Rx,0,8,00,00,85,00,00,00,00,00,
4376245860,000004E4,false,Rx,0,8,00,00,85,00,00,00,00,00,
81309971,00000523,false,Tx,0,8,00,00,00,00,00,00,00,00,
81332534,000004DE,false,Tx,0,8,00,FF,FF,FF,FF,FF,FF,FF,
4376345882,000004E4,false,Rx,0,8,00,00,85,00,00,00,00,00,
81414595,000004DE,false,Tx,0,8,00,FF,FF,FF,FF,FF,FF,FF,
81422681,00000523,false,Tx,0,8,00,00,00,00,00,00,00,00,
4376445881,000004E4,false,Rx,0,8,00,00,85,00,00,00,00,00,
81526893,00000523,false,Tx,0,8,00,00,00,00,00,00,00,00,
81534494,000004DE,false,Tx,0,8,00,FF,FF,FF,FF,FF,FF,FF,
4376545871,000004E4,false,Rx,0,8,00,00,85,00,00,00,00,00,
81629694,000004DE,false,Tx,0,8,00,FF,FF,FF,FF,FF,FF,FF,
81636971,00000523,false,Tx,0,8,00,00,00,00,00,00,00,00,
4376645872,000004E4,false,Rx,0,8,00,00,85,00,00,00,00,00,
81745564,00000523,false,Tx,0,8,00,00,00,00,00,00,00,00,
81750703,000004DE,false,Tx,0,8,00,FF,FF,FF,FF,FF,FF,FF,
4376745871,000004E4,false,Rx,0,8,00,00,85,00,00,00,00,00,
81845717,000004DE,false,Tx,0,8,00,FF,FF,FF,FF,FF,FF,FF,
81855616,00000523,false,Tx,0,8,00,00,00,00,00,00,00,00,
4376845873,000004E4,false,Rx,0,8,00,00,85,00,00,00,00,00,
81961461,000004DE,false,Tx,0,8,00,FF,FF,FF,FF,FF,FF,FF,
81965635,00000523,false,Tx,0,8,00,00,00,00,00,00,00,00,
4376945893,000004E4,false,Rx,0,8,00,00,85,00,00,00,00,00,
82074612,00000523,false,Tx,0,8,00,00,00,00,00,00,00,00,
82093975,000004DE,false,Tx,0,8,00,FF,FF,FF,FF,FF,FF,FF,
4377045893,000004E4,false,Rx,0,8,00,00,85,00,00,00,00,00,
82183493,000004DE,false,Tx,0,8,00,FF,FF,FF,FF,FF,FF,FF,
82189882,00000523,false,Tx,0,8,00,00,00,00,00,00,00,00,
4377145886,000004E4,false,Rx,0,8,00,00,85,00,00,00,00,00,
82293053,00000523,false,Tx,0,8,00,00,00,00,00,00,00,00,
4377245878,000004E4,false,Rx,0,8,00,00,85,00,00,00,00,00,
82313144,000004DE,false,Tx,0,8,00,FF,FF,FF,FF,FF,FF,FF,
82399290,000004DE,false,Tx,0,8,00,FF,FF,FF,FF,FF,FF,FF,
82401972,00000523,false,Tx,0,8,00,00,00,00,00,00,00,00,
4377345888,000004E4,false,Rx,0,8,00,00,85,00,00,00,00,00,
4377445888,000004E4,false,Rx,0,8,00,00,85,00,00,00,00,00,
82509582,000004DE,false,Tx,0,8,00,FF,FF,FF,FF,FF,FF,FF,
82511498,00000523,false,Tx,0,8,00,00,00,00,00,00,00,00,
4377545888,000004E4,false,Rx,0,8,00,00,85,00,00,00,00,00,
82614281,000004DE,false,Tx,0,8,00,FF,FF,FF,FF,FF,FF,FF,
82621333,00000523,false,Tx,0,8,00,00,00,00,00,00,00,00,
4377645913,000004E4,false,Rx,0,8,00,00,85,00,00,00,00,00,
82729426,00000523,false,Tx,0,8,00,00,00,00,00,00,00,00,
82739942,000004DE,false,Tx,0,8,00,FF,FF,FF,FF,FF,FF,FF,
4377745903,000004E4,false,Rx,0,8,00,00,85,00,00,00,00,00,
82834737,000004DE,false,Tx,0,8,00,FF,FF,FF,FF,FF,FF,FF,
82840836,00000523,false,Tx,0,8,00,00,00,00,00,00,00,00,
4377845893,000004E4,false,Rx,0,8,00,00,85,00,00,00,00,00,
82949140,00000523,false,Tx,0,8,00,00,00,00,00,00,00,00,
82956109,000004DE,false,Tx,0,8,00,FF,FF,FF,FF,FF,FF,FF,
4377945893,000004E4,false,Rx,0,8,00,00,85,00,00,00,00,00,
83066809,00000523,false,Tx,0,8,00,00,00,00,00,00,00,00,
83096564,000004DE,false,Tx,0,8,00,FF,FF,FF,FF,FF,FF,FF,
4378045893,000004E4,false,Rx,0,8,00,00,85,00,00,00,00,00,
83185467,000004DE,false,Tx,0,8,00,FF,FF,FF,FF,FF,FF,FF,
83197810,00000523,false,Tx,0,8,00,00,00,00,00,00,00,00,
4378145897,000004E4,false,Rx,0,8,00,00,85,00,00,00,00,00,
83300988,000004DE,false,Tx,0,8,00,FF,FF,FF,FF,FF,FF,FF,
4378245919,000004E4,false,Rx,0,8,00,00,85,00,00,00,00,00,
4378345921,000004E4,false,Rx,0,8,00,00,85,00,00,00,00,00,
83421484,000004DE,false,Tx,0,8,00,FF,FF,FF,FF,FF,FF,FF,
83438903,00000523,false,Tx,0,8,00,00,00,00,00,00,00,00,
83500123,00000523,false,Tx,0,8,00,00,00,00,00,00,00,00,
4378445910,000004E4,false,Rx,0,8,00,00,85,00,00,00,00,00,
83555178,000004DE,false,Tx,0,8,00,FF,FF,FF,FF,FF,FF,FF,
4378545910,000004E4,false,Rx,0,8,00,00,85,00,00,00,00,00,
83607475,00000523,false,Tx,0,8,00,00,00,00,00,00,00,00,
83642030,000004DE,false,Tx,0,8,00,FF,FF,FF,FF,FF,FF,FF,
4378645902,000004E4,false,Rx,0,8,00,00,85,00,00,00,00,00,
83716315,00000523,false,Tx,0,8,00,00,00,00,00,00,00,00,
83757889,000004DE,false,Tx,0,8,00,FF,FF,FF,FF,FF,FF,FF,
4378745903,000004E4,false,Rx,0,8,00,00,85,00,00,00,00,00,
83823260,00000523,false,Tx,0,8,00,00,00,00,00,00,00,00,
83863074,000004DE,false,Tx,0,8,00,FF,FF,FF,FF,FF,FF,FF,
4378845913,000004E4,false,Rx,0,8,00,00,85,00,00,00,00,00,
83967396,00000523,false,Tx,0,8,00,00,00,00,00,00,00,00,
83975636,000004DE,false,Tx,0,8,00,FF,FF,FF,FF,FF,FF,FF,
4378945934,000004E4,false,Rx,0,8,00,00,85,00,00,00,00,00,
84048237,00000523,false,Tx,0,8,00,00,00,00,00,00,00,00,
84084194,000004DE,false,Tx,0,8,00,FF,FF,FF,FF,FF,FF,FF,
4379045923,000004E4,false,Rx,0,8,00,00,85,00,00,00,00,00,
84156089,00000523,false,Tx,0,8,00,00,00,00,00,00,00,00,
84207052,000004DE,false,Tx,0,8,00,FF,FF,FF,FF,FF,FF,FF,
4379145924,000004E4,false,Rx,0,8,00,00,85,00,00,00,00,00,
84261714,00000523,false,Tx,0,8,00,00,00,00,00,00,00,00,
4379245914,000004E4,false,Rx,0,8,00,00,85,00,00,00,00,00,
84355932,000004DE,false,Tx,0,8,00,FF,FF,FF,FF,FF,FF,FF,
84371402,00000523,false,Tx,0,8,00,00,00,00,00,00,00,00,
4379345913,000004E4,false,Rx,0,8,00,00,85,00,00,00,00,00,
84410535,000004DE,false,Tx,0,8,00,FF,FF,FF,FF,FF,FF,FF,
84479200,00000523,false,Tx,0,8,00,00,00,00,00,00,00,00,
4379445924,000004E4,false,Rx,0,8,00,00,85,00,00,00,00,00,
84523516,000004DE,false,Tx,0,8,00,FF,FF,FF,FF,FF,FF,FF,
84589248,00000523,false,Tx,0,8,00,00,00,00,00,00,00,00,
4379545944,000004E4,false,Rx,0,8,00,00,85,00,00,00,00,00,
84628551,000004DE,false,Tx,0,8,00,FF,FF,FF,FF,FF,FF,FF,
84698542,00000523,false,Tx,0,8,00,00,00,00,00,00,00,00,
4379645949,000004E4,false,Rx,0,8,00,00,85,00,00,00,00,00,
84745044,000004DE,false,Tx,0,8,00,FF,FF,FF,FF,FF,FF,FF,
4379745940,000004E4,false,Rx,0,8,00,00,85,00,00,00,00,00,
84808085,00000523,false,Tx,0,8,00,00,00,00,00,00,00,00,
84854232,000004DE,false,Tx,0,8,00,FF,FF,FF,FF,FF,FF,FF,
4379845929,000004E4,false,Rx,0,8,00,00,85,00,00,00,00,00,
84922239,00000523,false,Tx,0,8,00,00,00,00,00,00,00,00,
84971275,000004DE,false,Tx,0,8,00,FF,FF,FF,FF,FF,FF,FF,
4379945929,000004E4,false,Rx,0,8,00,00,85,00,00,00,00,00,
85027606,00000523,false,Tx,0,8,00,00,00,00,00,00,00,00,
85092053,000004DE,false,Tx,0,8,00,FF,FF,FF,FF,FF,FF,FF,
4380045929,000004E4,false,Rx,0,8,00,00,85,00,00,00,00,00,
85137037,00000523,false,Tx,0,8,00,00,00,00,00,00,00,00,
85177671,000004DE,false,Tx,0,8,00,FF,FF,FF,FF,FF,FF,FF,
4380145934,000004E4,false,Rx,0,8,00,00,85,00,00,00,00,00,
4380245955,000004E4,false,Rx,0,8,00,00,85,00,00,00,00,00,
85308656,000004DE,false,Tx,0,8,00,FF,FF,FF,FF,FF,FF,FF,
85320067,00000523,false,Tx,0,8,00,00,00,00,00,00,00,00,
85380635,00000523,false,Tx,0,8,00,00,00,00,00,00,00,00,
85395835,000004DE,false,Tx,0,8,00,FF,FF,FF,FF,FF,FF,FF,
4380345949,000004E4,false,Rx,0,8,00,00,85,00,00,00,00,00,
85464974,00000523,false,Tx,0,8,00,00,00,00,00,00,00,00,
4380445939,000004E4,false,Rx,0,8,00,00,85,00,00,00,00,00,
85507850,000004DE,false,Tx,0,8,00,FF,FF,FF,FF,FF,FF,FF,
85575458,00000523,false,Tx,0,8,00,00,00,00,00,00,00,00,
4380545939,000004E4,false,Rx,0,8,00,00,85,00,00,00,00,00,
85611777,000004DE,false,Tx,0,8,00,FF,FF,FF,FF,FF,FF,FF,
85701720,00000523,false,Tx,0,8,00,00,00,00,00,00,00,00,
4380645943,000004E4,false,Rx,0,8,00,00,85,00,00,00,00,00,
85723757,000004DE,false,Tx,0,8,00,FF,FF,FF,FF,FF,FF,FF,
85792929,00000523,false,Tx,0,8,00,00,00,00,00,00,00,00,
4380745945,000004E4,false,Rx,0,8,00,00,85,00,00,00,00,00,
85844339,000004DE,false,Tx,0,8,00,FF,FF,FF,FF,FF,FF,FF,
85905623,00000523,false,Tx,0,8,00,00,00,00,00,00,00,00,
4380845944,000004E4,false,Rx,0,8,00,00,85,00,00,00,00,00,
85946052,000004DE,false,Tx,0,8,00,FF,FF,FF,FF,FF,FF,FF,
4380945965,000004E4,false,Rx,0,8,00,00,85,00,00,00,00,00,
86012220,00000523,false,Tx,0,8,00,00,00,00,00,00,00,00,
86103917,000004DE,false,Tx,0,8,00,FF,FF,FF,FF,FF,FF,FF,
4381045955,000004E4,false,Rx,0,8,00,00,85,00,00,00,00,00,
86120811,00000523,false,Tx,0,8,00,00,00,00,00,00,00,00,
86172679,000004DE,false,Tx,0,8,00,FF,FF,FF,FF,FF,FF,FF,
4381145950,000004E4,false,Rx,0,8,00,00,85,00,00,00,00,00,
86230502,00000523,false,Tx,0,8,00,00,00,00,00,00,00,00,
86282219,000004DE,false,Tx,0,8,00,FF,FF,FF,FF,FF,FF,FF,
4381245953,000004E4,false,Rx,0,8,00,00,85,00,00,00,00,00,
86340312,00000523,false,Tx,0,8,00,00,00,00,00,00,00,00,
86386214,000004DE,false,Tx,0,8,00,FF,FF,FF,FF,FF,FF,FF,
4381345953,000004E4,false,Rx,0,8,00,00,85,00,00,00,00,00,
86449776,00000523,false,Tx,0,8,00,00,00,00,00,00,00,00,
86495413,000004DE,false,Tx,0,8,00,FF,FF,FF,FF,FF,FF,FF,
86495583,000004DE,false,Tx,0,8,00,FF,FF,FF,FF,FF,FF,FF,
4381445955,000004E4,false,Rx,0,8,00,00,85,00,00,00,00,00,
86558339,00000523,false,Tx,0,8,00,00,00,00,00,00,00,00,
86605704,000004DE,false,Tx,0,8,00,FF,FF,FF,FF,FF,FF,FF,
4381545976,000004E4,false,Rx,0,8,00,00,85,00,00,00,00,00,
86672391,00000523,false,Tx,0,8,00,00,00,00,00,00,00,00,
4381645970,000004E4,false,Rx,0,8,00,00,85,00,00,00,00,00,
86715825,000004DE,false,Tx,0,8,00,FF,FF,FF,FF,FF,FF,FF,
86777109,00000523,false,Tx,0,8,00,00,00,00,00,00,00,00,
4381745970,000004E4,false,Rx,0,8,00,00,85,00,00,00,00,00,
86832414,000004DE,false,Tx,0,8,00,FF,FF,FF,FF,FF,FF,FF,
86886436,00000523,false,Tx,0,8,00,00,00,00,00,00,00,00,
4381845959,000004E4,false,Rx,0,8,00,00,85,00,00,00,00,00,
86944329,000004DE,false,Tx,0,8,00,FF,FF,FF,FF,FF,FF,FF,
86996543,00000523,false,Tx,0,8,00,00,00,00,00,00,00,00,
4381945960,000004E4,false,Rx,0,8,00,00,85,00,00,00,00,00,
87039214,000004DE,false,Tx,0,8,00,FF,FF,FF,FF,FF,FF,FF,
87104830,00000523,false,Tx,0,8,00,00,00,00,00,00,00,00,
4382045961,000004E4,false,Rx,0,8,00,00,85,00,00,00,00,00,
87154233,000004DE,false,Tx,0,8,00,FF,FF,FF,FF,FF,FF,FF,
4382145971,000004E4,false,Rx,0,8,00,00,85,00,00,00,00,00,
87214080,00000523,false,Tx,0,8,00,00,00,00,00,00,00,00,
87263346,000004DE,false,Tx,0,8,00,FF,FF,FF,FF,FF,FF,FF,
4382245991,000004E4,false,Rx,0,8,00,00,85,00,00,00,00,00,
87323914,00000523,false,Tx,0,8,00,00,00,00,00,00,00,00,
87383043,000004DE,false,Tx,0,8,00,FF,FF,FF,FF,FF,FF,FF,
4382345981,000004E4,false,Rx,0,8,00,00,85,00,00,00,00,00,
87438369,00000523,false,Tx,0,8,00,00,00,00,00,00,00,00,
87486288,000004DE,false,Tx,0,8,00,FF,FF,FF,FF,FF,FF,FF,
4382445981,000004E4,false,Rx,0,8,00,00,85,00,00,00,00,00,
87543387,00000523,false,Tx,0,8,00,00,00,00,00,00,00,00,
87595896,000004DE,false,Tx,0,8,00,FF,FF,FF,FF,FF,FF,FF,
4382545972,000004E4,false,Rx,0,8,00,00,85,00,00,00,00,00,
87651987,00000523,false,Tx,0,8,00,00,00,00,00,00,00,00,
87700193,000004DE,false,Tx,0,8,00,FF,FF,FF,FF,FF,FF,FF,
4382645971,000004E4,false,Rx,0,8,00,00,85,00,00,00,00,00,
87761871,00000523,false,Tx,0,8,00,00,00,00,00,00,00,10,
4382745982,000004E4,false,Rx,0,8,00,00,85,00,00,00,00,00,
87808772,000004DE,false,Tx,0,8,00,FF,FF,FF,FF,FF,FF,FF,
87872198,00000523,false,Tx,0,8,00,00,00,00,00,00,00,00,
4382846002,000004E4,false,Rx,0,8,00,00,85,00,01,00,00,00,
87917994,000004DE,false,Tx,0,8,00,FF,FF,FF,FF,FF,FF,FF,
87981445,00000523,false,Tx,0,8,00,00,00,00,00,00,00,10,
4382946242,000004E4,false,Rx,0,8,00,00,85,00,01,00,00,00,
88034846,000004DE,false,Tx,0,8,00,FF,FF,FF,FF,FF,FF,FF,
88090183,00000523,false,Tx,0,8,00,00,00,00,00,00,00,10,
4383046230,000004E4,false,Rx,0,8,00,07,85,00,0A,01,00,00,
88149607,000004DE,false,Tx,0,8,00,FF,FF,FF,FF,FF,FF,FF,
88200177,00000523,false,Tx,0,8,00,00,00,00,00,00,00,00,
4383146230,000004E4,false,Rx,0,8,00,1F,85,00,13,04,00,00,
88279913,000004DE,false,Tx,0,8,00,FF,FF,FF,FF,FF,FF,FF,
4383245984,000004E4,false,Rx,0,8,00,02,85,00,01,00,00,00,
88309290,00000523,false,Tx,0,8,00,00,00,00,00,00,00,00,
88361367,000004DE,false,Tx,0,8,00,FF,FF,FF,FF,FF,FF,FF,
4383345983,000004E4,false,Rx,0,8,00,00,85,00,00,00,00,00,
88421719,00000523,false,Tx,0,8,00,00,00,00,00,00,00,00,
88467910,000004DE,false,Tx,0,8,00,FF,FF,FF,FF,FF,FF,FF,
4383445995,000004E4,false,Rx,0,8,00,00,85,00,00,00,00,00,
88527276,00000523,false,Tx,0,8,00,00,00,00,00,00,00,00,
88579748,000004DE,false,Tx,0,8,00,FF,FF,FF,FF,FF,FF,FF,
4383546017,000004E4,false,Rx,0,8,00,00,85,00,00,00,00,00,
88636789,00000523,false,Tx,0,8,00,00,00,00,00,00,00,10,
88692868,000004DE,false,Tx,0,8,00,FF,FF,FF,FF,FF,FF,FF,
4383646259,000004E4,false,Rx,0,8,00,00,85,00,04,00,00,00,
88745886,00000523,false,Tx,0,8,00,00,00,00,00,00,00,10,
88799695,000004DE,false,Tx,0,8,00,FF,FF,FF,FF,FF,FF,FF,
4383746240,000004E4,false,Rx,0,8,00,0F,85,00,0D,02,00,00,
88854941,00000523,false,Tx,0,8,00,00,00,00,00,00,00,10,
4383846281,000004E4,false,Rx,0,8,00,26,85,00,17,05,00,00,
88908568,000004DE,false,Tx,0,8,00,FF,FF,FF,FF,FF,FF,FF,
88964860,00000523,false,Tx,0,8,00,00,00,00,00,00,00,10,
4383946219,000004E4,false,Rx,0,8,00,55,85,00,25,09,00,00,
89038993,000004DE,false,Tx,0,8,00,FF,FF,FF,FF,FF,FF,FF,
89073629,00000523,false,Tx,0,8,00,00,00,00,00,00,00,10,
4384046219,000004E4,false,Rx,0,8,00,86,85,00,2C,07,00,00,
89147324,000004DE,false,Tx,0,8,00,FF,FF,FF,FF,FF,FF,FF,
89188729,00000523,false,Tx,0,8,00,00,00,00,00,00,00,10,
4384146264,000004E4,false,Rx,0,8,00,87,85,00,2D,05,00,00,
89292786,00000523,false,Tx,0,8,00,00,00,00,00,00,00,10,
89303243,000004DE,false,Tx,0,8,00,FF,FF,FF,FF,FF,FF,FF,
4384246420,000004E4,false,Rx,0,8,00,98,85,00,33,05,00,00,
89363639,000004DE,false,Tx,0,8,00,FF,FF,FF,FF,FF,FF,FF,
89402092,00000523,false,Tx,0,8,00,00,00,00,00,00,00,10,
4384346420,000004E4,false,Rx,0,8,00,C6,85,00,41,06,00,00,
89473024,000004DE,false,Tx,0,8,00,FF,FF,FF,FF,FF,FF,FF,
4384446410,000004E4,false,Rx,0,8,00,C7,85,00,42,05,00,00,
89520684,00000523,false,Tx,0,8,00,00,00,00,00,00,00,10,
89579617,000004DE,false,Tx,0,8,00,FF,FF,FF,FF,FF,FF,FF,
4384546399,000004E4,false,Rx,0,8,00,C9,85,00,43,05,00,00,
89629890,00000523,false,Tx,0,8,00,00,00,00,00,00,00,10,
89688384,000004DE,false,Tx,0,8,00,FF,FF,FF,FF,FF,FF,FF,
4384646400,000004E4,false,Rx,0,8,00,C8,85,00,44,04,00,00,
89737205,00000523,false,Tx,0,8,00,00,00,00,00,00,00,10,
4384746390,000004E4,false,Rx,0,8,00,C7,85,00,42,04,00,00,
89810212,000004DE,false,Tx,0,8,00,FF,FF,FF,FF,FF,FF,FF,
89839748,00000523,false,Tx,0,8,00,00,00,00,00,00,00,10,
4384846441,000004E4,false,Rx,0,8,00,C3,85,00,3F,03,00,00,
89911723,000004DE,false,Tx,0,8,00,FF,FF,FF,FF,FF,FF,FF,
89979409,00000523,false,Tx,0,8,00,00,00,00,00,00,00,10,
4384946431,000004E4,false,Rx,0,8,00,CA,85,00,43,04,00,00,
90055887,000004DE,false,Tx,0,8,00,FF,FF,FF,FF,FF,FF,FF,
90066580,00000523,false,Tx,0,8,00,00,00,00,00,00,00,10,
