Time Stamp,ID,Extended,Dir,Bus,LEN,D1,D2,D3,D4,D5,D6,D7,D8
88114120,000004E4,false,Rx,0,8,00,00,85,00,00,00,00,00,
88214866,000004E4,false,Rx,0,8,00,00,85,00,00,00,00,00,
88314865,000004E4,false,Rx,0,8,00,00,85,00,00,00,00,00,
88414858,000004E4,false,Rx,0,8,00,00,85,00,00,00,00,00,
88514848,000004E4,false,Rx,0,8,00,00,85,00,00,00,00,00,
88614848,000004E4,false,Rx,0,8,00,00,85,00,00,00,00,00,
88714851,000004E4,false,Rx,0,8,00,00,85,00,00,00,00,00,
88814862,000004E4,false,Rx,0,8,00,00,85,00,00,00,00,00,
88914875,000004E4,false,Rx,0,8,00,00,85,00,00,00,00,00,
89014865,000004E4,false,Rx,0,8,00,00,85,00,00,00,00,00,
89114865,000004E4,false,Rx,0,8,00,00,85,00,00,00,00,00,
89214865,000004E4,false,Rx,0,8,00,00,85,00,00,00,00,00,
89314866,000004E4,false,Rx,0,8,00,00,85,00,00,00,00,00,
89414869,000004E4,false,Rx,0,8,00,00,85,00,00,00,00,00,
89514891,000004E4,false,Rx,0,8,00,00,85,00,00,00,00,00,
89614884,000004E4,false,Rx,0,8,00,00,85,00,00,00,00,00,
89714875,000004E4,false,Rx,0,8,00,00,85,00,00,00,00,00,
89814876,000004E4,false,Rx,0,8,00,00,85,00,00,00,00,00,
89914869,000004E4,false,Rx,0,8,00,00,85,00,00,00,00,00,
90014880,000004E4,false,Rx,0,8,00,00,85,00,00,00,00,00,
90114880,000004E4,false,Rx,0,8,00,00,85,00,00,00,00,00,
90215195,000004E4,false,Rx,0,8,00,00,85,00,00,00,00,00,
90315133,000004E4,false,Rx,0,8,00,02,85,00,0A,01,00,00,
90415127,000004E4,false,Rx,0,8,00,09,85,00,0D,03,00,00,
90515129,000004E4,false,Rx,0,8,00,0F,85,00,0F,04,00,00,
90615109,000004E4,false,Rx,0,8,00,16,85,00,12,06,00,00,
90715099,000004E4,false,Rx,0,8,00,1D,85,00,15,08,00,00,
90815098,000004E4,false,Rx,0,8,00,28,85,00,18,09,00,00,
90915140,000004E4,false,Rx,0,8,00,48,85,00,19,07,00,00,
91015140,000004E4,false,Rx,0,8,00,46,85,00,18,05,00,00,
91115296,000004E4,false,Rx,0,8,00,46,85,00,18,04,00,00,
91215296,000004E4,false,Rx,0,8,00,4D,85,00,1A,03,00,00,
91315287,000004E4,false,Rx,0,8,00,58,85,00,1D,02,00,00,
91415277,000004E4,false,Rx,0,8,00,61,85,00,21,02,00,00,
91515331,000004E4,false,Rx,0,8,00,69,85,00,24,01,00,00,
91615321,000004E4,false,Rx,0,8,00,71,85,00,26,01,00,00,
91715321,000004E4,false,Rx,0,8,00,77,85,00,29,01,00,00,
91815310,000004E4,false,Rx,0,8,00,7C,85,00,2B,01,00,00,
91915305,000004E4,false,Rx,0,8,00,81,85,00,2D,01,00,00,
92015285,000004E4,false,Rx,0,8,00,86,85,00,2E,01,00,00,
92115340,000004E4,false,Rx,0,8,00,88,85,00,2F,01,00,00,
92215341,000004E4,false,Rx,0,8,00,8B,85,00,30,01,00,00,
92315330,000004E4,false,Rx,0,8,00,8D,85,00,31,01,00,00,
92415321,000004E4,false,Rx,0,8,00,8E,85,00,32,01,00,00,
92515321,000004E4,false,Rx,0,8,00,8F,85,00,32,01,00,00,
92615310,000004E4,false,Rx,0,8,00,90,85,00,32,01,00,00,
92715311,000004E4,false,Rx,0,8,00,8F,85,00,32,01,00,00,
92815351,000004E4,false,Rx,0,8,00,8F,85,00,32,01,00,00,
92915343,000004E4,false,Rx,0,8,00,8E,85,00,32,01,00,00,
93015342,000004E4,false,Rx,0,8,00,8D,85,00,31,01,00,00,
93115331,000004E4,false,Rx,0,8,00,8B,85,00,31,01,00,00,
93215322,000004E4,false,Rx,0,8,00,8A,85,00,30,00,00,00,
93315320,000004E4,false,Rx,0,8,00,89,85,00,30,00,00,00,
93415362,000004E4,false,Rx,0,8,00,88,85,00,30,00,00,00,
93515352,000004E4,false,Rx,0,8,00,86,85,00,2F,00,00,00,
93615352,000004E4,false,Rx,0,8,00,84,85,00,2E,00,00,00,
93715351,000004E4,false,Rx,0,8,00,82,85,00,2E,00,00,00,
93815342,000004E4,false,Rx,0,8,00,80,85,00,2D,00,00,00,
93915345,000004E4,false,Rx,0,8,00,7E,85,00,2C,00,00,00,
94015325,000004E4,false,Rx,0,8,00,7C,85,00,2B,00,00,00,
94115371,000004E4,false,Rx,0,8,00,7B,85,00,2B,00,00,00,
94215371,000004E4,false,Rx,0,8,00,7A,85,00,2B,00,00,00,
94315363,000004E4,false,Rx,0,8,00,78,85,00,2A,00,00,00,
94415356,000004E4,false,Rx,0,8,00,76,85,00,29,00,00,00,
94515347,000004E4,false,Rx,0,8,00,75,85,00,29,00,00,00,
94615340,000004E4,false,Rx,0,8,00,73,85,00,28,00,00,00,
94715341,000004E4,false,Rx,0,8,00,73,85,00,28,00,00,00,
94815383,000004E4,false,Rx,0,8,00,72,85,00,28,00,00,00,
94915374,000004E4,false,Rx,0,8,00,71,85,00,27,00,00,00,
95015362,000004E4,false,Rx,0,8,00,70,85,00,27,00,00,00,
95115362,000004E4,false,Rx,0,8,00,6F,85,00,27,00,00,00,
95206302,000004DE,false,Tx,0,8,00,00,00,00,00,00,00,00,
95215351,000004E4,false,Rx,0,8,00,6E,85,00,26,00,00,00,
95315352,000004E4,false,Rx,0,8,00,68,85,00,24,00,00,00,
95330692,000004DE,false,Tx,0,8,00,00,00,00,00,00,00,00,
95415395,000004E4,false,Rx,0,8,00,5B,85,00,20,00,00,00,
95427255,000004DE,false,Tx,0,8,00,00,00,00,00,00,00,00,
95515393,000004E4,false,Rx,0,8,00,4D,85,00,1B,00,00,00,
95535920,000004DE,false,Tx,0,8,00,00,00,00,00,00,00,00,
95615433,000004E4,false,Rx,0,8,00,3F,85,00,17,00,00,00,
95645047,000004DE,false,Tx,0,8,00,00,00,00,00,00,00,00,
95715383,000004E4,false,Rx,0,8,00,32,85,00,12,00,00,00,
95752337,000004DE,false,Tx,0,8,00,00,00,00,00,00,00,00,
95815372,000004E4,false,Rx,0,8,00,25,85,00,0E,00,00,00,
95866065,000004DE,false,Tx,0,8,00,00,00,00,00,00,00,00,
95914968,000004E4,false,Rx,0,8,00,07,85,00,03,00,00,00,
95972038,000004DE,false,Tx,0,8,00,00,00,00,00,00,00,00,
96014999,000004E4,false,Rx,0,8,00,00,85,00,00,00,00,00,
96081287,000004DE,false,Tx,0,8,00,00,00,00,00,00,00,00,
96114999,000004E4,false,Rx,0,8,00,00,85,00,00,00,00,00,
96188757,000004DE,false,Tx,0,8,00,00,00,00,00,00,00,00,
96214989,000004E4,false,Rx,0,8,00,00,85,00,00,00,00,00,
96298382,000004DE,false,Tx,0,8,00,00,00,00,00,00,00,00,
96314979,000004E4,false,Rx,0,8,00,00,85,00,00,00,00,00,
96407972,000004DE,false,Tx,0,8,00,00,00,00,00,00,00,00,
96414986,000004E4,false,Rx,0,8,00,00,85,00,00,00,00,00,
96514988,000004E4,false,Rx,0,8,00,00,85,00,00,00,00,00,
96518722,000004DE,false,Tx,0,8,00,00,00,00,00,00,00,00,
96614979,000004E4,false,Rx,0,8,00,00,85,00,00,00,00,00,
96631723,000004DE,false,Tx,0,8,00,00,00,00,00,00,00,00,
96715010,000004E4,false,Rx,0,8,00,00,85,00,00,00,00,00,
96736292,000004DE,false,Tx,0,8,00,00,00,00,00,00,00,00,
96815009,000004E4,false,Rx,0,8,00,00,85,00,00,00,00,00,
96861141,000004DE,false,Tx,0,8,00,00,00,00,00,00,00,00,
96915001,000004E4,false,Rx,0,8,00,00,85,00,00,00,00,00,
96968166,000004DE,false,Tx,0,8,00,00,00,00,00,00,00,00,
97014990,000004E4,false,Rx,0,8,00,00,85,00,00,00,00,00,
97072476,000004DE,false,Tx,0,8,00,00,00,00,00,00,00,00,
97114990,000004E4,false,Rx,0,8,00,00,85,00,00,00,00,00,
97173313,000004DE,false,Tx,0,8,00,00,00,00,00,00,00,00,
97215000,000004E4,false,Rx,0,8,00,00,85,00,00,00,00,00,
97288298,000004DE,false,Tx,0,8,00,00,00,00,00,00,00,00,
97314999,000004E4,false,Rx,0,8,00,00,85,00,00,00,00,00,
97399607,000004DE,false,Tx,0,8,00,00,00,00,00,00,00,00,
97415021,000004E4,false,Rx,0,8,00,00,85,00,00,00,00,00,
97501196,000004DE,false,Tx,0,8,00,00,00,00,00,00,00,00,
97515010,000004E4,false,Rx,0,8,00,00,85,00,00,00,00,00,
97615010,000004E4,false,Rx,0,8,00,00,85,00,00,00,00,00,
97625791,000004DE,false,Tx,0,8,00,00,00,00,00,00,00,00,
97715001,000004E4,false,Rx,0,8,00,00,85,00,00,00,00,00,
97741835,000004DE,false,Tx,0,8,00,00,00,00,00,00,00,00,
97814999,000004E4,false,Rx,0,8,00,00,85,00,00,00,00,00,
97870073,000004DE,false,Tx,0,8,00,00,00,00,00,00,00,00,
97915011,000004E4,false,Rx,0,8,00,00,85,00,00,00,00,00,
97953961,000004DE,false,Tx,0,8,00,00,00,00,00,00,00,00,
98015030,000004E4,false,Rx,0,8,00,00,85,00,00,00,00,00,
98097824,000004DE,false,Tx,0,8,00,00,00,00,00,00,00,00,
98115029,000004E4,false,Rx,0,8,00,00,85,00,00,00,00,00,
98202301,000004DE,false,Tx,0,8,00,00,00,00,00,00,00,00,
98215020,000004E4,false,Rx,0,8,00,00,85,00,00,00,00,00,
98307576,000004DE,false,Tx,0,8,00,00,00,00,00,00,00,00,
98315009,000004E4,false,Rx,0,8,00,00,85,00,00,00,00,00,
98415021,000004E4,false,Rx,0,8,00,00,85,00,00,00,00,00,
98418091,000004DE,false,Tx,0,8,00,00,00,00,00,00,00,00,
98515021,000004E4,false,Rx,0,8,00,00,85,00,00,00,00,00,
98526458,000004DE,false,Tx,0,8,00,00,00,00,00,00,00,00,
98615020,000004E4,false,Rx,0,8,00,00,85,00,00,00,00,00,
98671895,000004DE,false,Tx,0,8,00,00,00,00,00,00,00,00,
98715041,000004E4,false,Rx,0,8,00,00,85,00,00,00,00,00,
98749247,000004DE,false,Tx,0,8,00,00,00,00,00,00,00,00,
98815032,000004E4,false,Rx,0,8,00,00,85,00,00,00,00,00,
98866510,000004DE,false,Tx,0,8,00,00,00,00,00,00,00,00,
98915030,000004E4,false,Rx,0,8,00,00,85,00,00,00,00,00,
98965885,000004DE,false,Tx,0,8,00,00,00,00,00,00,00,00,
99015021,000004E4,false,Rx,0,8,00,00,85,00,00,00,00,00,
99088762,000004DE,false,Tx,0,8,00,00,00,00,00,00,00,00,
99115020,000004E4,false,Rx,0,8,00,00,85,00,00,00,00,00,
99192208,000004DE,false,Tx,0,8,00,00,00,00,00,00,00,00,
99215024,000004E4,false,Rx,0,8,00,00,85,00,00,00,00,00,
99305056,000004DE,false,Tx,0,8,00,00,00,00,00,00,00,00,
99315057,000004E4,false,Rx,0,8,00,00,85,00,00,00,00,00,
99415050,000004E4,false,Rx,0,8,00,00,85,00,00,00,00,00,
99420266,000004DE,false,Tx,0,8,00,00,00,00,00,00,00,00,
99515042,000004E4,false,Rx,0,8,00,00,85,00,00,00,00,00,
99520994,000004DE,false,Tx,0,8,00,00,00,00,00,00,00,00,
99615030,000004E4,false,Rx,0,8,00,00,85,00,00,00,00,00,
99667498,000004DE,false,Tx,0,8,00,00,00,00,00,00,00,00,
99715032,000004E4,false,Rx,0,8,00,00,85,00,00,00,00,00,
99743689,000004DE,false,Tx,0,8,00,00,00,00,00,00,00,00,
99815042,000004E4,false,Rx,0,8,00,00,85,00,00,00,00,00,
99866427,000004DE,false,Tx,0,8,00,00,00,00,00,00,00,00,
99915040,000004E4,false,Rx,0,8,00,00,85,00,00,00,00,00,
99962622,000004DE,false,Tx,0,8,00,00,00,00,00,00,00,00,
100015062,000004E4,false,Rx,0,8,00,00,85,00,00,00,00,00,
100075280,000004DE,false,Tx,0,8,00,00,00,00,00,00,00,00,
100115051,000004E4,false,Rx,0,8,00,00,85,00,00,00,00,00,
100191040,000004DE,false,Tx,0,8,00,00,00,00,00,00,00,00,
100215054,000004E4,false,Rx,0,8,00,00,85,00,00,00,00,00,
100315042,000004E4,false,Rx,0,8,00,00,85,00,00,00,00,00,
100315930,000004DE,false,Tx,0,8,00,00,00,00,00,00,00,00,
100415052,000004E4,false,Rx,0,8,00,00,85,00,00,00,00,00,
100430712,000004DE,false,Tx,0,8,00,00,00,00,00,00,00,00,
100515051,000004E4,false,Rx,0,8,00,00,85,00,00,00,00,00,
100538724,000004DE,false,Tx,0,8,00,00,00,00,00,00,00,00,
100615072,000004E4,false,Rx,0,8,00,00,85,00,00,00,00,00,
100662824,000004DE,false,Tx,0,8,00,00,00,00,00,00,00,00,
100715073,000004E4,false,Rx,0,8,00,00,85,00,00,00,00,00,
100759547,000004DE,false,Tx,0,8,00,00,00,00,00,00,00,00,
100815062,000004E4,false,Rx,0,8,00,00,85,00,00,00,00,00,
100909601,000004DE,false,Tx,0,8,00,00,00,00,00,00,00,00,
100915062,000004E4,false,Rx,0,8,00,00,85,00,00,00,00,00,
100992463,000004DE,false,Tx,0,8,00,00,00,00,00,00,00,00,
101015062,000004E4,false,Rx,0,8,00,00,85,00,00,00,00,00,
101115061,000004E4,false,Rx,0,8,00,00,85,00,00,00,00,00,
101124129,000004DE,false,Tx,0,8,00,00,00,00,00,00,00,00,
101208775,000004DE,false,Tx,0,8,00,00,00,00,00,00,00,00,
101215066,000004E4,false,Rx,0,8,00,00,85,00,00,00,00,00,
101315088,000004E4,false,Rx,0,8,00,00,85,00,00,00,00,00,
101315958,000004DE,false,Tx,0,8,00,00,00,00,00,00,00,00,
101415081,000004E4,false,Rx,0,8,00,00,85,00,00,00,00,00,
101424573,000004DE,false,Tx,0,8,00,00,00,00,00,00,00,00,
101515070,000004E4,false,Rx,0,8,00,00,85,00,00,00,00,00,
101540560,000004DE,false,Tx,0,8,00,00,00,00,00,00,00,00,
101615071,000004E4,false,Rx,0,8,00,00,85,00,00,00,00,00,
101662630,000004DE,false,Tx,0,8,00,00,00,00,00,00,00,00,
101715066,000004E4,false,Rx,0,8,00,00,85,00,00,00,00,00,
101758585,000004DE,false,Tx,0,8,00,00,00,00,00,00,00,00,
101815067,000004E4,false,Rx,0,8,00,00,85,00,00,00,00,00,
101864972,000004DE,false,Tx,0,8,00,00,00,00,00,00,00,00,
101915098,000004E4,false,Rx,0,8,00,00,85,00,00,00,00,00,
101972093,000004DE,false,Tx,0,8,00,00,00,00,00,00,00,00,
102015097,000004E4,false,Rx,0,8,00,00,85,00,00,00,00,00,
102110753,000004DE,false,Tx,0,8,00,00,00,00,00,00,00,00,
102115088,000004E4,false,Rx,0,8,00,00,85,00,00,00,00,00,
102215078,000004E4,false,Rx,0,8,00,00,85,00,00,00,00,00,
102216706,000004DE,false,Tx,0,8,00,00,00,00,00,00,00,00,
102315077,000004E4,false,Rx,0,8,00,00,85,00,00,00,00,00,
102326448,000004DE,false,Tx,0,8,00,00,00,00,00,00,00,00,
102415077,000004E4,false,Rx,0,8,00,00,85,00,00,00,00,00,
102430164,000004DE,false,Tx,0,8,00,00,00,00,00,00,00,00,
102515088,000004E4,false,Rx,0,8,00,00,85,00,00,00,00,00,
102554643,000004DE,false,Tx,0,8,00,00,00,00,00,00,00,00,
102615109,000004E4,false,Rx,0,8,00,00,85,00,00,00,00,00,
102664409,000004DE,false,Tx,0,8,00,00,00,00,00,00,00,00,
102715100,000004E4,false,Rx,0,8,00,00,85,00,00,00,00,00,
102779731,000004DE,false,Tx,0,8,00,00,00,00,00,00,00,00,
102815098,000004E4,false,Rx,0,8,00,00,85,00,00,00,00,00,
102900903,000004DE,false,Tx,0,8,00,00,00,00,00,00,00,00,
102915088,000004E4,false,Rx,0,8,00,00,85,00,00,00,00,00,
103012333,000004DE,false,Tx,0,8,00,00,00,00,00,00,00,00,
103015088,000004E4,false,Rx,0,8,00,00,85,00,00,00,00,00,
103113307,000004DE,false,Tx,0,8,00,00,00,00,00,00,00,00,
103115100,000004E4,false,Rx,0,8,00,00,85,00,00,00,00,00,
103215112,000004E4,false,Rx,0,8,00,00,85,00,00,00,00,00,
103228670,000004DE,false,Tx,0,8,00,00,00,00,00,00,00,00,
103315114,000004E4,false,Rx,0,8,00,00,85,00,00,00,00,00,
103344303,000004DE,false,Tx,0,8,00,00,00,00,00,00,00,00,
103415113,000004E4,false,Rx,0,8,00,00,85,00,00,00,00,00,
103439084,000004DE,false,Tx,0,8,00,00,00,00,00,00,00,00,
103515103,000004E4,false,Rx,0,8,00,00,85,00,00,00,00,00,
103560485,000004DE,false,Tx,0,8,00,00,00,00,00,00,00,00,
103615103,000004E4,false,Rx,0,8,00,00,85,00,00,00,00,00,
103666555,000004DE,false,Tx,0,8,00,00,00,00,00,00,00,00,
103715104,000004E4,false,Rx,0,8,00,00,85,00,00,00,00,00,
103777146,000004DE,false,Tx,0,8,00,00,00,00,00,00,00,00,
103815103,000004E4,false,Rx,0,8,00,00,85,00,00,00,00,00,
103906883,000004DE,false,Tx,0,8,00,00,00,00,00,00,00,00,
103915134,000004E4,false,Rx,0,8,00,00,85,00,00,00,00,00,
104014713,000004DE,false,Tx,0,8,00,00,00,00,00,00,00,00,
104015331,000004E4,false,Rx,0,8,00,00,85,00,00,00,00,00,
104115114,000004E4,false,Rx,0,8,00,00,85,00,00,00,00,00,
104115763,000004DE,false,Tx,0,8,00,00,00,00,00,00,00,00,
104215117,000004E4,false,Rx,0,8,00,00,85,00,00,00,00,00,
104230734,000004DE,false,Tx,0,8,00,00,00,00,00,00,00,00,
104315118,000004E4,false,Rx,0,8,00,00,85,00,00,00,00,00,
104339141,000004DE,false,Tx,0,8,00,00,00,00,00,00,00,00,
104415118,000004E4,false,Rx,0,8,00,00,85,00,00,00,00,00,
104450100,000004DE,false,Tx,0,8,00,00,00,00,00,00,00,00,
104515119,000004E4,false,Rx,0,8,00,00,85,00,00,00,00,00,
104562878,000004DE,false,Tx,0,8,00,00,00,00,00,00,00,00,
104615140,000004E4,false,Rx,0,8,00,00,85,00,00,00,00,00,
104677157,000004DE,false,Tx,0,8,00,00,00,00,00,00,00,00,
104715130,000004E4,false,Rx,0,8,00,00,85,00,00,00,00,00,
104783042,000004DE,false,Tx,0,8,00,00,00,00,00,00,00,00,
104815129,000004E4,false,Rx,0,8,00,00,85,00,00,00,00,00,
104915129,000004E4,false,Rx,0,8,00,00,85,00,00,00,00,00,
104917404,000004DE,false,Tx,0,8,00,00,00,00,00,00,00,00,
105015119,000004E4,false,Rx,0,8,00,00,85,00,00,00,00,00,
105016715,000004DE,false,Tx,0,8,00,00,00,00,00,00,00,00,
105115130,000004E4,false,Rx,0,8,00,00,85,00,00,00,00,00,
105119003,000004DE,false,Tx,0,8,00,00,00,00,00,00,00,00,
105215152,000004E4,false,Rx,0,8,00,00,85,00,00,00,00,00,
105224245,000004DE,false,Tx,0,8,00,00,00,00,00,00,00,00,
105315150,000004E4,false,Rx,0,8,00,00,85,00,00,00,00,00,
105333940,000004DE,false,Tx,0,8,00,00,00,00,00,00,00,00,
105415140,000004E4,false,Rx,0,8,00,00,85,00,00,00,00,00,
105449405,000004DE,false,Tx,0,8,00,00,00,00,00,00,00,00,
105515131,000004E4,false,Rx,0,8,00,00,85,00,00,00,00,00,
105562654,000004DE,false,Tx,0,8,00,00,00,00,00,00,00,00,
105615141,000004E4,false,Rx,0,8,00,00,85,00,00,00,00,00,
105669426,000004DE,false,Tx,0,8,00,00,00,00,00,00,00,00,
105715138,000004E4,false,Rx,0,8,00,00,85,00,00,00,00,00,
105770811,000004DE,false,Tx,0,8,00,00,00,00,00,00,00,00,
105815143,000004E4,false,Rx,0,8,00,00,85,00,00,00,00,00,
105877232,000004DE,false,Tx,0,8,00,00,00,00,00,00,00,00,
105915166,000004E4,false,Rx,0,8,00,00,85,00,00,00,00,00,
105993894,000004DE,false,Tx,0,8,00,00,00,00,00,00,00,00,
106015156,000004E4,false,Rx,0,8,00,00,85,00,00,00,00,00,
106103916,000004DE,false,Tx,0,8,00,00,00,00,00,00,00,00,
106115155,000004E4,false,Rx,0,8,00,00,85,00,00,00,00,00,
106204381,000004DE,false,Tx,0,8,00,00,00,00,00,00,00,00,
106215146,000004E4,false,Rx,0,8,00,00,85,00,00,00,00,00,
106315145,000004E4,false,Rx,0,8,00,00,85,00,00,00,00,00,
106320313,000004DE,false,Tx,0,8,01,00,00,00,00,00,00,00,
106415146,000004E4,false,Rx,0,8,00,00,85,00,00,00,00,00,
106447039,000004DE,false,Tx,0,8,01,00,00,00,00,00,00,00,
106515424,000004E4,false,Rx,0,8,00,00,85,00,05,00,00,00,
106550306,000004DE,false,Tx,0,8,01,00,00,00,00,00,00,00,
106615414,000004E4,false,Rx,0,8,00,04,85,00,0B,02,00,00,
106669202,000004DE,false,Tx,0,8,01,00,00,00,00,00,00,00,
106715408,000004E4,false,Rx,0,8,00,0B,85,00,0E,04,00,00,
106768378,000004DE,false,Tx,0,8,01,00,00,00,00,00,00,00,
106815397,000004E4,false,Rx,0,8,00,12,85,00,10,05,00,00,
106890989,000004DE,false,Tx,0,8,01,00,00,00,00,00,00,00,
106915388,000004E4,false,Rx,0,8,00,19,85,00,13,07,00,00,
107006118,000004DE,false,Tx,0,8,01,00,00,00,00,00,00,00,
107015378,000004E4,false,Rx,0,8,00,1F,85,00,17,08,00,00,
107115377,000004E4,false,Rx,0,8,00,2E,85,00,19,08,00,00,
107130030,000004DE,false,Tx,0,8,01,00,00,00,00,00,00,00,
107215419,000004E4,false,Rx,0,8,00,33,85,00,18,06,00,00,
107222290,000004DE,false,Tx,0,8,01,00,00,00,00,00,00,00,
107315420,000004E4,false,Rx,0,8,00,33,85,00,18,04,00,00,
107331682,000004DE,false,Tx,0,8,01,00,00,00,00,00,00,00,
107415574,000004E4,false,Rx,0,8,00,33,85,00,18,03,00,00,
107438162,000004DE,false,Tx,0,8,01,00,00,00,00,00,00,00,
107515574,000004E4,false,Rx,0,8,00,33,85,00,18,02,00,00,
107569211,000004DE,false,Tx,0,8,01,00,00,00,00,00,00,00,
107615554,000004E4,false,Rx,0,8,00,34,85,00,19,02,00,00,
107685038,000004DE,false,Tx,0,8,01,00,00,00,00,00,00,00,
107715555,000004E4,false,Rx,0,8,00,34,85,00,19,01,00,00,
107807957,000004DE,false,Tx,0,8,01,00,00,00,00,00,00,00,
107815558,000004E4,false,Rx,0,8,00,34,85,00,19,01,00,00,
107915600,000004E4,false,Rx,0,8,00,34,85,00,19,01,00,00,
107945248,000004DE,false,Tx,0,8,01,00,00,00,00,00,00,00,
108015600,000004E4,false,Rx,0,8,00,34,85,00,19,00,00,00,
108017098,000004DE,false,Tx,0,8,01,00,00,00,00,00,00,00,
108115590,000004E4,false,Rx,0,8,00,40,85,00,19,00,00,00,
108149280,000004DE,false,Tx,0,8,01,00,00,00,00,00,00,00,
108215569,000004E4,false,Rx,0,8,00,48,85,00,19,00,00,00,
108247909,000004DE,false,Tx,0,8,01,00,00,00,00,00,00,00,
108315573,000004E4,false,Rx,0,8,00,49,85,00,19,00,00,00,
108356506,000004DE,false,Tx,0,8,01,00,00,00,00,00,00,00,
108415567,000004E4,false,Rx,0,8,00,49,85,00,19,00,00,00,
108455453,000004DE,false,Tx,0,8,01,00,00,00,00,00,00,00,
108515620,000004E4,false,Rx,0,8,00,49,85,00,19,00,00,00,
108570355,000004DE,false,Tx,0,8,01,00,00,00,00,00,00,00,
108615606,000004E4,false,Rx,0,8,00,49,85,00,19,00,00,00,
108703948,000004DE,false,Tx,0,8,01,00,00,00,00,00,00,00,
108715609,000004E4,false,Rx,0,8,00,4A,85,00,1A,00,00,00,
108809866,000004DE,false,Tx,0,8,01,00,00,00,00,00,00,00,
108815590,000004E4,false,Rx,0,8,00,49,85,00,19,00,00,00,
108910786,000004DE,false,Tx,0,8,01,00,00,00,00,00,00,00,
108915590,000004E4,false,Rx,0,8,00,49,85,00,19,00,00,00,
109015584,000004E4,false,Rx,0,8,00,49,85,00,19,00,00,00,
109025836,000004DE,false,Tx,0,8,01,00,00,00,00,00,00,00,
109115580,000004E4,false,Rx,0,8,00,49,85,00,19,00,00,00,
109138560,000004DE,false,Tx,0,8,01,00,00,00,00,00,00,00,
109215621,000004E4,false,Rx,0,8,00,48,85,00,19,00,00,00,
109241586,000004DE,false,Tx,0,8,01,00,00,00,00,00,00,00,
109315610,000004E4,false,Rx,0,8,00,48,85,00,19,00,00,00,
109357667,000004DE,false,Tx,0,8,01,00,00,00,00,00,00,00,
109415609,000004E4,false,Rx,0,8,00,48,85,00,19,00,00,00,
109456861,000004DE,false,Tx,0,8,01,00,00,00,00,00,00,00,
109515601,000004E4,false,Rx,0,8,00,48,85,00,19,00,00,00,
109573829,000004DE,false,Tx,0,8,01,00,00,00,00,00,00,00,
109615590,000004E4,false,Rx,0,8,00,48,85,00,19,00,00,00,
109689526,000004DE,false,Tx,0,8,01,00,00,00,00,00,00,00,
109715590,000004E4,false,Rx,0,8,00,49,85,00,19,00,00,00,
109789791,000004DE,false,Tx,0,8,01,00,00,00,00,00,00,00,
109815641,000004E4,false,Rx,0,8,00,49,85,00,19,00,00,00,
109891458,000004DE,false,Tx,0,8,01,00,00,00,00,00,00,00,
109915631,000004E4,false,Rx,0,8,00,49,85,00,19,00,00,00,
110012153,000004DE,false,Tx,0,8,01,00,00,00,00,00,00,00,
110015625,000004E4,false,Rx,0,8,00,49,85,00,19,00,00,00,
110112380,000004DE,false,Tx,0,8,01,00,00,00,00,00,00,00,
110115616,000004E4,false,Rx,0,8,00,49,85,00,19,00,00,00,
110215617,000004E4,false,Rx,0,8,00,49,85,00,19,00,00,00,
110254972,000004DE,false,Tx,0,8,01,00,00,00,00,00,00,00,
110315596,000004E4,false,Rx,0,8,00,49,85,00,19,00,00,00,
110341112,000004DE,false,Tx,0,8,01,00,00,00,00,00,00,00,
110415606,000004E4,false,Rx,0,8,00,49,85,00,19,00,00,00,
110444954,000004DE,false,Tx,0,8,01,00,00,00,00,00,00,00,
110515651,000004E4,false,Rx,0,8,00,48,85,00,19,00,00,00,
110549406,000004DE,false,Tx,0,8,01,00,00,00,00,00,00,00,
110615640,000004E4,false,Rx,0,8,00,48,85,00,19,00,00,00,
110659539,000004DE,false,Tx,0,8,01,00,00,00,00,00,00,00,
110715629,000004E4,false,Rx,0,8,00,48,85,00,19,00,00,00,
110775429,000004DE,false,Tx,0,8,01,00,00,00,00,00,00,00,
110815621,000004E4,false,Rx,0,8,00,47,85,00,19,00,00,00,
110887737,000004DE,false,Tx,0,8,01,00,00,00,00,00,00,00,
110915611,000004E4,false,Rx,0,8,00,48,85,00,19,00,00,00,
110991508,000004DE,false,Tx,0,8,01,00,00,00,00,00,00,00,
111015605,000004E4,false,Rx,0,8,00,48,85,00,19,00,00,00,
111095757,000004DE,false,Tx,0,8,01,00,00,00,00,00,00,00,
111115661,000004E4,false,Rx,0,8,00,48,85,00,19,00,00,00,
111215650,000004E4,false,Rx,0,8,00,49,85,00,19,00,00,00,
111259943,000004DE,false,Tx,0,8,01,00,00,00,00,00,00,00,
111314296,000004DE,false,Tx,0,8,01,00,00,00,00,00,00,00,
111315651,000004E4,false,Rx,0,8,00,49,85,00,19,00,00,00,
111415642,000004E4,false,Rx,0,8,00,49,85,00,19,00,00,00,
111430113,000004DE,false,Tx,0,8,01,00,00,00,00,00,00,00,
111515632,000004E4,false,Rx,0,8,02,47,85,00,19,00,00,10,
111545861,000004DE,false,Tx,0,8,01,00,00,00,00,00,00,00,
111615631,000004E4,false,Rx,0,8,02,3C,85,00,15,00,00,10,
111646103,000004DE,false,Tx,0,8,01,00,00,00,00,00,00,00,
111715621,000004E4,false,Rx,0,8,02,30,85,00,11,00,00,10,
111756732,000004DE,false,Tx,0,8,01,00,00,00,00,00,00,00,
111815672,000004E4,false,Rx,0,8,02,23,85,00,0D,00,00,10,
111863302,000004DE,false,Tx,0,8,01,00,00,00,00,00,00,00,
111915257,000004E4,false,Rx,0,8,02,04,85,00,01,00,00,10,
112002277,000004DE,false,Tx,0,8,01,00,00,00,00,00,00,00,
112015249,000004E4,false,Rx,0,8,02,00,85,00,00,00,00,10,
112093707,000004DE,false,Tx,0,8,01,00,00,00,00,00,00,00,
112115249,000004E4,false,Rx,0,8,02,00,85,00,00,00,00,10,
112211160,000004DE,false,Tx,0,8,01,00,00,00,00,00,00,00,
112215249,000004E4,false,Rx,0,8,02,00,85,00,00,00,00,10,
112315248,000004E4,false,Rx,0,8,02,00,85,00,00,00,00,10,
112315800,000004DE,false,Tx,0,8,01,00,00,00,00,00,00,00,
112415269,000004E4,false,Rx,0,8,02,00,85,00,00,00,00,10,
112431778,000004DE,false,Tx,0,8,01,00,00,00,00,00,00,00,
112515268,000004E4,false,Rx,0,8,02,00,85,00,00,00,00,10,
112531922,000004DE,false,Tx,0,8,01,00,00,00,00,00,00,00,
112615259,000004E4,false,Rx,0,8,02,00,85,00,00,00,00,10,
112642193,000004DE,false,Tx,0,8,01,00,00,00,00,00,00,00,
112715259,000004E4,false,Rx,0,8,02,00,85,00,00,00,00,10,
112761206,000004DE,false,Tx,0,8,01,00,00,00,00,00,00,00,
112815259,000004E4,false,Rx,0,8,02,00,85,00,00,00,00,10,
112867214,000004DE,false,Tx,0,8,01,00,00,00,00,00,00,00,
112915258,000004E4,false,Rx,0,8,02,00,85,00,00,00,00,10,
112994556,000004DE,false,Tx,0,8,01,00,00,00,00,00,00,00,
113015258,000004E4,false,Rx,0,8,02,00,85,00,00,00,00,10,
113080722,000004DE,false,Tx,0,8,01,00,00,00,00,00,00,00,
113115290,000004E4,false,Rx,0,8,02,00,85,00,00,00,00,10,
113204895,000004DE,false,Tx,0,8,01,00,00,00,00,00,00,00,
113215280,000004E4,false,Rx,0,8,02,00,85,00,00,00,00,10,
113302049,000004DE,false,Tx,0,8,01,00,00,00,00,00,00,00,
113315269,000004E4,false,Rx,0,8,02,00,85,00,00,00,00,10,
113415269,000004E4,false,Rx,0,8,02,00,85,00,00,00,00,10,
113418994,000004DE,false,Tx,0,8,01,00,00,00,00,00,00,00,
113515502,000004E4,false,Rx,0,8,02,00,85,00,04,00,00,10,
113526390,000004DE,false,Tx,0,8,01,00,00,00,00,00,00,00,
113615491,000004E4,false,Rx,0,8,02,04,85,00,0B,02,00,10,
113634027,000004DE,false,Tx,0,8,01,00,00,00,00,00,00,00,
113715536,000004E4,false,Rx,0,8,02,0A,85,00,0E,03,00,10,
113761575,000004DE,false,Tx,0,8,01,00,00,00,00,00,00,00,
113815532,000004E4,false,Rx,0,8,02,11,85,00,10,05,00,10,
113853097,000004DE,false,Tx,0,8,01,00,00,00,00,00,00,00,
113915533,000004E4,false,Rx,0,8,00,18,85,00,13,06,00,00,
113973950,000004DE,false,Tx,0,8,01,00,00,00,00,00,00,00,
114015523,000004E4,false,Rx,0,8,00,1F,85,00,16,08,00,00,
114072907,000004DE,false,Tx,0,8,01,00,00,00,00,00,00,00,
114115512,000004E4,false,Rx,0,8,00,2D,85,00,19,09,00,00,
114182095,000004DE,false,Tx,0,8,01,00,00,00,00,00,00,00,
114215512,000004E4,false,Rx,0,8,00,34,85,00,19,06,00,00,
114287966,000004DE,false,Tx,0,8,01,00,00,00,00,00,00,00,
114315501,000004E4,false,Rx,0,8,00,33,85,00,18,05,00,00,
114404401,000004DE,false,Tx,0,8,01,00,00,00,00,00,00,00,
114415719,000004E4,false,Rx,0,8,00,33,85,00,19,03,00,00,
114515710,000004E4,false,Rx,0,8,00,35,85,00,1A,02,00,00,
114519352,000004DE,false,Tx,0,8,01,00,00,00,00,00,00,00,
114615698,000004E4,false,Rx,0,8,00,36,85,00,1B,02,00,00,
114620170,000004DE,false,Tx,0,8,01,00,00,00,00,00,00,00,
114715751,000004E4,false,Rx,0,8,00,37,85,00,1D,01,00,00,
114730126,000004DE,false,Tx,0,8,01,00,00,00,00,00,00,00,
114815689,000004E4,false,Rx,0,8,00,38,85,00,1E,01,00,00,
114837325,000004DE,false,Tx,0,8,01,00,00,00,00,00,00,00,
114915689,000004E4,false,Rx,0,8,00,38,85,00,1F,01,00,00,
114942482,000004DE,false,Tx,0,8,01,00,00,00,00,00,00,00,
115015733,000004E4,false,Rx,0,8,00,39,85,00,20,01,00,00,
115052000,000004DE,false,Tx,0,8,01,00,00,00,00,00,00,00,
115115730,000004E4,false,Rx,0,8,00,4F,85,00,21,00,00,00,
115168001,000004DE,false,Tx,0,8,01,00,00,00,00,00,00,00,
115215718,000004E4,false,Rx,0,8,00,5E,85,00,21,00,00,00,
115278089,000004DE,false,Tx,0,8,01,00,00,00,00,00,00,00,
115315712,000004E4,false,Rx,0,8,00,5E,85,00,21,00,00,00,
115384116,000004DE,false,Tx,0,8,01,00,00,00,00,00,00,00,
115415698,000004E4,false,Rx,0,8,00,5D,85,00,20,00,00,00,
115489664,000004DE,false,Tx,0,8,01,00,00,00,00,00,00,00,
115515702,000004E4,false,Rx,0,8,00,5D,85,00,20,00,00,00,
115600145,000004DE,false,Tx,0,8,01,00,00,00,00,00,00,00,
115615693,000004E4,false,Rx,0,8,00,5C,85,00,20,00,00,00,
115715735,000004E4,false,Rx,0,8,00,5B,85,00,20,00,00,00,
115717337,000004DE,false,Tx,0,8,01,00,00,00,00,00,00,00,
115815735,000004E4,false,Rx,0,8,00,5B,85,00,20,00,00,00,
115816609,000004DE,false,Tx,0,8,01,00,00,00,00,00,00,00,
115915725,000004E4,false,Rx,0,8,00,5B,85,00,20,00,00,00,
115938732,000004DE,false,Tx,0,8,01,00,00,00,00,00,00,00,
116015724,000004E4,false,Rx,0,8,00,5B,85,00,20,00,00,00,
116054298,000004DE,false,Tx,0,8,01,00,00,00,00,00,00,00,
116115714,000004E4,false,Rx,0,8,00,5B,85,00,20,00,00,00,
116181791,000004DE,false,Tx,0,8,01,00,00,00,00,00,00,00,
116215704,000004E4,false,Rx,0,8,00,5B,85,00,20,00,00,00,
116286412,000004DE,false,Tx,0,8,01,00,00,00,00,00,00,00,
116315704,000004E4,false,Rx,0,8,00,5A,85,00,1F,00,00,00,
116405704,000004DE,false,Tx,0,8,01,00,00,00,00,00,00,00,
116415755,000004E4,false,Rx,0,8,00,5A,85,00,1F,00,00,00,
116515746,000004E4,false,Rx,0,8,00,5A,85,00,1F,00,00,00,
116523721,000004DE,false,Tx,0,8,01,00,00,00,00,00,00,00,
116615735,000004E4,false,Rx,0,8,00,5A,85,00,1F,00,00,00,
116625183,000004DE,false,Tx,0,8,01,00,00,00,00,00,00,00,
116715725,000004E4,false,Rx,0,8,00,5A,85,00,1F,00,00,00,
116747395,000004DE,false,Tx,0,8,01,00,00,00,00,00,00,00,
116815725,000004E4,false,Rx,0,8,00,59,85,00,1F,00,00,00,
116839109,000004DE,false,Tx,0,8,01,00,00,00,00,00,00,00,
116915714,000004E4,false,Rx,0,8,00,59,85,00,1F,00,00,00,
116948308,000004DE,false,Tx,0,8,01,00,00,00,00,00,00,00,
117015714,000004E4,false,Rx,0,8,00,58,85,00,1F,00,00,00,
117057498,000004DE,false,Tx,0,8,01,00,00,00,00,00,00,00,
117115757,000004E4,false,Rx,0,8,00,58,85,00,1F,00,00,00,
117165698,000004DE,false,Tx,0,8,01,00,00,00,00,00,00,00,
117215756,000004E4,false,Rx,0,8,00,58,85,00,1F,00,00,00,
117282336,000004DE,false,Tx,0,8,01,00,00,00,00,00,00,00,
117315739,000004E4,false,Rx,0,8,00,58,85,00,1E,00,00,00,
117383102,000004DE,false,Tx,0,8,02,00,00,00,00,00,00,00,
117415734,000004E4,false,Rx,0,8,00,57,85,00,1E,00,00,00,
117492788,000004DE,false,Tx,0,8,02,00,00,00,00,00,00,00,
117515734,000004E4,false,Rx,0,8,00,57,85,00,1E,00,00,00,
117599449,000004DE,false,Tx,0,8,02,00,00,00,00,00,00,00,
117615724,000004E4,false,Rx,0,8,00,57,85,00,1E,00,00,00,
117708008,000004DE,false,Tx,0,8,02,00,00,00,00,00,00,00,
117715765,000004E4,false,Rx,0,8,00,57,85,00,1E,00,00,00,
117815755,000004E4,false,Rx,0,8,00,57,85,00,1E,00,00,00,
117817009,000004DE,false,Tx,0,8,02,00,00,00,00,00,00,00,
117915755,000004E4,false,Rx,0,8,00,57,85,00,1E,00,00,00,
117926541,000004DE,false,Tx,0,8,02,00,00,00,00,00,00,00,
118015745,000004E4,false,Rx,0,8,00,57,85,00,1E,00,00,00,
118039265,000004DE,false,Tx,0,8,02,00,00,00,00,00,00,00,
118115746,000004E4,false,Rx,0,8,00,57,85,00,1E,00,00,00,
118143154,000004DE,false,Tx,0,8,02,00,00,00,00,00,00,00,
118215734,000004E4,false,Rx,0,8,00,57,85,00,1E,00,00,00,
118272036,000004DE,false,Tx,0,8,02,00,00,00,00,00,00,00,
118315786,000004E4,false,Rx,0,8,00,57,85,00,1E,00,00,00,
118363022,000004DE,false,Tx,0,8,02,00,00,00,00,00,00,00,
118415776,000004E4,false,Rx,0,8,02,57,85,00,1E,00,00,10,
118487243,000004DE,false,Tx,0,8,02,00,00,00,00,00,00,00,
118515766,000004E4,false,Rx,0,8,02,4F,85,00,1C,00,00,10,
118579089,000004DE,false,Tx,0,8,02,00,00,00,00,00,00,00,
118615766,000004E4,false,Rx,0,8,02,42,85,00,17,00,00,10,
118702948,000004DE,false,Tx,0,8,02,00,00,00,00,00,00,00,
118715756,000004E4,false,Rx,0,8,02,35,85,00,13,00,00,10,
118812492,000004DE,false,Tx,0,8,02,00,00,00,00,00,00,00,
118815745,000004E4,false,Rx,0,8,02,29,85,00,0F,00,00,10,
118915362,000004E4,false,Rx,0,8,02,0D,85,00,05,00,00,10,
118917060,000004DE,false,Tx,0,8,02,00,00,00,00,00,00,00,
119015383,000004E4,false,Rx,0,8,02,01,85,00,00,00,00,10,
119045574,000004DE,false,Tx,0,8,02,00,00,00,00,00,00,00,
119115373,000004E4,false,Rx,0,8,02,00,85,00,00,00,00,10,
119138872,000004DE,false,Tx,0,8,02,00,00,00,00,00,00,00,
119215373,000004E4,false,Rx,0,8,02,00,85,00,00,00,00,10,
119247061,000004DE,false,Tx,0,8,02,00,00,00,00,00,00,00,
119315363,000004E4,false,Rx,0,8,02,00,85,00,00,00,00,10,
119356539,000004DE,false,Tx,0,8,02,00,00,00,00,00,00,00,
119415373,000004E4,false,Rx,0,8,02,00,85,00,00,00,00,10,
119464642,000004DE,false,Tx,0,8,02,00,00,00,00,00,00,00,
119515372,000004E4,false,Rx,0,8,02,00,85,00,00,00,00,10,
119573912,000004DE,false,Tx,0,8,02,00,00,00,00,00,00,00,
119615393,000004E4,false,Rx,0,8,02,00,85,00,00,00,00,10,
119682931,000004DE,false,Tx,0,8,02,00,00,00,00,00,00,00,
119715394,000004E4,false,Rx,0,8,02,00,85,00,00,00,00,10,
119791676,000004DE,false,Tx,0,8,02,00,00,00,00,00,00,00,
119815387,000004E4,false,Rx,0,8,02,00,85,00,00,00,00,10,
119900658,000004DE,false,Tx,0,8,02,00,00,00,00,00,00,00,
119915376,000004E4,false,Rx,0,8,02,00,85,00,00,00,00,10,
120015376,000004E4,false,Rx,0,8,02,00,85,00,00,00,00,10,
120038446,000004DE,false,Tx,0,8,02,00,00,00,00,00,00,00,
120115380,000004E4,false,Rx,0,8,02,00,85,00,00,00,00,10,
120117081,000004DE,false,Tx,0,8,02,00,00,00,00,00,00,00,
120215383,000004E4,false,Rx,0,8,02,00,85,00,00,00,00,10,
120242900,000004DE,false,Tx,0,8,02,00,00,00,00,00,00,00,
120315404,000004E4,false,Rx,0,8,02,00,85,00,00,00,00,10,
120335314,000004DE,false,Tx,0,8,02,00,00,00,00,00,00,00,
120415528,000004E4,false,Rx,0,8,02,00,85,00,00,00,00,10,
120443506,000004DE,false,Tx,0,8,02,00,00,00,00,00,00,00,
120515632,000004E4,false,Rx,0,8,02,01,85,00,09,01,00,10,
120552163,000004DE,false,Tx,0,8,02,00,00,00,00,00,00,00,
120615621,000004E4,false,Rx,0,8,02,08,85,00,0D,03,00,10,
120661120,000004DE,false,Tx,0,8,02,00,00,00,00,00,00,00,
120715631,000004E4,false,Rx,0,8,02,0F,85,00,0F,04,00,10,
120796631,000004DE,false,Tx,0,8,02,00,00,00,00,00,00,00,
120815611,000004E4,false,Rx,0,8,00,15,85,00,12,06,00,00,
120877723,000004DE,false,Tx,0,8,02,00,00,00,00,00,00,00,
120915662,000004E4,false,Rx,0,8,00,1C,85,00,15,07,00,00,
121004625,000004DE,false,Tx,0,8,02,00,00,00,00,00,00,00,
121015653,000004E4,false,Rx,0,8,00,23,85,00,18,09,00,00,
121096880,000004DE,false,Tx,0,8,02,00,00,00,00,00,00,00,
121115652,000004E4,false,Rx,0,8,00,33,85,00,19,07,00,00,
121206357,000004DE,false,Tx,0,8,02,00,00,00,00,00,00,00,
121215651,000004E4,false,Rx,0,8,00,33,85,00,18,05,00,00,
121313961,000004DE,false,Tx,0,8,02,00,00,00,00,00,00,00,
121315808,000004E4,false,Rx,0,8,00,33,85,00,18,04,00,00,
121415797,000004E4,false,Rx,0,8,00,34,85,00,19,03,00,00,
121423284,000004DE,false,Tx,0,8,02,00,00,00,00,00,00,00,
121515787,000004E4,false,Rx,0,8,00,36,85,00,1B,02,00,00,
121538564,000004DE,false,Tx,0,8,02,00,00,00,00,00,00,00,
121615839,000004E4,false,Rx,0,8,00,37,85,00,1D,01,00,00,
121656869,000004DE,false,Tx,0,8,02,00,00,00,00,00,00,00,
121715828,000004E4,false,Rx,0,8,00,38,85,00,1E,01,00,00,
121766662,000004DE,false,Tx,0,8,02,00,00,00,00,00,00,00,
121815835,000004E4,false,Rx,0,8,00,38,85,00,1F,01,00,00,
121873856,000004DE,false,Tx,0,8,02,00,00,00,00,00,00,00,
121915824,000004E4,false,Rx,0,8,00,39,85,00,20,01,00,00,
121983448,000004DE,false,Tx,0,8,02,00,00,00,00,00,00,00,
122015814,000004E4,false,Rx,0,8,00,39,85,00,20,00,00,00,
122094287,000004DE,false,Tx,0,8,02,00,00,00,00,00,00,00,
122115804,000004E4,false,Rx,0,8,00,5C,85,00,21,00,00,00,
122203486,000004DE,false,Tx,0,8,02,00,00,00,00,00,00,00,
122215804,000004E4,false,Rx,0,8,00,5F,85,00,21,00,00,00,
122300714,000004DE,false,Tx,0,8,02,00,00,00,00,00,00,00,
122315849,000004E4,false,Rx,0,8,00,5F,85,00,21,00,00,00,
122415836,000004E4,false,Rx,0,8,00,5E,85,00,21,00,00,00,
122417543,000004DE,false,Tx,0,8,02,00,00,00,00,00,00,00,
122515837,000004E4,false,Rx,0,8,00,5E,85,00,20,00,00,00,
122557678,000004DE,false,Tx,0,8,02,00,00,00,00,00,00,00,
122615828,000004E4,false,Rx,0,8,00,5D,85,00,20,00,00,00,
122637854,000004DE,false,Tx,0,8,02,00,00,00,00,00,00,00,
122715818,000004E4,false,Rx,0,8,00,5D,85,00,20,00,00,00,
122760896,000004DE,false,Tx,0,8,02,00,00,00,00,00,00,00,
122815820,000004E4,false,Rx,0,8,00,5D,85,00,20,00,00,00,
122855109,000004DE,false,Tx,0,8,02,00,00,00,00,00,00,00,
122915870,000004E4,false,Rx,0,8,00,5C,85,00,20,00,00,00,
122964112,000004DE,false,Tx,0,8,02,00,00,00,00,00,00,00,
123015859,000004E4,false,Rx,0,8,00,5C,85,00,20,00,00,00,
123072103,000004DE,false,Tx,0,8,02,00,00,00,00,00,00,00,
123115850,000004E4,false,Rx,0,8,00,5B,85,00,20,00,00,00,
123180382,000004DE,false,Tx,0,8,02,00,00,00,00,00,00,00,
123215839,000004E4,false,Rx,0,8,00,5B,85,00,20,00,00,00,
123315833,000004E4,false,Rx,0,8,00,5A,85,00,1F,00,00,00,
123327654,000004DE,false,Tx,0,8,02,00,00,00,00,00,00,00,
123398662,000004DE,false,Tx,0,8,02,00,00,00,00,00,00,00,
123415823,000004E4,false,Rx,0,8,00,5A,85,00,1F,00,00,00,
123508123,000004DE,false,Tx,0,8,02,00,00,00,00,00,00,00,
123515824,000004E4,false,Rx,0,8,00,5A,85,00,1F,00,00,00,
123615869,000004E4,false,Rx,0,8,00,5A,85,00,1F,00,00,00,
123616807,000004DE,false,Tx,0,8,02,00,00,00,00,00,00,00,
123715870,000004E4,false,Rx,0,8,00,5A,85,00,1F,00,00,00,
123724974,000004DE,false,Tx,0,8,02,00,00,00,00,00,00,00,
123815860,000004E4,false,Rx,0,8,00,59,85,00,1F,00,00,00,
123835110,000004DE,false,Tx,0,8,02,00,00,00,00,00,00,00,
123915850,000004E4,false,Rx,0,8,00,59,85,00,1F,00,00,00,
123943563,000004DE,false,Tx,0,8,02,00,00,00,00,00,00,00,
124015850,000004E4,false,Rx,0,8,00,59,85,00,1F,00,00,00,
124054322,000004DE,false,Tx,0,8,02,00,00,00,00,00,00,00,
124115840,000004E4,false,Rx,0,8,00,59,85,00,1F,00,00,00,
124163353,000004DE,false,Tx,0,8,02,00,00,00,00,00,00,00,
124215881,000004E4,false,Rx,0,8,00,58,85,00,1F,00,00,00,
124302950,000004DE,false,Tx,0,8,02,00,00,00,00,00,00,00,
124315884,000004E4,false,Rx,0,8,00,57,85,00,1E,00,00,00,
124381734,000004DE,false,Tx,0,8,02,00,00,00,00,00,00,00,
124415870,000004E4,false,Rx,0,8,00,56,85,00,1E,00,00,00,
124506036,000004DE,false,Tx,0,8,02,00,00,00,00,00,00,00,
124515870,000004E4,false,Rx,0,8,00,56,85,00,1E,00,00,00,
124599429,000004DE,false,Tx,0,8,02,00,00,00,00,00,00,00,
124615861,000004E4,false,Rx,0,8,00,56,85,00,1E,00,00,00,
124708078,000004DE,false,Tx,0,8,02,00,00,00,00,00,00,00,
124715860,000004E4,false,Rx,0,8,00,56,85,00,1E,00,00,00,
124815850,000004E4,false,Rx,0,8,00,56,85,00,1E,00,00,00,
124817753,000004DE,false,Tx,0,8,02,00,00,00,00,00,00,00,
124915901,000004E4,false,Rx,0,8,00,55,85,00,1E,00,00,00,
124926525,000004DE,false,Tx,0,8,02,00,00,00,00,00,00,00,
125015891,000004E4,false,Rx,0,8,00,55,85,00,1E,00,00,00,
125048077,000004DE,false,Tx,0,8,02,00,00,00,00,00,00,00,
125115885,000004E4,false,Rx,0,8,00,55,85,00,1E,00,00,00,
125145405,000004DE,false,Tx,0,8,02,00,00,00,00,00,00,00,
125215875,000004E4,false,Rx,0,8,00,55,85,00,1E,00,00,00,
125254785,000004DE,false,Tx,0,8,02,00,00,00,00,00,00,00,
125315869,000004E4,false,Rx,0,8,00,55,85,00,1E,00,00,00,
125363724,000004DE,false,Tx,0,8,02,00,00,00,00,00,00,00,
125415858,000004E4,false,Rx,0,8,02,52,85,00,1C,00,00,10,
125471450,000004DE,false,Tx,0,8,02,00,00,00,00,00,00,00,
125515906,000004E4,false,Rx,0,8,02,46,85,00,18,00,00,10,
125581381,000004DE,false,Tx,0,8,02,00,00,00,00,00,00,00,
125615901,000004E4,false,Rx,0,8,02,38,85,00,14,00,00,10,
125690058,000004DE,false,Tx,0,8,02,00,00,00,00,00,00,00,
125715890,000004E4,false,Rx,0,8,02,2C,85,00,10,00,00,10,
125799327,000004DE,false,Tx,0,8,02,00,00,00,00,00,00,00,
125815474,000004E4,false,Rx,0,8,02,18,85,00,09,00,00,10,
125907783,000004DE,false,Tx,0,8,02,00,00,00,00,00,00,00,
125915485,000004E4,false,Rx,0,8,02,01,85,00,00,00,00,10,
126015485,000004E4,false,Rx,0,8,02,00,85,00,00,00,00,10,
126038117,000004DE,false,Tx,0,8,02,00,00,00,00,00,00,00,
126115486,000004E4,false,Rx,0,8,02,00,85,00,00,00,00,10,
126141102,000004DE,false,Tx,0,8,02,00,00,00,00,00,00,00,
126215507,000004E4,false,Rx,0,8,02,00,85,00,00,00,00,10,
126265348,000004DE,false,Tx,0,8,02,00,00,00,00,00,00,00,
126315499,000004E4,false,Rx,0,8,02,00,85,00,00,00,00,10,
126357153,000004DE,false,Tx,0,8,02,00,00,00,00,00,00,00,
126415498,000004E4,false,Rx,0,8,02,00,85,00,00,00,00,10,
126466592,000004DE,false,Tx,0,8,02,00,00,00,00,00,00,00,
126515497,000004E4,false,Rx,0,8,02,00,85,00,00,00,00,10,
126577380,000004DE,false,Tx,0,8,02,00,00,00,00,00,00,00,
126615497,000004E4,false,Rx,0,8,02,00,85,00,00,00,00,10,
126685381,000004DE,false,Tx,0,8,02,00,00,00,00,00,00,00,
126715496,000004E4,false,Rx,0,8,02,00,85,00,00,00,00,10,
126795763,000004DE,false,Tx,0,8,02,00,00,00,00,00,00,00,
126815521,000004E4,false,Rx,0,8,02,00,85,00,00,00,00,10,
126905236,000004DE,false,Tx,0,8,02,00,00,00,00,00,00,00,
126915521,000004E4,false,Rx,0,8,02,00,85,00,00,00,00,10,
127004606,000004DE,false,Tx,0,8,02,00,00,00,00,00,00,00,
127015511,000004E4,false,Rx,0,8,02,00,85,00,00,00,00,10,
127115503,000004E4,false,Rx,0,8,02,00,85,00,00,00,00,10,
127117200,000004DE,false,Tx,0,8,02,00,00,00,00,00,00,00,
127215503,000004E4,false,Rx,0,8,02,00,85,00,00,00,00,10,
127227520,000004DE,false,Tx,0,8,02,00,00,00,00,00,00,00,
127315506,000004E4,false,Rx,0,8,02,00,85,00,00,00,00,10,
127337236,000004DE,false,Tx,0,8,02,00,00,00,00,00,00,00,
127415776,000004E4,false,Rx,0,8,02,00,85,00,06,00,00,10,
127446747,000004DE,false,Tx,0,8,02,00,00,00,00,00,00,00,
127515765,000004E4,false,Rx,0,8,02,04,85,00,0B,02,00,10,
127548838,000004DE,false,Tx,0,8,02,00,00,00,00,00,00,00,
127615766,000004E4,false,Rx,0,8,02,0C,85,00,0E,04,00,10,
127664520,000004DE,false,Tx,0,8,02,00,00,00,00,00,00,00,
127715766,000004E4,false,Rx,0,8,00,13,85,00,11,05,00,00,
127803123,000004DE,false,Tx,0,8,02,00,00,00,00,00,00,00,
127815756,000004E4,false,Rx,0,8,00,1A,85,00,14,07,00,00,
127885973,000004DE,false,Tx,0,8,02,00,00,00,00,00,00,00,
127915755,000004E4,false,Rx,0,8,00,20,85,00,17,08,00,00,
128003123,000004DE,false,Tx,0,8,02,00,00,00,00,00,00,00,
128015735,000004E4,false,Rx,0,8,00,30,85,00,19,08,00,00,
128106698,000004DE,false,Tx,0,8,02,00,00,00,00,00,00,00,
128115787,000004E4,false,Rx,0,8,00,34,85,00,18,06,00,00,
128216174,000004DE,false,Tx,0,8,02,00,00,00,00,00,00,00,
128215787,000004E4,false,Rx,0,8,00,33,85,00,18,04,00,00,
128315943,000004E4,false,Rx,0,8,00,34,85,00,19,03,00,00,
128317216,000004DE,false,Tx,0,8,04,00,00,00,00,00,00,00,
128415942,000004E4,false,Rx,0,8,00,35,85,00,1A,02,00,00,
128434981,000004DE,false,Tx,0,8,04,00,00,00,00,00,00,00,
128515933,000004E4,false,Rx,0,8,00,36,85,00,1C,02,00,00,
128540613,000004DE,false,Tx,0,8,04,00,00,00,00,00,00,00,
128615923,000004E4,false,Rx,0,8,00,37,85,00,1D,01,00,00,
128651708,000004DE,false,Tx,0,8,04,00,00,00,00,00,00,00,
128715911,000004E4,false,Rx,0,8,00,38,85,00,1E,01,00,00,
128761659,000004DE,false,Tx,0,8,04,00,00,00,00,00,00,00,
128815963,000004E4,false,Rx,0,8,00,38,85,00,1F,01,00,00,
128871116,000004DE,false,Tx,0,8,04,00,00,00,00,00,00,00,
128915963,000004E4,false,Rx,0,8,00,39,85,00,20,01,00,00,
128981150,000004DE,false,Tx,0,8,04,00,00,00,00,00,00,00,
129015954,000004E4,false,Rx,0,8,00,54,85,00,20,00,00,00,
129090173,000004DE,false,Tx,0,8,04,00,00,00,00,00,00,00,
129115943,000004E4,false,Rx,0,8,00,5D,85,00,20,00,00,00,
129198200,000004DE,false,Tx,0,8,04,00,00,00,00,00,00,00,
129215932,000004E4,false,Rx,0,8,00,5E,85,00,20,00,00,00,
129306866,000004DE,false,Tx,0,8,04,00,00,00,00,00,00,00,
129315936,000004E4,false,Rx,0,8,00,5E,85,00,21,00,00,00,
129415701,000004DE,false,Tx,0,8,04,00,00,00,00,00,00,00,
129415919,000004E4,false,Rx,0,8,00,5E,85,00,21,00,00,00,
129515974,000004E4,false,Rx,0,8,00,5E,85,00,21,00,00,00,
129529938,000004DE,false,Tx,0,8,04,00,00,00,00,00,00,00,
129615968,000004E4,false,Rx,0,8,00,5D,85,00,20,00,00,00,
129633772,000004DE,false,Tx,0,8,04,00,00,00,00,00,00,00,
129715961,000004E4,false,Rx,0,8,00,5D,85,00,20,00,00,00,
129758137,000004DE,false,Tx,0,8,04,00,00,00,00,00,00,00,
129815952,000004E4,false,Rx,0,8,00,5D,85,00,20,00,00,00,
129850787,000004DE,false,Tx,0,8,04,00,00,00,00,00,00,00,
129915942,000004E4,false,Rx,0,8,00,5C,85,00,20,00,00,00,
129958885,000004DE,false,Tx,0,8,04,00,00,00,00,00,00,00,
130015942,000004E4,false,Rx,0,8,00,5C,85,00,20,00,00,00,
130067686,000004DE,false,Tx,0,8,04,00,00,00,00,00,00,00,
130115995,000004E4,false,Rx,0,8,00,5B,85,00,20,00,00,00,
130176181,000004DE,false,Tx,0,8,04,00,00,00,00,00,00,00,
130215984,000004E4,false,Rx,0,8,00,5B,85,00,20,00,00,00,
130306546,000004DE,false,Tx,0,8,04,00,00,00,00,00,00,00,
130315974,000004E4,false,Rx,0,8,00,5B,85,00,20,00,00,00,
130391853,000004DE,false,Tx,0,8,04,00,00,00,00,00,00,00,
130415964,000004E4,false,Rx,0,8,00,5B,85,00,20,00,00,00,
130516085,000004DE,false,Tx,0,8,04,00,00,00,00,00,00,00,
130515964,000004E4,false,Rx,0,8,00,5A,85,00,1F,00,00,00,
130615954,000004E4,false,Rx,0,8,00,59,85,00,1F,00,00,00,
130617561,000004DE,false,Tx,0,8,04,00,00,00,00,00,00,00,
130715953,000004E4,false,Rx,0,8,00,59,85,00,1F,00,00,00,
130733794,000004DE,false,Tx,0,8,04,00,00,00,00,00,00,00,
130816006,000004E4,false,Rx,0,8,00,59,85,00,1F,00,00,00,
130842886,000004DE,false,Tx,0,8,04,00,00,00,00,00,00,00,
130915995,000004E4,false,Rx,0,8,00,59,85,00,1F,00,00,00,
130951049,000004DE,false,Tx,0,8,04,00,00,00,00,00,00,00,
131015985,000004E4,false,Rx,0,8,00,58,85,00,1F,00,00,00,
131057488,000004DE,false,Tx,0,8,04,00,00,00,00,00,00,00,
131115973,000004E4,false,Rx,0,8,00,58,85,00,1F,00,00,00,
131168775,000004DE,false,Tx,0,8,04,00,00,00,00,00,00,00,
131215962,000004E4,false,Rx,0,8,00,58,85,00,1E,00,00,00,
131300538,000004DE,false,Tx,0,8,04,00,00,00,00,00,00,00,
131315964,000004E4,false,Rx,0,8,00,57,85,00,1E,00,00,00,
131386373,000004DE,false,Tx,0,8,04,00,00,00,00,00,00,00,
131416016,000004E4,false,Rx,0,8,00,58,85,00,1E,00,00,00,
131508845,000004DE,false,Tx,0,8,04,00,00,00,00,00,00,00,
131516005,000004E4,false,Rx,0,8,00,58,85,00,1E,00,00,00,
131602809,000004DE,false,Tx,0,8,04,00,00,00,00,00,00,00,
131615995,000004E4,false,Rx,0,8,00,58,85,00,1E,00,00,00,
131711059,000004DE,false,Tx,0,8,04,00,00,00,00,00,00,00,
131715994,000004E4,false,Rx,0,8,00,57,85,00,1E,00,00,00,
131815985,000004E4,false,Rx,0,8,00,57,85,00,1E,00,00,00,
131817024,000004DE,false,Tx,0,8,04,00,00,00,00,00,00,00,
131915974,000004E4,false,Rx,0,8,00,57,85,00,1E,00,00,00,
131929828,000004DE,false,Tx,0,8,04,00,00,00,00,00,00,00,
132015974,000004E4,false,Rx,0,8,00,57,85,00,1E,00,00,00,
132043402,000004DE,false,Tx,0,8,04,00,00,00,00,00,00,00,
132116030,000004E4,false,Rx,0,8,00,56,85,00,1E,00,00,00,
132148630,000004DE,false,Tx,0,8,04,00,00,00,00,00,00,00,
132216013,000004E4,false,Rx,0,8,00,56,85,00,1E,00,00,00,
132256719,000004DE,false,Tx,0,8,04,00,00,00,00,00,00,00,
132316004,000004E4,false,Rx,0,8,02,55,85,00,1E,00,00,10,
132365765,000004DE,false,Tx,0,8,04,00,00,00,00,00,00,00,
132415995,000004E4,false,Rx,0,8,02,4C,85,00,1B,00,00,10,
132474509,000004DE,false,Tx,0,8,04,00,00,00,00,00,00,00,
132516047,000004E4,false,Rx,0,8,02,3F,85,00,16,00,00,10,
132584677,000004DE,false,Tx,0,8,04,00,00,00,00,00,00,00,
132616036,000004E4,false,Rx,0,8,02,32,85,00,12,00,00,10,
132693464,000004DE,false,Tx,0,8,04,00,00,00,00,00,00,00,
132716025,000004E4,false,Rx,0,8,02,25,85,00,0E,00,00,10,
132801897,000004DE,false,Tx,0,8,04,00,00,00,00,00,00,00,
132815614,000004E4,false,Rx,0,8,02,06,85,00,02,00,00,10,
132911395,000004DE,false,Tx,0,8,04,00,00,00,00,00,00,00,
132915615,000004E4,false,Rx,0,8,02,00,85,00,00,00,00,10,
133015610,000004E4,false,Rx,0,8,02,00,85,00,00,00,00,10,
133020785,000004DE,false,Tx,0,8,04,00,00,00,00,00,00,00,
133115611,000004E4,false,Rx,0,8,02,00,85,00,00,00,00,10,
133128178,000004DE,false,Tx,0,8,04,00,00,00,00,00,00,00,
133215610,000004E4,false,Rx,0,8,02,00,85,00,00,00,00,10,
133254499,000004DE,false,Tx,0,8,04,00,00,00,00,00,00,00,
133315610,000004E4,false,Rx,0,8,02,00,85,00,00,00,00,10,
133346066,000004DE,false,Tx,0,8,04,00,00,00,00,00,00,00,
133415631,000004E4,false,Rx,0,8,02,00,85,00,00,00,00,10,
133454559,000004DE,false,Tx,0,8,04,00,00,00,00,00,00,00,
133515630,000004E4,false,Rx,0,8,02,00,85,00,00,00,00,10,
133564558,000004DE,false,Tx,0,8,04,00,00,00,00,00,00,00,
133615621,000004E4,false,Rx,0,8,02,00,85,00,00,00,00,10,
133687514,000004DE,false,Tx,0,8,04,00,00,00,00,00,00,00,
133715621,000004E4,false,Rx,0,8,02,00,85,00,00,00,00,10,
133807820,000004DE,false,Tx,0,8,04,00,00,00,00,00,00,00,
133815624,000004E4,false,Rx,0,8,02,00,85,00,00,00,00,10,
133892775,000004DE,false,Tx,0,8,04,00,00,00,00,00,00,00,
133915620,000004E4,false,Rx,0,8,02,00,85,00,00,00,00,10,
134015643,000004E4,false,Rx,0,8,02,00,85,00,00,00,00,10,
134032865,000004DE,false,Tx,0,8,04,00,00,00,00,00,00,00,
134115645,000004E4,false,Rx,0,8,02,00,85,00,00,00,00,10,
134118428,000004DE,false,Tx,0,8,04,00,00,00,00,00,00,00,
134215635,000004E4,false,Rx,0,8,02,00,85,00,00,00,00,10,
134232355,000004DE,false,Tx,0,8,04,00,00,00,00,00,00,00,
134315875,000004E4,false,Rx,0,8,02,00,85,00,02,00,00,10,
134342130,000004DE,false,Tx,0,8,04,00,00,00,00,00,00,00,
134415864,000004E4,false,Rx,0,8,02,03,85,00,0A,01,00,10,
134451188,000004DE,false,Tx,0,8,04,00,00,00,00,00,00,00,
134515854,000004E4,false,Rx,0,8,02,09,85,00,0D,03,00,10,
134584085,000004DE,false,Tx,0,8,04,00,00,00,00,00,00,00,
134615855,000004E4,false,Rx,0,8,02,0F,85,00,10,05,00,10,
134668792,000004DE,false,Tx,0,8,04,00,00,00,00,00,00,00,
134715899,000004E4,false,Rx,0,8,00,17,85,00,12,06,00,00,
134777667,000004DE,false,Tx,0,8,04,00,00,00,00,00,00,00,
134815890,000004E4,false,Rx,0,8,00,1E,85,00,16,08,00,00,
134886366,000004DE,false,Tx,0,8,04,00,00,00,00,00,00,00,
134915886,000004E4,false,Rx,0,8,00,28,85,00,18,09,00,00,
134994884,000004DE,false,Tx,0,8,04,00,00,00,00,00,00,00,
135015879,000004E4,false,Rx,0,8,00,34,85,00,19,07,00,00,
135103206,000004DE,false,Tx,0,8,04,00,00,00,00,00,00,00,
135115869,000004E4,false,Rx,0,8,00,33,85,00,18,05,00,00,
135211136,000004DE,false,Tx,0,8,04,00,00,00,00,00,00,00,
135216024,000004E4,false,Rx,0,8,00,33,85,00,18,03,00,00,
135316081,000004E4,false,Rx,0,8,00,34,85,00,19,03,00,00,
135317069,000004DE,false,Tx,0,8,04,00,00,00,00,00,00,00,
135416072,000004E4,false,Rx,0,8,00,36,85,00,1B,02,00,00,
135428495,000004DE,false,Tx,0,8,04,00,00,00,00,00,00,00,
135516061,000004E4,false,Rx,0,8,00,37,85,00,1D,01,00,00,
135573845,000004DE,false,Tx,0,8,04,00,00,00,00,00,00,00,
135616056,000004E4,false,Rx,0,8,00,38,85,00,1E,01,00,00,
135647310,000004DE,false,Tx,0,8,04,00,00,00,00,00,00,00,
135716052,000004E4,false,Rx,0,8,00,39,85,00,1F,01,00,00,
135771238,000004DE,false,Tx,0,8,04,00,00,00,00,00,00,00,
135816052,000004E4,false,Rx,0,8,00,39,85,00,20,01,00,00,
135865096,000004DE,false,Tx,0,8,04,00,00,00,00,00,00,00,
135916041,000004E4,false,Rx,0,8,00,43,85,00,21,00,00,00,
135973558,000004DE,false,Tx,0,8,04,00,00,00,00,00,00,00,
136016082,000004E4,false,Rx,0,8,00,5E,85,00,21,00,00,00,
136082824,000004DE,false,Tx,0,8,04,00,00,00,00,00,00,00,
136116083,000004E4,false,Rx,0,8,00,5F,85,00,21,00,00,00,
136192167,000004DE,false,Tx,0,8,04,00,00,00,00,00,00,00,
136216073,000004E4,false,Rx,0,8,00,5F,85,00,21,00,00,00,
136316076,000004E4,false,Rx,0,8,00,5E,85,00,21,00,00,00,
136322901,000004DE,false,Tx,0,8,04,00,00,00,00,00,00,00,
136408357,000004DE,false,Tx,0,8,04,00,00,00,00,00,00,00,
136416067,000004E4,false,Rx,0,8,00,5E,85,00,21,00,00,00,
136516056,000004E4,false,Rx,0,8,00,5E,85,00,21,00,00,00,
136530468,000004DE,false,Tx,0,8,04,00,00,00,00,00,00,00,
136616051,000004E4,false,Rx,0,8,00,5E,85,00,21,00,00,00,
136626430,000004DE,false,Tx,0,8,04,00,00,00,00,00,00,00,
136716094,000004E4,false,Rx,0,8,00,5E,85,00,20,00,00,00,
136735996,000004DE,false,Tx,0,8,04,00,00,00,00,00,00,00,
136816097,000004E4,false,Rx,0,8,00,5D,85,00,20,00,00,00,
136858445,000004DE,false,Tx,0,8,04,00,00,00,00,00,00,00,
136916086,000004E4,false,Rx,0,8,00,5C,85,00,20,00,00,00,
136967160,000004DE,false,Tx,0,8,04,00,00,00,00,00,00,00,
137016077,000004E4,false,Rx,0,8,00,5C,85,00,20,00,00,00,
137074510,000004DE,false,Tx,0,8,04,00,00,00,00,00,00,00,
137116068,000004E4,false,Rx,0,8,00,5C,85,00,20,00,00,00,
137185027,000004DE,false,Tx,0,8,04,00,00,00,00,00,00,00,
137216068,000004E4,false,Rx,0,8,00,5C,85,00,20,00,00,00,
137294049,000004DE,false,Tx,0,8,04,00,00,00,00,00,00,00,
137316109,000004E4,false,Rx,0,8,00,5B,85,00,20,00,00,00,
137402876,000004DE,false,Tx,0,8,04,00,00,00,00,00,00,00,
137416108,000004E4,false,Rx,0,8,00,5A,85,00,1F,00,00,00,
137510733,000004DE,false,Tx,0,8,04,00,00,00,00,00,00,00,
137516099,000004E4,false,Rx,0,8,00,59,85,00,1F,00,00,00,
137616088,000004E4,false,Rx,0,8,00,58,85,00,1F,00,00,00,
137617622,000004DE,false,Tx,0,8,04,00,00,00,00,00,00,00,
137716088,000004E4,false,Rx,0,8,00,58,85,00,1F,00,00,00,
137727023,000004DE,false,Tx,0,8,04,00,00,00,00,00,00,00,
137816078,000004E4,false,Rx,0,8,00,57,85,00,1E,00,00,00,
137836661,000004DE,false,Tx,0,8,04,00,00,00,00,00,00,00,
137916077,000004E4,false,Rx,0,8,00,57,85,00,1E,00,00,00,
137944808,000004DE,false,Tx,0,8,04,00,00,00,00,00,00,00,
138016119,000004E4,false,Rx,0,8,00,57,85,00,1E,00,00,00,
138066583,000004DE,false,Tx,0,8,04,00,00,00,00,00,00,00,
138116109,000004E4,false,Rx,0,8,00,57,85,00,1E,00,00,00,
138163796,000004DE,false,Tx,0,8,04,00,00,00,00,00,00,00,
138216107,000004E4,false,Rx,0,8,00,57,85,00,1E,00,00,00,
138289051,000004DE,false,Tx,0,8,04,00,00,00,00,00,00,00,
138316099,000004E4,false,Rx,0,8,00,57,85,00,1E,00,00,00,
138381927,000004DE,false,Tx,0,8,04,00,00,00,00,00,00,00,
138416098,000004E4,false,Rx,0,8,00,57,85,00,1E,00,00,00,
138491329,000004DE,false,Tx,0,8,04,00,00,00,00,00,00,00,
138516088,000004E4,false,Rx,0,8,00,57,85,00,1E,00,00,00,
138599882,000004DE,false,Tx,0,8,04,00,00,00,00,00,00,00,
138616129,000004E4,false,Rx,0,8,00,56,85,00,1E,00,00,00,
138708108,000004DE,false,Tx,0,8,04,00,00,00,00,00,00,00,
138716139,000004E4,false,Rx,0,8,00,56,85,00,1E,00,00,00,
138816120,000004E4,false,Rx,0,8,00,55,85,00,1E,00,00,00,
138830433,000004DE,false,Tx,0,8,04,00,00,00,00,00,00,00,
138916119,000004E4,false,Rx,0,8,00,55,85,00,1E,00,00,00,
138925295,000004DE,false,Tx,0,8,04,00,00,00,00,00,00,00,
139016109,000004E4,false,Rx,0,8,00,55,85,00,1D,00,00,00,
139061948,000004DE,false,Tx,0,8,04,00,00,00,00,00,00,00,
139116109,000004E4,false,Rx,0,8,00,55,85,00,1D,00,00,00,
139141919,000004DE,false,Tx,0,8,04,00,00,00,00,00,00,00,
139216098,000004E4,false,Rx,0,8,02,55,85,00,1D,00,00,10,
139251954,000004DE,false,Tx,0,8,08,00,00,00,00,00,00,00,
139316141,000004E4,false,Rx,0,8,02,50,85,00,1C,00,00,10,
139361304,000004DE,false,Tx,0,8,08,00,00,00,00,00,00,00,
139416130,000004E4,false,Rx,0,8,02,44,85,00,18,00,00,10,
139469874,000004DE,false,Tx,0,8,08,00,00,00,00,00,00,00,
139516128,000004E4,false,Rx,0,8,02,36,85,00,13,00,00,10,
139585993,000004DE,false,Tx,0,8,08,00,00,00,00,00,00,00,
139616129,000004E4,false,Rx,0,8,02,29,85,00,0F,00,00,10,
139689192,000004DE,false,Tx,0,8,08,00,00,00,00,00,00,00,
139715715,000004E4,false,Rx,0,8,02,12,85,00,06,00,00,10,
139815726,000004E4,false,Rx,0,8,02,01,85,00,00,00,00,10,
139825415,000004DE,false,Tx,0,8,08,00,00,00,00,00,00,00,
139915745,000004E4,false,Rx,0,8,02,00,85,00,00,00,00,10,
139917488,000004DE,false,Tx,0,8,08,00,00,00,00,00,00,00,
140015745,000004E4,false,Rx,0,8,02,00,85,00,00,00,00,10,
140033598,000004DE,false,Tx,0,8,08,00,00,00,00,00,00,00,
140115739,000004E4,false,Rx,0,8,02,00,85,00,00,00,00,10,
140140512,000004DE,false,Tx,0,8,08,00,00,00,00,00,00,00,
140215735,000004E4,false,Rx,0,8,02,00,85,00,00,00,00,10,
140235990,000004DE,false,Tx,0,8,08,00,00,00,00,00,00,00,
140315736,000004E4,false,Rx,0,8,02,00,85,00,00,00,00,10,
140344843,000004DE,false,Tx,0,8,08,00,00,00,00,00,00,00,
140415734,000004E4,false,Rx,0,8,02,00,85,00,00,00,00,10,
140467360,000004DE,false,Tx,0,8,08,00,00,00,00,00,00,00,
140515734,000004E4,false,Rx,0,8,02,00,85,00,00,00,00,10,
140574367,000004DE,false,Tx,0,8,08,00,00,00,00,00,00,00,
140615756,000004E4,false,Rx,0,8,02,00,85,00,00,00,00,10,
140684875,000004DE,false,Tx,0,8,08,00,00,00,00,00,00,00,
140715756,000004E4,false,Rx,0,8,02,00,85,00,00,00,00,10,
140793799,000004DE,false,Tx,0,8,08,00,00,00,00,00,00,00,
140815745,000004E4,false,Rx,0,8,02,00,85,00,00,00,00,10,
140902454,000004DE,false,Tx,0,8,08,00,00,00,00,00,00,00,
140915745,000004E4,false,Rx,0,8,02,00,85,00,00,00,00,10,
141011202,000004DE,false,Tx,0,8,08,00,00,00,00,00,00,00,
141015745,000004E4,false,Rx,0,8,02,00,85,00,00,00,00,10,
141115749,000004E4,false,Rx,0,8,02,00,85,00,00,00,00,10,
141117181,000004DE,false,Tx,0,8,08,00,00,00,00,00,00,00,
141215767,000004E4,false,Rx,0,8,02,00,85,00,00,00,00,10,
141220376,000004DE,false,Tx,0,8,08,00,00,00,00,00,00,00,
141316056,000004E4,false,Rx,0,8,02,00,85,00,07,01,00,10,
141331246,000004DE,false,Tx,0,8,08,00,00,00,00,00,00,00,
141416005,000004E4,false,Rx,0,8,02,06,85,00,0C,02,00,10,
141447230,000004DE,false,Tx,0,8,08,00,00,00,00,00,00,00,
141516047,000004E4,false,Rx,0,8,02,0D,85,00,0E,04,00,10,
141569703,000004DE,false,Tx,0,8,08,00,00,00,00,00,00,00,
141615984,000004E4,false,Rx,0,8,00,14,85,00,11,05,00,00,
141665920,000004DE,false,Tx,0,8,08,00,00,00,00,00,00,00,
141715984,000004E4,false,Rx,0,8,00,1A,85,00,14,07,00,00,
141792209,000004DE,false,Tx,0,8,08,00,00,00,00,00,00,00,
141815973,000004E4,false,Rx,0,8,00,20,85,00,18,09,00,00,
141881188,000004DE,false,Tx,0,8,08,00,00,00,00,00,00,00,
141916020,000004E4,false,Rx,0,8,00,32,85,00,19,08,00,00,
141989362,000004DE,false,Tx,0,8,08,00,00,00,00,00,00,00,
142016021,000004E4,false,Rx,0,8,00,34,85,00,18,06,00,00,
142098675,000004DE,false,Tx,0,8,08,00,00,00,00,00,00,00,
142116014,000004E4,false,Rx,0,8,00,33,85,00,18,04,00,00,
142207199,000004DE,false,Tx,0,8,08,00,00,00,00,00,00,00,
142216168,000004E4,false,Rx,0,8,00,34,85,00,19,03,00,00,
142316161,000004E4,false,Rx,0,8,00,35,85,00,1A,02,00,00,
142325444,000004DE,false,Tx,0,8,08,00,00,00,00,00,00,00,
142416161,000004E4,false,Rx,0,8,00,36,85,00,1C,02,00,00,
142424404,000004DE,false,Tx,0,8,08,00,00,00,00,00,00,00,
142516150,000004E4,false,Rx,0,8,00,37,85,00,1D,01,00,00,
142534499,000004DE,false,Tx,0,8,08,00,00,00,00,00,00,00,
142616202,000004E4,false,Rx,0,8,00,38,85,00,1F,01,00,00,
142641675,000004DE,false,Tx,0,8,08,00,00,00,00,00,00,00,
142716192,000004E4,false,Rx,0,8,00,39,85,00,1F,01,00,00,
142765973,000004DE,false,Tx,0,8,08,00,00,00,00,00,00,00,
142816190,000004E4,false,Rx,0,8,00,39,85,00,20,00,00,00,
142860173,000004DE,false,Tx,0,8,08,00,00,00,00,00,00,00,
142916190,000004E4,false,Rx,0,8,00,58,85,00,20,00,00,00,
142971294,000004DE,false,Tx,0,8,08,00,00,00,00,00,00,00,
143016169,000004E4,false,Rx,0,8,00,5C,85,00,20,00,00,00,
143084609,000004DE,false,Tx,0,8,08,00,00,00,00,00,00,00,
143116160,000004E4,false,Rx,0,8,00,5C,85,00,20,00,00,00,
143189217,000004DE,false,Tx,0,8,08,00,00,00,00,00,00,00,
143216213,000004E4,false,Rx,0,8,00,5B,85,00,20,00,00,00,
143298409,000004DE,false,Tx,0,8,08,00,00,00,00,00,00,00,
143316212,000004E4,false,Rx,0,8,00,5B,85,00,20,00,00,00,
143416203,000004E4,false,Rx,0,8,00,5A,85,00,1F,00,00,00,
143418000,000004DE,false,Tx,0,8,08,00,00,00,00,00,00,00,
143516191,000004E4,false,Rx,0,8,00,5A,85,00,1F,00,00,00,
143518052,000004DE,false,Tx,0,8,08,00,00,00,00,00,00,00,
143616194,000004E4,false,Rx,0,8,00,59,85,00,1F,00,00,00,
143640877,000004DE,false,Tx,0,8,08,00,00,00,00,00,00,00,
143716185,000004E4,false,Rx,0,8,00,59,85,00,1F,00,00,00,
143749717,000004DE,false,Tx,0,8,08,00,00,00,00,00,00,00,
143816175,000004E4,false,Rx,0,8,00,58,85,00,1F,00,00,00,
143848798,000004DE,false,Tx,0,8,08,00,00,00,00,00,00,00,
143916229,000004E4,false,Rx,0,8,00,58,85,00,1F,00,00,00,
143968308,000004DE,false,Tx,0,8,08,00,00,00,00,00,00,00,
144016218,000004E4,false,Rx,0,8,00,58,85,00,1E,00,00,00,
144069226,000004DE,false,Tx,0,8,08,00,00,00,00,00,00,00,
144116210,000004E4,false,Rx,0,8,00,58,85,00,1E,00,00,00,
144185861,000004DE,false,Tx,0,8,08,00,00,00,00,00,00,00,
144216202,000004E4,false,Rx,0,8,00,58,85,00,1E,00,00,00,
144310173,000004DE,false,Tx,0,8,08,00,00,00,00,00,00,00,
144316202,000004E4,false,Rx,0,8,00,57,85,00,1E,00,00,00,
144402559,000004DE,false,Tx,0,8,08,00,00,00,00,00,00,00,
144416191,000004E4,false,Rx,0,8,00,57,85,00,1E,00,00,00,
144511881,000004DE,false,Tx,0,8,08,00,00,00,00,00,00,00,
144516232,000004E4,false,Rx,0,8,00,57,85,00,1E,00,00,00,
144616236,000004E4,false,Rx,0,8,00,56,85,00,1E,00,00,00,
144617692,000004DE,false,Tx,0,8,08,00,00,00,00,00,00,00,
144716228,000004E4,false,Rx,0,8,00,56,85,00,1E,00,00,00,
144720800,000004DE,false,Tx,0,8,08,00,00,00,00,00,00,00,
144816217,000004E4,false,Rx,0,8,00,55,85,00,1E,00,00,00,
144840558,000004DE,false,Tx,0,8,08,00,00,00,00,00,00,00,
144916211,000004E4,false,Rx,0,8,00,55,85,00,1D,00,00,00,
144948277,000004DE,false,Tx,0,8,08,00,00,00,00,00,00,00,
145016200,000004E4,false,Rx,0,8,00,54,85,00,1D,00,00,00,
145056973,000004DE,false,Tx,0,8,08,00,00,00,00,00,00,00,
145116203,000004E4,false,Rx,0,8,00,54,85,00,1D,00,00,00,
145166900,000004DE,false,Tx,0,8,08,00,00,00,00,00,00,00,
145216254,000004E4,false,Rx,0,8,00,54,85,00,1D,00,00,00,
145275913,000004DE,false,Tx,0,8,08,00,00,00,00,00,00,00,
145316233,000004E4,false,Rx,0,8,00,53,85,00,1D,00,00,00,
145385643,000004DE,false,Tx,0,8,08,00,00,00,00,00,00,00,
145416233,000004E4,false,Rx,0,8,00,53,85,00,1D,00,00,00,
145493924,000004DE,false,Tx,0,8,08,00,00,00,00,00,00,00,
145516232,000004E4,false,Rx,0,8,00,53,85,00,1D,00,00,00,
145603244,000004DE,false,Tx,0,8,08,00,00,00,00,00,00,00,
145616224,000004E4,false,Rx,0,8,00,52,85,00,1D,00,00,00,
145711841,000004DE,false,Tx,0,8,08,00,00,00,00,00,00,00,
145716212,000004E4,false,Rx,0,8,00,52,85,00,1C,00,00,00,
145816212,000004E4,false,Rx,0,8,00,52,85,00,1C,00,00,00,
145839919,000004DE,false,Tx,0,8,08,00,00,00,00,00,00,00,
145916254,000004E4,false,Rx,0,8,00,52,85,00,1C,00,00,00,
145927504,000004DE,false,Tx,0,8,08,00,00,00,00,00,00,00,
146016253,000004E4,false,Rx,0,8,00,51,85,00,1C,00,00,00,
146051984,000004DE,false,Tx,0,8,08,00,00,00,00,00,00,00,
146116247,000004E4,false,Rx,0,8,00,51,85,00,1C,00,00,00,
146146731,000004DE,false,Tx,0,8,08,00,00,00,00,00,00,00,
146216237,000004E4,false,Rx,0,8,02,4F,85,00,1C,00,00,10,
146256216,000004DE,false,Tx,0,8,08,00,00,00,00,00,00,00,
146316226,000004E4,false,Rx,0,8,02,44,85,00,18,00,00,10,
146364313,000004DE,false,Tx,0,8,08,00,00,00,00,00,00,00,
146416226,000004E4,false,Rx,0,8,02,37,85,00,14,00,00,10,
146472885,000004DE,false,Tx,0,8,08,00,00,00,00,00,00,00,
146516264,000004E4,false,Rx,0,8,02,2A,85,00,0F,00,00,10,
146586906,000004DE,false,Tx,0,8,08,00,00,00,00,00,00,00,
146615842,000004E4,false,Rx,0,8,02,12,85,00,07,00,00,10,
146688629,000004DE,false,Tx,0,8,08,00,00,00,00,00,00,00,
146715854,000004E4,false,Rx,0,8,02,01,85,00,00,00,00,10,
146808462,000004DE,false,Tx,0,8,08,00,00,00,00,00,00,00,
146815848,000004E4,false,Rx,0,8,02,00,85,00,00,00,00,10,
146915849,000004E4,false,Rx,0,8,02,00,85,00,00,00,00,10,
146918919,000004DE,false,Tx,0,8,08,00,00,00,00,00,00,00,
147015848,000004E4,false,Rx,0,8,02,00,85,00,00,00,00,10,
147031688,000004DE,false,Tx,0,8,08,00,00,00,00,00,00,00,
147115870,000004E4,false,Rx,0,8,02,00,85,00,00,00,00,10,
147139795,000004DE,false,Tx,0,8,08,00,00,00,00,00,00,00,
147215870,000004E4,false,Rx,0,8,02,00,85,00,00,00,00,10,
147256426,000004DE,false,Tx,0,8,08,00,00,00,00,00,00,00,
147315861,000004E4,false,Rx,0,8,02,00,85,00,00,00,00,10,
147375088,000004DE,false,Tx,0,8,08,00,00,00,00,00,00,00,
147415860,000004E4,false,Rx,0,8,02,00,85,00,00,00,00,10,
147471923,000004DE,false,Tx,0,8,08,00,00,00,00,00,00,00,
147515860,000004E4,false,Rx,0,8,02,00,85,00,00,00,00,10,
147588108,000004DE,false,Tx,0,8,08,00,00,00,00,00,00,00,
147615860,000004E4,false,Rx,0,8,02,00,85,00,00,00,00,10,
147693276,000004DE,false,Tx,0,8,08,00,00,00,00,00,00,00,
147715861,000004E4,false,Rx,0,8,02,00,85,00,00,00,00,10,
147803842,000004DE,false,Tx,0,8,08,00,00,00,00,00,00,00,
147815881,000004E4,false,Rx,0,8,02,00,85,00,00,00,00,10,
147915881,000004E4,false,Rx,0,8,02,00,85,00,00,00,00,10,
147920755,000004DE,false,Tx,0,8,08,00,00,00,00,00,00,00,
148015870,000004E4,false,Rx,0,8,02,00,85,00,00,00,00,10,
148031361,000004DE,false,Tx,0,8,08,00,00,00,00,00,00,00,
148115870,000004E4,false,Rx,0,8,02,00,85,00,00,00,00,10,
148138022,000004DE,false,Tx,0,8,08,00,00,00,00,00,00,00,
148216150,000004E4,false,Rx,0,8,02,00,85,00,03,00,00,10,
148241830,000004DE,false,Tx,0,8,08,00,00,00,00,00,00,00,
148316088,000004E4,false,Rx,0,8,02,04,85,00,0B,02,00,10,
148379932,000004DE,false,Tx,0,8,08,00,00,00,00,00,00,00,
148416142,000004E4,false,Rx,0,8,02,0A,85,00,0E,03,00,10,
148458217,000004DE,false,Tx,0,8,08,00,00,00,00,00,00,00,
148516184,000004E4,false,Rx,0,8,02,11,85,00,10,05,00,10,
148593140,000004DE,false,Tx,0,8,08,00,00,00,00,00,00,00,
148616133,000004E4,false,Rx,0,8,00,18,85,00,13,06,00,00,
148673829,000004DE,false,Tx,0,8,08,00,00,00,00,00,00,00,
148716123,000004E4,false,Rx,0,8,00,1F,85,00,16,08,00,00,
148783336,000004DE,false,Tx,0,8,08,00,00,00,00,00,00,00,
148816104,000004E4,false,Rx,0,8,00,2D,85,00,19,09,00,00,
148915892,000004DE,false,Tx,0,8,08,00,00,00,00,00,00,00,
148916293,000004E4,false,Rx,0,8,00,34,85,00,19,06,00,00,
149016107,000004E4,false,Rx,0,8,00,33,85,00,18,05,00,00,
149021356,000004DE,false,Tx,0,8,08,00,00,00,00,00,00,00,
149116314,000004E4,false,Rx,0,8,00,33,85,00,19,03,00,00,
149133413,000004DE,false,Tx,0,8,08,00,00,00,00,00,00,00,
149216304,000004E4,false,Rx,0,8,00,35,85,00,1A,02,00,00,
149237379,000004DE,false,Tx,0,8,08,00,00,00,00,00,00,00,
149316303,000004E4,false,Rx,0,8,00,36,85,00,1B,02,00,00,
149369622,000004DE,false,Tx,0,8,08,00,00,00,00,00,00,00,
149416300,000004E4,false,Rx,0,8,00,37,85,00,1D,01,00,00,
149459777,000004DE,false,Tx,0,8,08,00,00,00,00,00,00,00,
149516290,000004E4,false,Rx,0,8,00,38,85,00,1E,01,00,00,
149591786,000004DE,false,Tx,0,8,08,00,00,00,00,00,00,00,
149616293,000004E4,false,Rx,0,8,00,38,85,00,1F,01,00,00,
149675830,000004DE,false,Tx,0,8,08,00,00,00,00,00,00,00,
149716335,000004E4,false,Rx,0,8,00,39,85,00,20,01,00,00,
149804584,000004DE,false,Tx,0,8,08,00,00,00,00,00,00,00,
149816327,000004E4,false,Rx,0,8,00,4E,85,00,20,00,00,00,
149908864,000004DE,false,Tx,0,8,08,00,00,00,00,00,00,00,
149916317,000004E4,false,Rx,0,8,00,5D,85,00,20,00,00,00,
150016315,000004E4,false,Rx,0,8,00,5D,85,00,20,00,00,00,
150025129,000004DE,false,Tx,0,8,08,00,00,00,00,00,00,00,
150116305,000004E4,false,Rx,0,8,00,5C,85,00,20,00,00,00,
150127942,000004DE,false,Tx,0,8,08,00,00,00,00,00,00,00,
150216305,000004E4,false,Rx,0,8,00,5B,85,00,20,00,00,00,
150239343,000004DE,false,Tx,0,8,10,00,00,00,00,00,00,00,
150316295,000004E4,false,Rx,0,8,00,5B,85,00,20,00,00,00,
150379145,000004DE,false,Tx,0,8,10,00,00,00,00,00,00,00,
150416295,000004E4,false,Rx,0,8,00,5A,85,00,1F,00,00,00,
150477884,000004DE,false,Tx,0,8,10,00,00,00,00,00,00,00,
150516336,000004E4,false,Rx,0,8,00,5A,85,00,1F,00,00,00,
150594897,000004DE,false,Tx,0,8,10,00,00,00,00,00,00,00,
150616326,000004E4,false,Rx,0,8,00,59,85,00,1F,00,00,00,
150701885,000004DE,false,Tx,0,8,10,00,00,00,00,00,00,00,
150716327,000004E4,false,Rx,0,8,00,59,85,00,1F,00,00,00,
150810175,000004DE,false,Tx,0,8,10,00,00,00,00,00,00,00,
150816316,000004E4,false,Rx,0,8,00,58,85,00,1F,00,00,00,
150910946,000004DE,false,Tx,0,8,10,00,00,00,00,00,00,00,
150916305,000004E4,false,Rx,0,8,00,58,85,00,1E,00,00,00,
151016299,000004E4,false,Rx,0,8,00,57,85,00,1E,00,00,00,
151040459,000004DE,false,Tx,0,8,10,00,00,00,00,00,00,00,
151116350,000004E4,false,Rx,0,8,00,57,85,00,1E,00,00,00,
151144625,000004DE,false,Tx,0,8,10,00,00,00,00,00,00,00,
151216340,000004E4,false,Rx,0,8,00,57,85,00,1E,00,00,00,
151264751,000004DE,false,Tx,0,8,10,00,00,00,00,00,00,00,
151316330,000004E4,false,Rx,0,8,00,56,85,00,1E,00,00,00,
151369497,000004DE,false,Tx,0,8,10,00,00,00,00,00,00,00,
151416336,000004E4,false,Rx,0,8,00,56,85,00,1E,00,00,00,
151481061,000004DE,false,Tx,0,8,10,00,00,00,00,00,00,00,
151516326,000004E4,false,Rx,0,8,00,56,85,00,1E,00,00,00,
151588266,000004DE,false,Tx,0,8,10,00,00,00,00,00,00,00,
151616315,000004E4,false,Rx,0,8,00,56,85,00,1E,00,00,00,
151698444,000004DE,false,Tx,0,8,10,00,00,00,00,00,00,00,
151716359,000004E4,false,Rx,0,8,00,55,85,00,1E,00,00,00,
151812553,000004DE,false,Tx,0,8,10,00,00,00,00,00,00,00,
151816357,000004E4,false,Rx,0,8,00,55,85,00,1D,00,00,00,
151909523,000004DE,false,Tx,0,8,10,00,00,00,00,00,00,00,
151916347,000004E4,false,Rx,0,8,00,54,85,00,1D,00,00,00,
152016347,000004E4,false,Rx,0,8,00,54,85,00,1D,00,00,00,
152028311,000004DE,false,Tx,0,8,10,00,00,00,00,00,00,00,
152116335,000004E4,false,Rx,0,8,00,54,85,00,1D,00,00,00,
152133407,000004DE,false,Tx,0,8,10,00,00,00,00,00,00,00,
152216337,000004E4,false,Rx,0,8,00,54,85,00,1D,00,00,00,
152244433,000004DE,false,Tx,0,8,10,00,00,00,00,00,00,00,
152316378,000004E4,false,Rx,0,8,00,53,85,00,1D,00,00,00,
152387586,000004DE,false,Tx,0,8,10,00,00,00,00,00,00,00,
152416367,000004E4,false,Rx,0,8,00,53,85,00,1D,00,00,00,
152467014,000004DE,false,Tx,0,8,10,00,00,00,00,00,00,00,
152516367,000004E4,false,Rx,0,8,00,53,85,00,1D,00,00,00,
152584011,000004DE,false,Tx,0,8,10,00,00,00,00,00,00,00,
152616367,000004E4,false,Rx,0,8,00,54,85,00,1D,00,00,00,
152683265,000004DE,false,Tx,0,8,10,00,00,00,00,00,00,00,
152716350,000004E4,false,Rx,0,8,00,54,85,00,1D,00,00,00,
152783717,000004DE,false,Tx,0,8,10,00,00,00,00,00,00,00,
152816348,000004E4,false,Rx,0,8,00,53,85,00,1D,00,00,00,
152911873,000004DE,false,Tx,0,8,10,00,00,00,00,00,00,00,
152916347,000004E4,false,Rx,0,8,00,52,85,00,1D,00,00,00,
153016389,000004E4,false,Rx,0,8,00,52,85,00,1C,00,00,00,
153019852,000004DE,false,Tx,0,8,10,00,00,00,00,00,00,00,
153116378,000004E4,false,Rx,0,8,02,51,85,00,1C,00,00,10,
153131724,000004DE,false,Tx,0,8,10,00,00,00,00,00,00,00,
153216369,000004E4,false,Rx,0,8,02,4A,85,00,1A,00,00,10,
153247057,000004DE,false,Tx,0,8,10,00,00,00,00,00,00,00,
153316370,000004E4,false,Rx,0,8,02,3D,85,00,16,00,00,10,
153383328,000004DE,false,Tx,0,8,10,00,00,00,00,00,00,00,
153416357,000004E4,false,Rx,0,8,02,31,85,00,12,00,00,10,
153484849,000004DE,false,Tx,0,8,10,00,00,00,00,00,00,00,
153516346,000004E4,false,Rx,0,8,02,25,85,00,0D,00,00,10,
153585957,000004DE,false,Tx,0,8,10,00,00,00,00,00,00,00,
153615962,000004E4,false,Rx,0,8,02,06,85,00,02,00,00,10,
153695862,000004DE,false,Tx,0,8,10,00,00,00,00,00,00,00,
153715993,000004E4,false,Rx,0,8,02,00,85,00,00,00,00,10,
153801283,000004DE,false,Tx,0,8,10,00,00,00,00,00,00,00,
153815984,000004E4,false,Rx,0,8,02,00,85,00,00,00,00,10,
153915974,000004E4,false,Rx,0,8,02,00,85,00,00,00,00,10,
153917413,000004DE,false,Tx,0,8,10,00,00,00,00,00,00,00,
154015974,000004E4,false,Rx,0,8,02,00,85,00,00,00,00,10,
154017500,000004DE,false,Tx,0,8,10,00,00,00,00,00,00,00,
154115974,000004E4,false,Rx,0,8,02,00,85,00,00,00,00,10,
154143749,000004DE,false,Tx,0,8,10,00,00,00,00,00,00,00,
154215974,000004E4,false,Rx,0,8,02,00,85,00,00,00,00,10,
154242508,000004DE,false,Tx,0,8,10,00,00,00,00,00,00,00,
154316004,000004E4,false,Rx,0,8,02,00,85,00,00,00,00,10,
154372188,000004DE,false,Tx,0,8,10,00,00,00,00,00,00,00,
154415995,000004E4,false,Rx,0,8,02,00,85,00,00,00,00,10,
154472008,000004DE,false,Tx,0,8,10,00,00,00,00,00,00,00,
154515995,000004E4,false,Rx,0,8,02,00,85,00,00,00,00,10,
154581099,000004DE,false,Tx,0,8,10,00,00,00,00,00,00,00,
154615984,000004E4,false,Rx,0,8,02,00,85,00,00,00,00,10,
154703942,000004DE,false,Tx,0,8,10,00,00,00,00,00,00,00,
154715985,000004E4,false,Rx,0,8,02,00,85,00,00,00,00,10,
154804048,000004DE,false,Tx,0,8,10,00,00,00,00,00,00,00,
154815984,000004E4,false,Rx,0,8,02,00,85,00,00,00,00,10,
154915985,000004E4,false,Rx,0,8,02,00,85,00,00,00,00,10,
154934621,000004DE,false,Tx,0,8,10,00,00,00,00,00,00,00,
155016016,000004E4,false,Rx,0,8,02,00,85,00,00,00,00,10,
155035975,000004DE,false,Tx,0,8,10,00,00,00,00,00,00,00,
155116139,000004E4,false,Rx,0,8,02,00,85,00,00,00,00,10,
155142578,000004DE,false,Tx,0,8,10,00,00,00,00,00,00,00,
155216234,000004E4,false,Rx,0,8,02,01,85,00,09,01,00,10,
155258248,000004DE,false,Tx,0,8,10,00,00,00,00,00,00,00,
155316232,000004E4,false,Rx,0,8,02,08,85,00,0C,03,00,10,
155374258,000004DE,false,Tx,0,8,10,00,00,00,00,00,00,00,
155416233,000004E4,false,Rx,0,8,02,0F,85,00,0F,04,00,10,
155487168,000004DE,false,Tx,0,8,10,00,00,00,00,00,00,00,
155516222,000004E4,false,Rx,0,8,00,15,85,00,12,06,00,00,
155616265,000004E4,false,Rx,0,8,00,1C,85,00,15,07,00,00,
155627341,000004DE,false,Tx,0,8,10,00,00,00,00,00,00,00,
155706249,000004DE,false,Tx,0,8,10,00,00,00,00,00,00,00,
155716257,000004E4,false,Rx,0,8,00,23,85,00,18,09,00,00,
155816257,000004E4,false,Rx,0,8,00,33,85,00,19,07,00,00,
155836649,000004DE,false,Tx,0,8,10,00,00,00,00,00,00,00,
155916249,000004E4,false,Rx,0,8,00,33,85,00,18,05,00,00,
155939318,000004DE,false,Tx,0,8,10,00,00,00,00,00,00,00,
156016416,000004E4,false,Rx,0,8,00,33,85,00,18,04,00,00,
156050815,000004DE,false,Tx,0,8,10,00,00,00,00,00,00,00,
156116407,000004E4,false,Rx,0,8,00,34,85,00,19,03,00,00,
156176228,000004DE,false,Tx,0,8,10,00,00,00,00,00,00,00,
156216397,000004E4,false,Rx,0,8,00,35,85,00,1B,02,00,00,
156292355,000004DE,false,Tx,0,8,10,00,00,00,00,00,00,00,
156316440,000004E4,false,Rx,0,8,00,37,85,00,1C,01,00,00,
156395710,000004DE,false,Tx,0,8,10,00,00,00,00,00,00,00,
156416439,000004E4,false,Rx,0,8,00,37,85,00,1E,01,00,00,
156508063,000004DE,false,Tx,0,8,10,00,00,00,00,00,00,00,
156516430,000004E4,false,Rx,0,8,00,38,85,00,1E,01,00,00,
156616482,000004E4,false,Rx,0,8,00,38,85,00,1F,01,00,00,
156630075,000004DE,false,Tx,0,8,10,00,00,00,00,00,00,00,
156716423,000004E4,false,Rx,0,8,00,39,85,00,20,00,00,00,
156721489,000004DE,false,Tx,0,8,10,00,00,00,00,00,00,00,
156816409,000004E4,false,Rx,0,8,00,5A,85,00,20,00,00,00,
156863854,000004DE,false,Tx,0,8,10,00,00,00,00,00,00,00,
156916408,000004E4,false,Rx,0,8,00,5D,85,00,20,00,00,00,
156945017,000004DE,false,Tx,0,8,10,00,00,00,00,00,00,00,
157016461,000004E4,false,Rx,0,8,00,5D,85,00,20,00,00,00,
157058205,000004DE,false,Tx,0,8,10,00,00,00,00,00,00,00,
157116451,000004E4,false,Rx,0,8,00,5D,85,00,20,00,00,00,
157158554,000004DE,false,Tx,0,8,10,00,00,00,00,00,00,00,
157216441,000004E4,false,Rx,0,8,00,5C,85,00,20,00,00,00,
157278215,000004DE,false,Tx,0,8,10,00,00,00,00,00,00,00,
157316428,000004E4,false,Rx,0,8,00,5B,85,00,20,00,00,00,
157392167,000004DE,false,Tx,0,8,10,00,00,00,00,00,00,00,
157416427,000004E4,false,Rx,0,8,00,5A,85,00,1F,00,00,00,
157494048,000004DE,false,Tx,0,8,10,00,00,00,00,00,00,00,
157516420,000004E4,false,Rx,0,8,00,59,85,00,1F,00,00,00,
157616471,000004E4,false,Rx,0,8,00,59,85,00,1F,00,00,00,
157661917,000004DE,false,Tx,0,8,10,00,00,00,00,00,00,00,
157710486,000004DE,false,Tx,0,8,10,00,00,00,00,00,00,00,
157716469,000004E4,false,Rx,0,8,00,59,85,00,1F,00,00,00,
157816460,000004E4,false,Rx,0,8,00,58,85,00,1F,00,00,00,
157831006,000004DE,false,Tx,0,8,10,00,00,00,00,00,00,00,
157916451,000004E4,false,Rx,0,8,00,58,85,00,1F,00,00,00,
157926232,000004DE,false,Tx,0,8,10,00,00,00,00,00,00,00,
158016444,000004E4,false,Rx,0,8,00,58,85,00,1E,00,00,00,
158054807,000004DE,false,Tx,0,8,10,00,00,00,00,00,00,00,
158116443,000004E4,false,Rx,0,8,00,58,85,00,1F,00,00,00,
158179911,000004DE,false,Tx,0,8,10,00,00,00,00,00,00,00,
158216481,000004E4,false,Rx,0,8,00,58,85,00,1F,00,00,00,
158297714,000004DE,false,Tx,0,8,10,00,00,00,00,00,00,00,
158316474,000004E4,false,Rx,0,8,00,58,85,00,1E,00,00,00,
158400176,000004DE,false,Tx,0,8,10,00,00,00,00,00,00,00,
158416465,000004E4,false,Rx,0,8,00,57,85,00,1E,00,00,00,
158502011,000004DE,false,Tx,0,8,10,00,00,00,00,00,00,00,
158516465,000004E4,false,Rx,0,8,00,57,85,00,1E,00,00,00,
158616465,000004E4,false,Rx,0,8,00,57,85,00,1E,00,00,00,
158634547,000004DE,false,Tx,0,8,10,00,00,00,00,00,00,00,
158716444,000004E4,false,Rx,0,8,00,57,85,00,1E,00,00,00,
158728537,000004DE,false,Tx,0,8,10,00,00,00,00,00,00,00,
158816448,000004E4,false,Rx,0,8,00,56,85,00,1E,00,00,00,
158859401,000004DE,false,Tx,0,8,10,00,00,00,00,00,00,00,
158916490,000004E4,false,Rx,0,8,00,55,85,00,1E,00,00,00,
158945493,000004DE,false,Tx,0,8,10,00,00,00,00,00,00,00,
159016491,000004E4,false,Rx,0,8,00,55,85,00,1E,00,00,00,
159051384,000004DE,false,Tx,0,8,10,00,00,00,00,00,00,00,
159116481,000004E4,false,Rx,0,8,00,54,85,00,1D,00,00,00,
159163550,000004DE,false,Tx,0,8,10,00,00,00,00,00,00,00,
159216471,000004E4,false,Rx,0,8,00,54,85,00,1D,00,00,00,
159282969,000004DE,false,Tx,0,8,10,00,00,00,00,00,00,00,
159316460,000004E4,false,Rx,0,8,00,54,85,00,1D,00,00,00,
159409499,000004DE,false,Tx,0,8,10,00,00,00,00,00,00,00,
159416461,000004E4,false,Rx,0,8,00,54,85,00,1D,00,00,00,
159514188,000004DE,false,Tx,0,8,10,00,00,00,00,00,00,00,
159516453,000004E4,false,Rx,0,8,00,54,85,00,1D,00,00,00,
159615200,000004DE,false,Tx,0,8,10,00,00,00,00,00,00,00,
159616502,000004E4,false,Rx,0,8,00,53,85,00,1D,00,00,00,
159716491,000004E4,false,Rx,0,8,00,53,85,00,1D,00,00,00,
159731251,000004DE,false,Tx,0,8,10,00,00,00,00,00,00,00,
159816482,000004E4,false,Rx,0,8,00,53,85,00,1D,00,00,00,
159830552,000004DE,false,Tx,0,8,10,00,00,00,00,00,00,00,
159916482,000004E4,false,Rx,0,8,00,53,85,00,1D,00,00,00,
159952755,000004DE,false,Tx,0,8,10,00,00,00,00,00,00,00,
160016471,000004E4,false,Rx,0,8,00,53,85,00,1D,00,00,00,
160065539,000004DE,false,Tx,0,8,10,00,00,00,00,00,00,00,
160116470,000004E4,false,Rx,0,8,02,50,85,00,1C,00,00,10,
160183634,000004DE,false,Tx,0,8,10,00,00,00,00,00,00,00,
160216512,000004E4,false,Rx,0,8,02,44,85,00,18,00,00,10,
160284427,000004DE,false,Tx,0,8,10,00,00,00,00,00,00,00,
160316503,000004E4,false,Rx,0,8,02,37,85,00,14,00,00,10,
160399658,000004DE,false,Tx,0,8,10,00,00,00,00,00,00,00,
160416492,000004E4,false,Rx,0,8,02,2A,85,00,0F,00,00,10,
160515732,000004DE,false,Tx,0,8,10,00,00,00,00,00,00,00,
160516088,000004E4,false,Rx,0,8,02,12,85,00,06,00,00,10,
160612813,000004DE,false,Tx,0,8,10,00,00,00,00,00,00,00,
160616087,000004E4,false,Rx,0,8,02,01,85,00,00,00,00,10,
160716088,000004E4,false,Rx,0,8,02,00,85,00,00,00,00,10,
160731947,000004DE,false,Tx,0,8,10,00,00,00,00,00,00,00,
160816088,000004E4,false,Rx,0,8,02,00,85,00,00,00,00,10,
160832023,000004DE,false,Tx,0,8,10,00,00,00,00,00,00,00,
160916118,000004E4,false,Rx,0,8,02,00,85,00,00,00,00,10,
160950692,000004DE,false,Tx,0,8,10,00,00,00,00,00,00,00,
161016109,000004E4,false,Rx,0,8,02,00,85,00,00,00,00,10,
161048040,000004DE,false,Tx,0,8,10,00,00,00,00,00,00,00,
161116099,000004E4,false,Rx,0,8,02,00,85,00,00,00,00,10,
161158823,000004DE,false,Tx,0,8,10,00,00,00,00,00,00,00,
161216097,000004E4,false,Rx,0,8,02,00,85,00,00,00,00,10,
161287366,000004DE,false,Tx,0,8,10,00,00,00,00,00,00,00,
161316097,000004E4,false,Rx,0,8,02,00,85,00,00,00,00,10,
161406882,000004DE,false,Tx,0,8,20,00,00,00,00,00,00,00,
161416106,000004E4,false,Rx,0,8,02,00,85,00,00,00,00,10,
161502292,000004DE,false,Tx,0,8,20,00,00,00,00,00,00,00,
161516130,000004E4,false,Rx,0,8,02,00,85,00,00,00,00,10,
161616119,000004E4,false,Rx,0,8,02,00,85,00,00,00,00,10,
161619280,000004DE,false,Tx,0,8,20,00,00,00,00,00,00,00,
161716119,000004E4,false,Rx,0,8,02,00,85,00,00,00,00,10,
161722389,000004DE,false,Tx,0,8,20,00,00,00,00,00,00,00,
161816112,000004E4,false,Rx,0,8,02,00,85,00,00,00,00,10,
161835824,000004DE,false,Tx,0,8,20,00,00,00,00,00,00,00,
161916108,000004E4,false,Rx,0,8,02,00,85,00,00,00,00,10,
161949686,000004DE,false,Tx,0,8,20,00,00,00,00,00,00,00,
162016109,000004E4,false,Rx,0,8,02,00,85,00,00,00,00,10,
162059830,000004DE,false,Tx,0,8,20,00,00,00,00,00,00,00,
162116378,000004E4,false,Rx,0,8,02,00,85,00,05,00,00,10,
162165727,000004DE,false,Tx,0,8,20,00,00,00,00,00,00,00,
162216376,000004E4,false,Rx,0,8,02,04,85,00,0B,02,00,10,
162267660,000004DE,false,Tx,0,8,20,00,00,00,00,00,00,00,
162316368,000004E4,false,Rx,0,8,02,0C,85,00,0E,04,00,10,
162416368,000004E4,false,Rx,0,8,00,13,85,00,11,05,00,00,
162435137,000004DE,false,Tx,0,8,20,00,00,00,00,00,00,00,
162488574,000004DE,false,Tx,0,8,20,00,00,00,00,00,00,00,
162516367,000004E4,false,Rx,0,8,00,1A,85,00,14,07,00,00,
162604652,000004DE,false,Tx,0,8,20,00,00,00,00,00,00,00,
162616357,000004E4,false,Rx,0,8,00,20,85,00,17,08,00,00,
162704189,000004DE,false,Tx,0,8,20,00,00,00,00,00,00,00,
162716346,000004E4,false,Rx,0,8,00,30,85,00,19,08,00,00,
162816389,000004E4,false,Rx,0,8,00,34,85,00,18,06,00,00,
162821683,000004DE,false,Tx,0,8,20,00,00,00,00,00,00,00,
162916391,000004E4,false,Rx,0,8,00,33,85,00,18,04,00,00,
162952736,000004DE,false,Tx,0,8,20,00,00,00,00,00,00,00,
163016547,000004E4,false,Rx,0,8,00,34,85,00,19,03,00,00,
163038389,000004DE,false,Tx,0,8,20,00,00,00,00,00,00,00,
163116599,000004E4,false,Rx,0,8,00,35,85,00,1A,02,00,00,
163169342,000004DE,false,Tx,0,8,20,00,00,00,00,00,00,00,
163216537,000004E4,false,Rx,0,8,00,36,85,00,1C,02,00,00,
163251401,000004DE,false,Tx,0,8,20,00,00,00,00,00,00,00,
163316537,000004E4,false,Rx,0,8,00,37,85,00,1D,01,00,00,
163360543,000004DE,false,Tx,0,8,20,00,00,00,00,00,00,00,
163416521,000004E4,false,Rx,0,8,00,38,85,00,1F,01,00,00,
163490665,000004DE,false,Tx,0,8,20,00,00,00,00,00,00,00,
163516579,000004E4,false,Rx,0,8,00,38,85,00,1F,01,00,00,
163605807,000004DE,false,Tx,0,8,20,00,00,00,00,00,00,00,
163616573,000004E4,false,Rx,0,8,00,39,85,00,20,01,00,00,
163706700,000004DE,false,Tx,0,8,20,00,00,00,00,00,00,00,
163716552,000004E4,false,Rx,0,8,00,54,85,00,20,00,00,00,
163816552,000004E4,false,Rx,0,8,00,5D,85,00,20,00,00,00,
163820818,000004DE,false,Tx,0,8,20,00,00,00,00,00,00,00,
163916543,000004E4,false,Rx,0,8,00,5E,85,00,20,00,00,00,
163943407,000004DE,false,Tx,0,8,20,00,00,00,00,00,00,00,
164016532,000004E4,false,Rx,0,8,00,5D,85,00,20,00,00,00,
164040520,000004DE,false,Tx,0,8,20,00,00,00,00,00,00,00,
164116534,000004E4,false,Rx,0,8,00,5D,85,00,20,00,00,00,
164168849,000004DE,false,Tx,0,8,20,00,00,00,00,00,00,00,
164216575,000004E4,false,Rx,0,8,00,5C,85,00,20,00,00,00,
164254989,000004DE,false,Tx,0,8,20,00,00,00,00,00,00,00,
164316574,000004E4,false,Rx,0,8,00,5C,85,00,20,00,00,00,
164360166,000004DE,false,Tx,0,8,20,00,00,00,00,00,00,00,
164416564,000004E4,false,Rx,0,8,00,5C,85,00,20,00,00,00,
164474460,000004DE,false,Tx,0,8,20,00,00,00,00,00,00,00,
164516562,000004E4,false,Rx,0,8,00,5B,85,00,20,00,00,00,
164593468,000004DE,false,Tx,0,8,20,00,00,00,00,00,00,00,
164616554,000004E4,false,Rx,0,8,00,5B,85,00,20,00,00,00,
164716544,000004E4,false,Rx,0,8,00,5A,85,00,1F,00,00,00,
164717820,000004DE,false,Tx,0,8,20,00,00,00,00,00,00,00,
164809657,000004DE,false,Tx,0,8,20,00,00,00,00,00,00,00,
164816595,000004E4,false,Rx,0,8,00,5A,85,00,1F,00,00,00,
164916584,000004E4,false,Rx,0,8,00,5A,85,00,1F,00,00,00,
164926604,000004DE,false,Tx,0,8,20,00,00,00,00,00,00,00,
165016585,000004E4,false,Rx,0,8,00,5A,85,00,1F,00,00,00,
165021747,000004DE,false,Tx,0,8,20,00,00,00,00,00,00,00,
165116578,000004E4,false,Rx,0,8,00,59,85,00,1F,00,00,00,
165125735,000004DE,false,Tx,0,8,20,00,00,00,00,00,00,00,
165216576,000004E4,false,Rx,0,8,00,58,85,00,1F,00,00,00,
165245514,000004DE,false,Tx,0,8,20,00,00,00,00,00,00,00,
165316563,000004E4,false,Rx,0,8,00,58,85,00,1F,00,00,00,
165360065,000004DE,false,Tx,0,8,20,00,00,00,00,00,00,00,
165416557,000004E4,false,Rx,0,8,00,58,85,00,1F,00,00,00,
165470505,000004DE,false,Tx,0,8,20,00,00,00,00,00,00,00,
165516606,000004E4,false,Rx,0,8,00,58,85,00,1F,00,00,00,
165568830,000004DE,false,Tx,0,8,20,00,00,00,00,00,00,00,
165616595,000004E4,false,Rx,0,8,00,58,85,00,1F,00,00,00,
165673653,000004DE,false,Tx,0,8,20,00,00,00,00,00,00,00,
165716594,000004E4,false,Rx,0,8,00,57,85,00,1E,00,00,00,
165795180,000004DE,false,Tx,0,8,20,00,00,00,00,00,00,00,
165816584,000004E4,false,Rx,0,8,00,56,85,00,1E,00,00,00,
165891520,000004DE,false,Tx,0,8,20,00,00,00,00,00,00,00,
165916574,000004E4,false,Rx,0,8,00,56,85,00,1E,00,00,00,
166012698,000004DE,false,Tx,0,8,20,00,00,00,00,00,00,00,
166016575,000004E4,false,Rx,0,8,00,55,85,00,1E,00,00,00,
166111944,000004DE,false,Tx,0,8,20,00,00,00,00,00,00,00,
166116558,000004E4,false,Rx,0,8,00,55,85,00,1D,00,00,00,
166216610,000004E4,false,Rx,0,8,00,55,85,00,1D,00,00,00,
166228704,000004DE,false,Tx,0,8,20,00,00,00,00,00,00,00,
166316603,000004E4,false,Rx,0,8,00,55,85,00,1D,00,00,00,
166343474,000004DE,false,Tx,0,8,20,00,00,00,00,00,00,00,
166416603,000004E4,false,Rx,0,8,00,54,85,00,1D,00,00,00,
166454167,000004DE,false,Tx,0,8,20,00,00,00,00,00,00,00,
166516594,000004E4,false,Rx,0,8,00,54,85,00,1D,00,00,00,
166559664,000004DE,false,Tx,0,8,20,00,00,00,00,00,00,00,
166616583,000004E4,false,Rx,0,8,00,53,85,00,1D,00,00,00,
166661635,000004DE,false,Tx,0,8,20,00,00,00,00,00,00,00,
166716583,000004E4,false,Rx,0,8,00,53,85,00,1D,00,00,00,
166776508,000004DE,false,Tx,0,8,20,00,00,00,00,00,00,00,
166816624,000004E4,false,Rx,0,8,00,52,85,00,1D,00,00,00,
166875867,000004DE,false,Tx,0,8,20,00,00,00,00,00,00,00,
166916627,000004E4,false,Rx,0,8,00,52,85,00,1C,00,00,00,
166998171,000004DE,false,Tx,0,8,20,00,00,00,00,00,00,00,
167016605,000004E4,false,Rx,0,8,02,51,85,00,1C,00,00,10,
167098642,000004DE,false,Tx,0,8,20,00,00,00,00,00,00,00,
167116598,000004E4,false,Rx,0,8,02,47,85,00,19,00,00,10,
167213984,000004DE,false,Tx,0,8,20,00,00,00,00,00,00,00,
167216595,000004E4,false,Rx,0,8,02,3B,85,00,15,00,00,10,
167316595,000004E4,false,Rx,0,8,02,2E,85,00,11,00,00,10,
167322754,000004DE,false,Tx,0,8,20,00,00,00,00,00,00,00,
167416638,000004E4,false,Rx,0,8,02,22,85,00,0C,00,00,10,
167446939,000004DE,false,Tx,0,8,20,00,00,00,00,00,00,00,
167516221,000004E4,false,Rx,0,8,02,03,85,00,01,00,00,10,
167546373,000004DE,false,Tx,0,8,20,00,00,00,00,00,00,00,
167616222,000004E4,false,Rx,0,8,02,00,85,00,00,00,00,10,
167646923,000004DE,false,Tx,0,8,20,00,00,00,00,00,00,00,
167716212,000004E4,false,Rx,0,8,02,00,85,00,00,00,00,10,
167754960,000004DE,false,Tx,0,8,20,00,00,00,00,00,00,00,
167816212,000004E4,false,Rx,0,8,02,00,85,00,00,00,00,10,
167869284,000004DE,false,Tx,0,8,20,00,00,00,00,00,00,00,
167916212,000004E4,false,Rx,0,8,02,00,85,00,00,00,00,10,
167986411,000004DE,false,Tx,0,8,20,00,00,00,00,00,00,00,
168016221,000004E4,false,Rx,0,8,02,00,85,00,00,00,00,10,
168093738,000004DE,false,Tx,0,8,20,00,00,00,00,00,00,00,
168116244,000004E4,false,Rx,0,8,02,00,85,00,00,00,00,10,
168201452,000004DE,false,Tx,0,8,20,00,00,00,00,00,00,00,
168216233,000004E4,false,Rx,0,8,02,00,85,00,00,00,00,10,
168301493,000004DE,false,Tx,0,8,20,00,00,00,00,00,00,00,
168316233,000004E4,false,Rx,0,8,02,00,85,00,00,00,00,10,
168410442,000004DE,false,Tx,0,8,20,00,00,00,00,00,00,00,
168416222,000004E4,false,Rx,0,8,02,00,85,00,00,00,00,10,
168516233,000004E4,false,Rx,0,8,02,00,85,00,00,00,00,10,
168520347,000004DE,false,Tx,0,8,20,00,00,00,00,00,00,00,
168616226,000004E4,false,Rx,0,8,02,00,85,00,00,00,00,10,
168633004,000004DE,false,Tx,0,8,20,00,00,00,00,00,00,00,
168716259,000004E4,false,Rx,0,8,02,00,85,00,00,00,00,10,
168758760,000004DE,false,Tx,0,8,20,00,00,00,00,00,00,00,
168816248,000004E4,false,Rx,0,8,02,00,85,00,00,00,00,10,
168849637,000004DE,false,Tx,0,8,20,00,00,00,00,00,00,00,
168916242,000004E4,false,Rx,0,8,02,00,85,00,00,00,00,10,
168962423,000004DE,false,Tx,0,8,20,00,00,00,00,00,00,00,
169016482,000004E4,false,Rx,0,8,02,00,85,00,01,00,00,10,
169066545,000004DE,false,Tx,0,8,20,00,00,00,00,00,00,00,
169116475,000004E4,false,Rx,0,8,02,03,85,00,0A,01,00,10,
169187394,000004DE,false,Tx,0,8,20,00,00,00,00,00,00,00,
169216465,000004E4,false,Rx,0,8,02,09,85,00,0D,03,00,10,
169283957,000004DE,false,Tx,0,8,20,00,00,00,00,00,00,00,
169316465,000004E4,false,Rx,0,8,02,0F,85,00,10,05,00,10,
169403716,000004DE,false,Tx,0,8,20,00,00,00,00,00,00,00,
169416507,000004E4,false,Rx,0,8,00,17,85,00,12,06,00,00,
169516496,000004E4,false,Rx,0,8,00,1E,85,00,16,08,00,00,
169517230,000004DE,false,Tx,0,8,20,00,00,00,00,00,00,00,
169616498,000004E4,false,Rx,0,8,00,28,85,00,18,09,00,00,
169622545,000004DE,false,Tx,0,8,20,00,00,00,00,00,00,00,
169716476,000004E4,false,Rx,0,8,00,34,85,00,19,07,00,00,
169720552,000004DE,false,Tx,0,8,20,00,00,00,00,00,00,00,
169816476,000004E4,false,Rx,0,8,00,33,85,00,18,05,00,00,
169835204,000004DE,false,Tx,0,8,20,00,00,00,00,00,00,00,
169916631,000004E4,false,Rx,0,8,00,33,85,00,18,03,00,00,
169951404,000004DE,false,Tx,0,8,20,00,00,00,00,00,00,00,
170016694,000004E4,false,Rx,0,8,00,34,85,00,19,03,00,00,
170052838,000004DE,false,Tx,0,8,20,00,00,00,00,00,00,00,
170116685,000004E4,false,Rx,0,8,00,36,85,00,1B,02,00,00,
170169168,000004DE,false,Tx,0,8,20,00,00,00,00,00,00,00,
170216673,000004E4,false,Rx,0,8,00,37,85,00,1C,01,00,00,
170275556,000004DE,false,Tx,0,8,20,00,00,00,00,00,00,00,
170316664,000004E4,false,Rx,0,8,00,37,85,00,1E,01,00,00,
170377416,000004DE,false,Tx,0,8,20,00,00,00,00,00,00,00,
170416664,000004E4,false,Rx,0,8,00,38,85,00,1F,01,00,00,
170516655,000004E4,false,Rx,0,8,00,39,85,00,1F,01,00,00,
170539200,000004DE,false,Tx,0,8,20,00,00,00,00,00,00,00,
170606129,000004DE,false,Tx,0,8,20,00,00,00,00,00,00,00,
170616655,000004E4,false,Rx,0,8,00,42,85,00,20,00,00,00,
170706376,000004DE,false,Tx,0,8,20,00,00,00,00,00,00,00,
170716695,000004E4,false,Rx,0,8,00,5C,85,00,20,00,00,00,
170816697,000004E4,false,Rx,0,8,00,5E,85,00,21,00,00,00,
170822133,000004DE,false,Tx,0,8,20,00,00,00,00,00,00,00,
170916687,000004E4,false,Rx,0,8,00,5D,85,00,20,00,00,00,
170937924,000004DE,false,Tx,0,8,20,00,00,00,00,00,00,00,
171016676,000004E4,false,Rx,0,8,00,5D,85,00,20,00,00,00,
171044035,000004DE,false,Tx,0,8,20,00,00,00,00,00,00,00,
171116676,000004E4,false,Rx,0,8,00,5C,85,00,20,00,00,00,
171153999,000004DE,false,Tx,0,8,20,00,00,00,00,00,00,00,
171216668,000004E4,false,Rx,0,8,00,5C,85,00,20,00,00,00,
171292126,000004DE,false,Tx,0,8,20,00,00,00,00,00,00,00,
171316709,000004E4,false,Rx,0,8,00,5C,85,00,20,00,00,00,
171369371,000004DE,false,Tx,0,8,20,00,00,00,00,00,00,00,
171416712,000004E4,false,Rx,0,8,00,5B,85,00,20,00,00,00,
171491988,000004DE,false,Tx,0,8,20,00,00,00,00,00,00,00,
171516703,000004E4,false,Rx,0,8,00,5B,85,00,20,00,00,00,
171584625,000004DE,false,Tx,0,8,20,00,00,00,00,00,00,00,
171616692,000004E4,false,Rx,0,8,00,5B,85,00,1F,00,00,00,
171707250,000004DE,false,Tx,0,8,20,00,00,00,00,00,00,00,
171716683,000004E4,false,Rx,0,8,00,5A,85,00,1F,00,00,00,
171816673,000004E4,false,Rx,0,8,00,5A,85,00,1F,00,00,00,
171822936,000004DE,false,Tx,0,8,20,00,00,00,00,00,00,00,
171916673,000004E4,false,Rx,0,8,00,5A,85,00,1F,00,00,00,
171923008,000004DE,false,Tx,0,8,20,00,00,00,00,00,00,00,
172016724,000004E4,false,Rx,0,8,00,5A,85,00,1F,00,00,00,
172040109,000004DE,false,Tx,0,8,20,00,00,00,00,00,00,00,
172116714,000004E4,false,Rx,0,8,00,5A,85,00,1F,00,00,00,
172155104,000004DE,false,Tx,0,8,20,00,00,00,00,00,00,00,
172216714,000004E4,false,Rx,0,8,00,5A,85,00,1F,00,00,00,
172301681,000004DE,false,Tx,0,8,20,00,00,00,00,00,00,00,
172316704,000004E4,false,Rx,0,8,00,5A,85,00,1F,00,00,00,
172370934,000004DE,false,Tx,0,8,40,00,00,00,00,00,00,00,
172416694,000004E4,false,Rx,0,8,00,59,85,00,1F,00,00,00,
172493222,000004DE,false,Tx,0,8,40,00,00,00,00,00,00,00,
172516694,000004E4,false,Rx,0,8,00,59,85,00,1F,00,00,00,
172589651,000004DE,false,Tx,0,8,40,00,00,00,00,00,00,00,
172616683,000004E4,false,Rx,0,8,00,59,85,00,1F,00,00,00,
172693263,000004DE,false,Tx,0,8,40,00,00,00,00,00,00,00,
172716736,000004E4,false,Rx,0,8,00,59,85,00,1F,00,00,00,
172809186,000004DE,false,Tx,0,8,40,00,00,00,00,00,00,00,
172816725,000004E4,false,Rx,0,8,00,59,85,00,1F,00,00,00,
172909677,000004DE,false,Tx,0,8,40,00,00,00,00,00,00,00,
172916725,000004E4,false,Rx,0,8,00,58,85,00,1F,00,00,00,
173016707,000004E4,false,Rx,0,8,00,58,85,00,1F,00,00,00,
173043555,000004DE,false,Tx,0,8,40,00,00,00,00,00,00,00,
173116697,000004E4,false,Rx,0,8,00,58,85,00,1F,00,00,00,
173125913,000004DE,false,Tx,0,8,40,00,00,00,00,00,00,00,
173216697,000004E4,false,Rx,0,8,00,57,85,00,1E,00,00,00,
173258460,000004DE,false,Tx,0,8,40,00,00,00,00,00,00,00,
173316749,000004E4,false,Rx,0,8,00,56,85,00,1E,00,00,00,
173354752,000004DE,false,Tx,0,8,40,00,00,00,00,00,00,00,
173416739,000004E4,false,Rx,0,8,00,56,85,00,1E,00,00,00,
173457838,000004DE,false,Tx,0,8,40,00,00,00,00,00,00,00,
173516739,000004E4,false,Rx,0,8,00,56,85,00,1E,00,00,00,
173580962,000004DE,false,Tx,0,8,40,00,00,00,00,00,00,00,
173616721,000004E4,false,Rx,0,8,00,55,85,00,1E,00,00,00,
173693252,000004DE,false,Tx,0,8,40,00,00,00,00,00,00,00,
173716720,000004E4,false,Rx,0,8,00,55,85,00,1D,00,00,00,
173811144,000004DE,false,Tx,0,8,40,00,00,00,00,00,00,00,
173816709,000004E4,false,Rx,0,8,00,54,85,00,1D,00,00,00,
173911940,000004DE,false,Tx,0,8,40,00,00,00,00,00,00,00,
173916712,000004E4,false,Rx,0,8,00,53,85,00,1D,00,00,00,
174016754,000004E4,false,Rx,0,8,00,53,85,00,1D,00,00,00,
174029063,000004DE,false,Tx,0,8,40,00,00,00,00,00,00,00,
174116746,000004E4,false,Rx,0,8,00,53,85,00,1D,00,00,00,
174128112,000004DE,false,Tx,0,8,40,00,00,00,00,00,00,00,
174216745,000004E4,false,Rx,0,8,00,53,85,00,1D,00,00,00,
174239593,000004DE,false,Tx,0,8,40,00,00,00,00,00,00,00,
174316734,000004E4,false,Rx,0,8,00,54,85,00,1D,00,00,00,
174351060,000004DE,false,Tx,0,8,40,00,00,00,00,00,00,00,
174416724,000004E4,false,Rx,0,8,00,54,85,00,1D,00,00,00,
174459564,000004DE,false,Tx,0,8,40,00,00,00,00,00,00,00,
174516714,000004E4,false,Rx,0,8,00,54,85,00,1D,00,00,00,
174575892,000004DE,false,Tx,0,8,40,00,00,00,00,00,00,00,
174616766,000004E4,false,Rx,0,8,00,54,85,00,1D,00,00,00,
174686430,000004DE,false,Tx,0,8,40,00,00,00,00,00,00,00,
174716756,000004E4,false,Rx,0,8,00,54,85,00,1D,00,00,00,
174786994,000004DE,false,Tx,0,8,40,00,00,00,00,00,00,00,
174816756,000004E4,false,Rx,0,8,00,54,85,00,1D,00,00,00,
174913243,000004DE,false,Tx,0,8,40,00,00,00,00,00,00,00,
174916745,000004E4,false,Rx,0,8,00,54,85,00,1D,00,00,00,
175016736,000004E4,false,Rx,0,8,00,53,85,00,1D,00,00,00,
175046103,000004DE,false,Tx,0,8,40,00,00,00,00,00,00,00,
175116738,000004E4,false,Rx,0,8,00,53,85,00,1D,00,00,00,
175128747,000004DE,false,Tx,0,8,40,00,00,00,00,00,00,00,
175216726,000004E4,false,Rx,0,8,00,53,85,00,1D,00,00,00,
175245091,000004DE,false,Tx,0,8,40,00,00,00,00,00,00,00,
175316779,000004E4,false,Rx,0,8,00,53,85,00,1D,00,00,00,
175350035,000004DE,false,Tx,0,8,40,00,00,00,00,00,00,00,
175416769,000004E4,false,Rx,0,8,00,53,85,00,1D,00,00,00,
175462896,000004DE,false,Tx,0,8,40,00,00,00,00,00,00,00,
175516769,000004E4,false,Rx,0,8,00,53,85,00,1D,00,00,00,
175612871,000004DE,false,Tx,0,8,40,00,00,00,00,00,00,00,
175616750,000004E4,false,Rx,0,8,00,53,85,00,1D,00,00,00,
175687117,000004DE,false,Tx,0,8,40,00,00,00,00,00,00,00,
175716750,000004E4,false,Rx,0,8,00,52,85,00,1D,00,00,00,
175809654,000004DE,false,Tx,0,8,40,00,00,00,00,00,00,00,
175816750,000004E4,false,Rx,0,8,00,52,85,00,1D,00,00,00,
175899493,000004DE,false,Tx,0,8,40,00,00,00,00,00,00,00,
175916791,000004E4,false,Rx,0,8,00,52,85,00,1D,00,00,00,
176015931,000004DE,false,Tx,0,8,40,00,00,00,00,00,00,00,
176016782,000004E4,false,Rx,0,8,00,52,85,00,1D,00,00,00,
176115586,000004DE,false,Tx,0,8,40,00,00,00,00,00,00,00,
176116782,000004E4,false,Rx,0,8,00,52,85,00,1D,00,00,00,
176216771,000004E4,false,Rx,0,8,00,52,85,00,1D,00,00,00,
176231865,000004DE,false,Tx,0,8,40,00,00,00,00,00,00,00,
176316770,000004E4,false,Rx,0,8,00,52,85,00,1D,00,00,00,
176380420,000004DE,false,Tx,0,8,40,00,00,00,00,00,00,00,
176416760,000004E4,false,Rx,0,8,00,52,85,00,1D,00,00,00,
176463863,000004DE,false,Tx,0,8,40,00,00,00,00,00,00,00,
176516749,000004E4,false,Rx,0,8,00,52,85,00,1D,00,00,00,
176594621,000004DE,false,Tx,0,8,40,00,00,00,00,00,00,00,
176616802,000004E4,false,Rx,0,8,00,52,85,00,1C,00,00,00,
176679512,000004DE,false,Tx,0,8,40,00,00,00,00,00,00,00,
176716803,000004E4,false,Rx,0,8,00,53,85,00,1D,00,00,00,
176795456,000004DE,false,Tx,0,8,40,00,00,00,00,00,00,00,
176816791,000004E4,false,Rx,0,8,00,52,85,00,1D,00,00,00,
176898019,000004DE,false,Tx,0,8,40,00,00,00,00,00,00,00,
176916775,000004E4,false,Rx,0,8,00,52,85,00,1C,00,00,00,
177016772,000004E4,false,Rx,0,8,00,52,85,00,1C,00,00,00,
177018102,000004DE,false,Tx,0,8,40,00,00,00,00,00,00,00,
177116771,000004E4,false,Rx,0,8,00,52,85,00,1C,00,00,00,
177142626,000004DE,false,Tx,0,8,40,00,00,00,00,00,00,00,
177216815,000004E4,false,Rx,0,8,00,51,85,00,1C,00,00,00,
177247980,000004DE,false,Tx,0,8,40,00,00,00,00,00,00,00,
177316812,000004E4,false,Rx,0,8,00,51,85,00,1C,00,00,00,
177375111,000004DE,false,Tx,0,8,40,00,00,00,00,00,00,00,
177416807,000004E4,false,Rx,0,8,00,51,85,00,1C,00,00,00,
177454798,000004DE,false,Tx,0,8,40,00,00,00,00,00,00,00,
177516796,000004E4,false,Rx,0,8,00,51,85,00,1C,00,00,00,
177604008,000004DE,false,Tx,0,8,40,00,00,00,00,00,00,00,
177616785,000004E4,false,Rx,0,8,00,51,85,00,1C,00,00,00,
177696494,000004DE,false,Tx,0,8,40,00,00,00,00,00,00,00,
177716776,000004E4,false,Rx,0,8,00,51,85,00,1C,00,00,00,
177816779,000004E4,false,Rx,0,8,00,51,85,00,1C,00,00,00,
177818593,000004DE,false,Tx,0,8,40,00,00,00,00,00,00,00,
177916823,000004E4,false,Rx,0,8,00,51,85,00,1C,00,00,00,
177919164,000004DE,false,Tx,0,8,40,00,00,00,00,00,00,00,
178016823,000004E4,false,Rx,0,8,00,51,85,00,1C,00,00,00,
178021411,000004DE,false,Tx,0,8,40,00,00,00,00,00,00,00,
178116812,000004E4,false,Rx,0,8,00,51,85,00,1C,00,00,00,
178154501,000004DE,false,Tx,0,8,40,00,00,00,00,00,00,00,
178216812,000004E4,false,Rx,0,8,00,51,85,00,1C,00,00,00,
178235468,000004DE,false,Tx,0,8,40,00,00,00,00,00,00,00,
178316800,000004E4,false,Rx,0,8,00,50,85,00,1C,00,00,00,
178367210,000004DE,false,Tx,0,8,40,00,00,00,00,00,00,00,
178416799,000004E4,false,Rx,0,8,00,50,85,00,1C,00,00,00,
178467321,000004DE,false,Tx,0,8,40,00,00,00,00,00,00,00,
178516840,000004E4,false,Rx,0,8,00,50,85,00,1C,00,00,00,
178573442,000004DE,false,Tx,0,8,40,00,00,00,00,00,00,00,
178616843,000004E4,false,Rx,0,8,00,50,85,00,1C,00,00,00,
178678117,000004DE,false,Tx,0,8,40,00,00,00,00,00,00,00,
178716833,000004E4,false,Rx,0,8,00,50,85,00,1C,00,00,00,
178782690,000004DE,false,Tx,0,8,40,00,00,00,00,00,00,00,
178816823,000004E4,false,Rx,0,8,00,50,85,00,1C,00,00,00,
178916824,000004E4,false,Rx,0,8,00,50,85,00,1C,00,00,00,
178931580,000004DE,false,Tx,0,8,40,00,00,00,00,00,00,00,
179001105,000004DE,false,Tx,0,8,40,00,00,00,00,00,00,00,
179016814,000004E4,false,Rx,0,8,00,50,85,00,1C,00,00,00,
179116803,000004E4,false,Rx,0,8,00,50,85,00,1C,00,00,00,
179148226,000004DE,false,Tx,0,8,40,00,00,00,00,00,00,00,
179216845,000004E4,false,Rx,0,8,00,50,85,00,1C,00,00,00,
179220927,000004DE,false,Tx,0,8,40,00,00,00,00,00,00,00,
179316845,000004E4,false,Rx,0,8,00,50,85,00,1C,00,00,00,
179338432,000004DE,false,Tx,0,8,40,00,00,00,00,00,00,00,
179416836,000004E4,false,Rx,0,8,00,4F,85,00,1C,00,00,00,
179452885,000004DE,false,Tx,0,8,40,00,00,00,00,00,00,00,
179516833,000004E4,false,Rx,0,8,00,4F,85,00,1B,00,00,00,
179547554,000004DE,false,Tx,0,8,40,00,00,00,00,00,00,00,
179616824,000004E4,false,Rx,0,8,00,4F,85,00,1B,00,00,00,
179668764,000004DE,false,Tx,0,8,40,00,00,00,00,00,00,00,
179716814,000004E4,false,Rx,0,8,00,4F,85,00,1B,00,00,00,
179772682,000004DE,false,Tx,0,8,40,00,00,00,00,00,00,00,
179816814,000004E4,false,Rx,0,8,00,4F,85,00,1B,00,00,00,
179899098,000004DE,false,Tx,0,8,40,00,00,00,00,00,00,00,
179916855,000004E4,false,Rx,0,8,00,4E,85,00,1B,00,00,00,
179985120,000004DE,false,Tx,0,8,40,00,00,00,00,00,00,00,
180016855,000004E4,false,Rx,0,8,00,4E,85,00,1B,00,00,00,
180116844,000004E4,false,Rx,0,8,00,4E,85,00,1B,00,00,00,
180135064,000004DE,false,Tx,0,8,40,00,00,00,00,00,00,00,
180216834,000004E4,false,Rx,0,8,00,4E,85,00,1B,00,00,00,
180218376,000004DE,false,Tx,0,8,40,00,00,00,00,00,00,00,
180316835,000004E4,false,Rx,0,8,00,4E,85,00,1B,00,00,00,
180323269,000004DE,false,Tx,0,8,40,00,00,00,00,00,00,00,
180416828,000004E4,false,Rx,0,8,00,4E,85,00,1B,00,00,00,
180422887,000004DE,false,Tx,0,8,40,00,00,00,00,00,00,00,
180516880,000004E4,false,Rx,0,8,00,4F,85,00,1B,00,00,00,
180533177,000004DE,false,Tx,0,8,40,00,00,00,00,00,00,00,
180616874,000004E4,false,Rx,0,8,00,4F,85,00,1B,00,00,00,
180681424,000004DE,false,Tx,0,8,40,00,00,00,00,00,00,00,
180716864,000004E4,false,Rx,0,8,00,4F,85,00,1B,00,00,00,
180754959,000004DE,false,Tx,0,8,40,00,00,00,00,00,00,00,
180816854,000004E4,false,Rx,0,8,00,4E,85,00,1B,00,00,00,
180871185,000004DE,false,Tx,0,8,40,00,00,00,00,00,00,00,
180916843,000004E4,false,Rx,0,8,00,4E,85,00,1B,00,00,00,
180979580,000004DE,false,Tx,0,8,40,00,00,00,00,00,00,00,
181016843,000004E4,false,Rx,0,8,00,4D,85,00,1B,00,00,00,
181083957,000004DE,false,Tx,0,8,40,00,00,00,00,00,00,00,
181116833,000004E4,false,Rx,0,8,00,4D,85,00,1B,00,00,00,
181203272,000004DE,false,Tx,0,8,40,00,00,00,00,00,00,00,
181216885,000004E4,false,Rx,0,8,00,4E,85,00,1B,00,00,00,
181302328,000004DE,false,Tx,0,8,40,00,00,00,00,00,00,00,
181316874,000004E4,false,Rx,0,8,00,4E,85,00,1B,00,00,00,
181416865,000004E4,false,Rx,0,8,00,4E,85,00,1B,00,00,00,
181418618,000004DE,false,Tx,0,8,40,00,00,00,00,00,00,00,
181516865,000004E4,false,Rx,0,8,00,4E,85,00,1B,00,00,00,
181525883,000004DE,false,Tx,0,8,40,00,00,00,00,00,00,00,
181616855,000004E4,false,Rx,0,8,00,4E,85,00,1B,00,00,00,
181679340,000004DE,false,Tx,0,8,40,00,00,00,00,00,00,00,
181716846,000004E4,false,Rx,0,8,00,4E,85,00,1B,00,00,00,
181741477,000004DE,false,Tx,0,8,40,00,00,00,00,00,00,00,
181816897,000004E4,false,Rx,0,8,00,4E,85,00,1B,00,00,00,
181869097,000004DE,false,Tx,0,8,40,00,00,00,00,00,00,00,
