Time Stamp,ID,Extended,Dir,Bus,LEN,D1,D2,D3,D4,D5,D6,D7,D8
4300917954,000004E4,false,Rx,0,8,00,00,85,00,00,00,00,00,
4301018700,000004E4,false,Rx,0,8,00,00,85,00,00,00,00,00,
4301118690,000004E4,false,Rx,0,8,00,00,85,00,00,00,00,00,
4301218689,000004E4,false,Rx,0,8,00,00,85,00,00,00,00,00,
4301318681,000004E4,false,Rx,0,8,00,00,85,00,00,00,00,00,
4301418680,000004E4,false,Rx,0,8,00,00,85,00,00,00,00,00,
4301518690,000004E4,false,Rx,0,8,00,00,85,00,00,00,00,00,
4301618710,000004E4,false,Rx,0,8,00,00,85,00,00,00,00,00,
4301718710,000004E4,false,Rx,0,8,00,00,85,00,00,00,00,00,
4301818702,000004E4,false,Rx,0,8,00,00,85,00,00,00,00,00,
4301918690,000004E4,false,Rx,0,8,00,00,85,00,00,00,00,00,
4302018690,000004E4,false,Rx,0,8,00,00,85,00,00,00,00,00,
4302118700,000004E4,false,Rx,0,8,00,00,85,00,00,00,00,00,
4302218701,000004E4,false,Rx,0,8,00,00,85,00,00,00,00,00,
4302318722,000004E4,false,Rx,0,8,00,00,85,00,00,00,00,00,
4302418711,000004E4,false,Rx,0,8,00,00,85,00,00,00,00,00,
4302518701,000004E4,false,Rx,0,8,00,00,85,00,00,00,00,00,
4302618701,000004E4,false,Rx,0,8,00,00,85,00,00,00,00,00,
4302718701,000004E4,false,Rx,0,8,00,00,85,00,00,00,00,00,
4302818701,000004E4,false,Rx,0,8,00,00,85,00,00,00,00,00,
4302918731,000004E4,false,Rx,0,8,00,00,85,00,00,00,00,00,
4303018969,000004E4,false,Rx,0,8,00,00,85,00,00,00,00,00,
4303118964,000004E4,false,Rx,0,8,00,02,85,00,09,01,00,00,
4303218963,000004E4,false,Rx,0,8,00,09,85,00,0D,03,00,00,
4303318953,000004E4,false,Rx,0,8,00,0F,85,00,0F,04,00,00,
4303418943,000004E4,false,Rx,0,8,00,16,85,00,12,06,00,00,
4303518934,000004E4,false,Rx,0,8,00,1D,85,00,15,07,00,00,
4303618968,000004E4,false,Rx,0,8,00,29,85,00,18,09,00,00,
4303718975,000004E4,false,Rx,0,8,00,47,85,00,19,07,00,00,
4303818964,000004E4,false,Rx,0,8,00,46,85,00,18,05,00,00,
4303919121,000004E4,false,Rx,0,8,00,46,85,00,18,04,00,00,
4304019111,000004E4,false,Rx,0,8,00,4D,85,00,1A,03,00,00,
4304119110,000004E4,false,Rx,0,8,00,56,85,00,1D,02,00,00,
4304219110,000004E4,false,Rx,0,8,00,5E,85,00,20,02,00,00,
4304319152,000004E4,false,Rx,0,8,00,65,85,00,23,01,00,00,
4304419142,000004E4,false,Rx,0,8,00,6B,85,00,25,01,00,00,
4304519131,000004E4,false,Rx,0,8,00,70,85,00,27,01,00,00,
4304619135,000004E4,false,Rx,0,8,00,74,85,00,28,01,00,00,
4304719131,000004E4,false,Rx,0,8,00,78,85,00,2A,01,00,00,
4304819120,000004E4,false,Rx,0,8,00,7A,85,00,2B,01,00,00,
4304919166,000004E4,false,Rx,0,8,00,7D,85,00,2C,01,00,00,
4305019162,000004E4,false,Rx,0,8,00,7F,85,00,2C,01,00,00,
4305119152,000004E4,false,Rx,0,8,00,81,85,00,2D,01,00,00,
4305219141,000004E4,false,Rx,0,8,00,83,85,00,2E,01,00,00,
4305319132,000004E4,false,Rx,0,8,00,85,85,00,2E,01,00,00,
4305419132,000004E4,false,Rx,0,8,00,87,85,00,2F,01,00,00,
4305519121,000004E4,false,Rx,0,8,00,88,85,00,30,01,00,00,
4305619172,000004E4,false,Rx,0,8,00,89,85,00,30,01,00,00,
4305719162,000004E4,false,Rx,0,8,00,89,85,00,30,01,00,00,
4305819163,000004E4,false,Rx,0,8,00,89,85,00,30,01,00,00,
4305919156,000004E4,false,Rx,0,8,00,8A,85,00,30,01,00,00,
4306019142,000004E4,false,Rx,0,8,00,8A,85,00,30,01,00,00,
4306119142,000004E4,false,Rx,0,8,00,89,85,00,30,01,00,00,
4306219182,000004E4,false,Rx,0,8,00,88,85,00,30,01,00,00,
4306319173,000004E4,false,Rx,0,8,00,87,85,00,2F,01,00,00,
4306419167,000004E4,false,Rx,0,8,00,87,85,00,2F,01,00,00,
4306519167,000004E4,false,Rx,0,8,00,85,85,00,2F,01,00,00,
4306619157,000004E4,false,Rx,0,8,00,84,85,00,2E,01,00,00,
4306719146,000004E4,false,Rx,0,8,00,83,85,00,2E,01,00,00,
4306819147,000004E4,false,Rx,0,8,00,81,85,00,2D,00,00,00,
4306919192,000004E4,false,Rx,0,8,00,80,85,00,2D,00,00,00,
4307019178,000004E4,false,Rx,0,8,02,7B,85,00,2B,00,00,10,
4307119167,000004E4,false,Rx,0,8,02,6C,85,00,26,00,00,10,
4307219168,000004E4,false,Rx,0,8,02,5E,85,00,21,00,00,10,
4307319168,000004E4,false,Rx,0,8,02,50,85,00,1C,00,00,10,
4307419147,000004E4,false,Rx,0,8,02,42,85,00,18,00,00,10,
4307519198,000004E4,false,Rx,0,8,02,36,85,00,13,00,00,10,
4307619198,000004E4,false,Rx,0,8,02,2A,85,00,0F,00,00,10,
4307718783,000004E4,false,Rx,0,8,02,17,85,00,09,00,00,10,
4307818772,000004E4,false,Rx,0,8,02,01,85,00,00,00,00,10,
4307918772,000004E4,false,Rx,0,8,02,00,85,00,00,00,00,10,
4308018773,000004E4,false,Rx,0,8,02,00,85,00,00,00,00,10,
4308118773,000004E4,false,Rx,0,8,02,00,85,00,00,00,00,10,
4308218804,000004E4,false,Rx,0,8,02,00,85,00,00,00,00,10,
4308318793,000004E4,false,Rx,0,8,02,00,85,00,00,00,00,10,
4308418784,000004E4,false,Rx,0,8,02,00,85,00,00,00,00,10,
4308518784,000004E4,false,Rx,0,8,02,00,85,00,00,00,00,10,
4308618783,000004E4,false,Rx,0,8,02,00,85,00,00,00,00,10,
4308718784,000004E4,false,Rx,0,8,02,00,85,00,00,00,00,10,
4308818814,000004E4,false,Rx,0,8,02,00,85,00,00,00,00,10,
4308918815,000004E4,false,Rx,0,8,02,00,85,00,00,00,00,10,
4309018814,000004E4,false,Rx,0,8,02,00,85,00,00,00,00,10,
4309119084,000004E4,false,Rx,0,8,02,01,85,00,08,01,00,10,
4309219025,000004E4,false,Rx,0,8,02,07,85,00,0C,03,00,10,
4309319022,000004E4,false,Rx,0,8,02,0E,85,00,0F,04,00,10,
4309419011,000004E4,false,Rx,0,8,02,15,85,00,11,06,00,10,
4309519109,000004E4,false,Rx,0,8,02,1B,85,00,14,07,00,10,
4309619053,000004E4,false,Rx,0,8,02,22,85,00,18,09,00,10,
4309719044,000004E4,false,Rx,0,8,02,45,85,00,19,07,00,10,
4309819044,000004E4,false,Rx,0,8,02,45,85,00,18,05,00,10,
4309919032,000004E4,false,Rx,0,8,02,45,85,00,18,04,00,10,
4310019188,000004E4,false,Rx,0,8,02,4A,85,00,19,03,00,10,
4310119189,000004E4,false,Rx,0,8,02,54,85,00,1C,02,00,10,
4310219239,000004E4,false,Rx,0,8,02,5D,85,00,1F,02,00,10,
4310319229,000004E4,false,Rx,0,8,02,64,85,00,22,01,00,10,
4310419218,000004E4,false,Rx,0,8,02,69,85,00,24,01,00,10,
4310519210,000004E4,false,Rx,0,8,02,6E,85,00,26,01,00,10,
4310619209,000004E4,false,Rx,0,8,02,73,85,00,28,01,00,10,
4310719199,000004E4,false,Rx,0,8,02,77,85,00,29,01,00,10,
4310819250,000004E4,false,Rx,0,8,02,7A,85,00,2A,01,00,10,
4310919240,000004E4,false,Rx,0,8,02,7D,85,00,2C,01,00,10,
4311019231,000004E4,false,Rx,0,8,02,7F,85,00,2C,01,00,10,
4311119219,000004E4,false,Rx,0,8,02,81,85,00,2D,01,00,10,
4311219219,000004E4,false,Rx,0,8,02,83,85,00,2E,01,00,10,
4311319209,000004E4,false,Rx,0,8,02,85,85,00,2E,01,00,10,
4311419208,000004E4,false,Rx,0,8,02,87,85,00,2F,01,00,10,
4311519261,000004E4,false,Rx,0,8,02,88,85,00,30,01,00,10,
4311619250,000004E4,false,Rx,0,8,02,89,85,00,30,01,00,10,
4311719240,000004E4,false,Rx,0,8,02,8A,85,00,30,01,00,10,
4311819240,000004E4,false,Rx,0,8,02,8A,85,00,30,01,00,10,
4311919229,000004E4,false,Rx,0,8,02,8B,85,00,31,01,00,10,
4312019221,000004E4,false,Rx,0,8,02,8A,85,00,30,01,00,10,
4312119271,000004E4,false,Rx,0,8,02,8A,85,00,30,01,00,10,
4312219260,000004E4,false,Rx,0,8,02,89,85,00,30,01,00,10,
4312319260,000004E4,false,Rx,0,8,02,89,85,00,30,01,00,10,
4312419250,000004E4,false,Rx,0,8,02,88,85,00,30,01,00,10,
4312519241,000004E4,false,Rx,0,8,02,87,85,00,2F,00,00,10,
4312619229,000004E4,false,Rx,0,8,02,86,85,00,2F,00,00,10,
4312719229,000004E4,false,Rx,0,8,02,85,85,00,2F,00,00,10,
4312819281,000004E4,false,Rx,0,8,02,84,85,00,2E,00,00,10,
4312919271,000004E4,false,Rx,0,8,02,83,85,00,2E,00,00,10,
4313019264,000004E4,false,Rx,0,8,02,80,85,00,2D,00,00,10,
4313119254,000004E4,false,Rx,0,8,02,74,85,00,28,00,00,10,
4313219297,000004E4,false,Rx,0,8,02,66,85,00,24,00,00,10,
4313319248,000004E4,false,Rx,0,8,02,58,85,00,1F,00,00,10,
4313419235,000004E4,false,Rx,0,8,02,4C,85,00,1B,00,00,10,
4313519287,000004E4,false,Rx,0,8,02,3F,85,00,16,00,00,10,
4313619276,000004E4,false,Rx,0,8,02,34,85,00,12,00,00,10,
4313719275,000004E4,false,Rx,0,8,02,28,85,00,0E,00,00,10,
4313818861,000004E4,false,Rx,0,8,02,01,85,00,01,00,00,10,
4313918861,000004E4,false,Rx,0,8,02,00,85,00,00,00,00,10,
4314018867,000004E4,false,Rx,0,8,02,00,85,00,00,00,00,10,
4314118887,000004E4,false,Rx,0,8,02,00,85,00,00,00,00,10,
4314218877,000004E4,false,Rx,0,8,02,00,85,00,00,00,00,10,
4314318877,000004E4,false,Rx,0,8,02,00,85,00,00,00,00,10,
4314418866,000004E4,false,Rx,0,8,02,00,85,00,00,00,00,10,
4314518869,000004E4,false,Rx,0,8,02,00,85,00,00,00,00,10,
4314618877,000004E4,false,Rx,0,8,02,00,85,00,00,00,00,10,
4314718877,000004E4,false,Rx,0,8,02,00,85,00,00,00,00,10,
4314818891,000004E4,false,Rx,0,8,02,00,85,00,00,00,00,10,
4314918892,000004E4,false,Rx,0,8,02,00,85,00,00,00,00,10,
4315018893,000004E4,false,Rx,0,8,02,00,85,00,00,00,00,10,
4315119121,000004E4,false,Rx,0,8,02,00,85,00,06,01,00,10,
4315219110,000004E4,false,Rx,0,8,02,06,85,00,0C,02,00,10,
4315319104,000004E4,false,Rx,0,8,02,0D,85,00,0E,04,00,10,
4315419147,000004E4,false,Rx,0,8,02,14,85,00,11,05,00,10,
4315519150,000004E4,false,Rx,0,8,02,1A,85,00,14,07,00,10,
4315619136,000004E4,false,Rx,0,8,02,20,85,00,17,08,00,10,
4315719126,000004E4,false,Rx,0,8,02,40,85,00,19,08,00,10,
4315819115,000004E4,false,Rx,0,8,02,46,85,00,18,06,00,10,
4315919116,000004E4,false,Rx,0,8,02,44,85,00,18,04,00,10,
4316019323,000004E4,false,Rx,0,8,02,48,85,00,19,03,00,10,
4316119322,000004E4,false,Rx,0,8,02,52,85,00,1B,02,00,10,
4316219323,000004E4,false,Rx,0,8,02,5B,85,00,1F,02,00,10,
4316319314,000004E4,false,Rx,0,8,02,63,85,00,22,01,00,10,
4316419302,000004E4,false,Rx,0,8,02,6A,85,00,24,01,00,10,
4316519292,000004E4,false,Rx,0,8,02,6F,85,00,26,01,00,10,
4316619285,000004E4,false,Rx,0,8,02,74,85,00,28,01,00,10,
4316719328,000004E4,false,Rx,0,8,02,79,85,00,2A,01,00,10,
4316819329,000004E4,false,Rx,0,8,02,7C,85,00,2B,01,00,10,
4316919318,000004E4,false,Rx,0,8,02,7F,85,00,2C,01,00,10,
4317019317,000004E4,false,Rx,0,8,02,82,85,00,2D,01,00,10,
4317119307,000004E4,false,Rx,0,8,02,84,85,00,2E,01,00,10,
4317219297,000004E4,false,Rx,0,8,02,85,85,00,2F,01,00,10,
4317319299,000004E4,false,Rx,0,8,02,86,85,00,2F,01,00,10,
4317419338,000004E4,false,Rx,0,8,02,87,85,00,2F,01,00,10,
4317519328,000004E4,false,Rx,0,8,02,87,85,00,2F,01,00,10,
4317619331,000004E4,false,Rx,0,8,02,87,85,00,2F,01,00,10,
4317719318,000004E4,false,Rx,0,8,02,87,85,00,2F,01,00,10,
4317819319,000004E4,false,Rx,0,8,02,86,85,00,2F,01,00,10,
4317919307,000004E4,false,Rx,0,8,02,86,85,00,2F,00,00,10,
4318019349,000004E4,false,Rx,0,8,02,86,85,00,2F,00,00,10,
4318119348,000004E4,false,Rx,0,8,02,85,85,00,2F,00,00,10,
4318219339,000004E4,false,Rx,0,8,02,84,85,00,2E,00,00,10,
4318319340,000004E4,false,Rx,0,8,02,83,85,00,2E,00,00,10,
4318419328,000004E4,false,Rx,0,8,02,82,85,00,2E,00,00,10,
4318519317,000004E4,false,Rx,0,8,02,81,85,00,2D,00,00,10,
4318619370,000004E4,false,Rx,0,8,02,80,85,00,2D,00,00,10,
4318719369,000004E4,false,Rx,0,8,02,7F,85,00,2C,00,00,10,
4318819360,000004E4,false,Rx,0,8,02,7D,85,00,2C,00,00,10,
4318919348,000004E4,false,Rx,0,8,02,7B,85,00,2B,00,00,10,
4319019348,000004E4,false,Rx,0,8,02,79,85,00,2B,00,00,10,
4319119390,000004E4,false,Rx,0,8,02,6F,85,00,27,00,00,10,
4319219328,000004E4,false,Rx,0,8,02,62,85,00,22,00,00,10,
4319319373,000004E4,false,Rx,0,8,02,54,85,00,1E,00,00,10,
4319419369,000004E4,false,Rx,0,8,02,48,85,00,19,00,00,10,
4319519369,000004E4,false,Rx,0,8,02,3B,85,00,15,00,00,10,
4319619359,000004E4,false,Rx,0,8,02,2E,85,00,10,00,00,10,
4319718954,000004E4,false,Rx,0,8,02,19,85,00,0A,00,00,10,
4319818944,000004E4,false,Rx,0,8,02,01,85,00,01,00,00,10,
4319918954,000004E4,false,Rx,0,8,02,00,85,00,00,00,00,10,
4320018975,000004E4,false,Rx,0,8,02,00,85,00,00,00,00,10,
4320118968,000004E4,false,Rx,0,8,02,00,85,00,00,00,00,10,
4320218964,000004E4,false,Rx,0,8,02,00,85,00,00,00,00,10,
4320318955,000004E4,false,Rx,0,8,02,00,85,00,00,00,00,10,
4320418955,000004E4,false,Rx,0,8,02,00,85,00,00,00,00,10,
4320518965,000004E4,false,Rx,0,8,02,00,85,00,00,00,00,10,
4320618979,000004E4,false,Rx,0,8,02,00,85,00,00,00,00,10,
4320718985,000004E4,false,Rx,0,8,02,00,85,00,00,00,00,10,
4320818975,000004E4,false,Rx,0,8,02,00,85,00,00,00,00,10,
4320918965,000004E4,false,Rx,0,8,02,00,85,00,00,00,00,10,
4321018975,000004E4,false,Rx,0,8,02,00,85,00,00,00,00,10,
4321119199,000004E4,false,Rx,0,8,02,00,85,00,05,00,00,10,
4321219188,000004E4,false,Rx,0,8,02,04,85,00,0B,02,00,10,
4321319240,000004E4,false,Rx,0,8,02,0B,85,00,0E,04,00,10,
4321419229,000004E4,false,Rx,0,8,02,12,85,00,10,05,00,10,
4321519219,000004E4,false,Rx,0,8,02,19,85,00,13,07,00,10,
4321619261,000004E4,false,Rx,0,8,02,20,85,00,17,08,00,10,
