Time Stamp,ID,Extended,Dir,Bus,LEN,D1,D2,D3,D4,D5,D6,D7,D8
287910808,000004E4,false,Rx,0,8,00,00,85,00,00,00,00,00,
288011554,000004E4,false,Rx,0,8,00,00,85,00,00,00,00,00,
288111547,000004E4,false,Rx,0,8,00,00,85,00,00,00,00,00,
288211537,000004E4,false,Rx,0,8,00,00,85,00,00,00,00,00,
288311528,000004E4,false,Rx,0,8,00,00,85,00,00,00,00,00,
288411533,000004E4,false,Rx,0,8,00,00,85,00,00,00,00,00,
288511533,000004E4,false,Rx,0,8,00,00,85,00,00,00,00,00,
288611537,000004E4,false,Rx,0,8,00,00,85,00,00,00,00,00,
288711559,000004E4,false,Rx,0,8,00,00,85,00,00,00,00,00,
288811550,000004E4,false,Rx,0,8,00,00,85,00,00,00,00,00,
288911538,000004E4,false,Rx,0,8,00,00,85,00,00,00,00,00,
289011538,000004E4,false,Rx,0,8,00,00,85,00,00,00,00,00,
289111539,000004E4,false,Rx,0,8,00,00,85,00,00,00,00,00,
289211550,000004E4,false,Rx,0,8,00,00,85,00,00,00,00,00,
289311571,000004E4,false,Rx,0,8,00,00,85,00,00,00,00,00,
289411564,000004E4,false,Rx,0,8,00,00,85,00,00,00,00,00,
289511560,000004E4,false,Rx,0,8,00,00,85,00,00,00,00,00,
289611550,000004E4,false,Rx,0,8,00,00,85,00,00,00,00,00,
289711550,000004E4,false,Rx,0,8,00,00,85,00,00,00,00,00,
289811550,000004E4,false,Rx,0,8,00,00,85,00,00,00,00,00,
289911554,000004E4,false,Rx,0,8,00,00,85,00,00,00,00,00,
290011876,000004E4,false,Rx,0,8,00,00,85,00,00,00,00,00,
290111815,000004E4,false,Rx,0,8,00,02,85,00,09,01,00,00,
290211804,000004E4,false,Rx,0,8,00,09,85,00,0D,03,00,00,
290311804,000004E4,false,Rx,0,8,00,0F,85,00,0F,04,00,00,
290411786,000004E4,false,Rx,0,8,00,16,85,00,12,06,00,00,
290511778,000004E4,false,Rx,0,8,00,1D,85,00,15,07,00,00,
290611778,000004E4,false,Rx,0,8,00,29,85,00,18,09,00,00,
290711819,000004E4,false,Rx,0,8,00,47,85,00,18,07,00,00,
290811818,000004E4,false,Rx,0,8,00,46,85,00,18,05,00,00,
290911978,000004E4,false,Rx,0,8,00,45,85,00,18,03,00,00,
291011969,000004E4,false,Rx,0,8,00,4C,85,00,1A,03,00,00,
291111959,000004E4,false,Rx,0,8,00,55,85,00,1D,02,00,00,
291211953,000004E4,false,Rx,0,8,00,5E,85,00,20,01,00,00,
291311994,000004E4,false,Rx,0,8,00,66,85,00,23,01,00,00,
291411996,000004E4,false,Rx,0,8,00,6D,85,00,25,01,00,00,
291511984,000004E4,false,Rx,0,8,00,73,85,00,28,01,00,00,
291611974,000004E4,false,Rx,0,8,00,78,85,00,2A,01,00,00,
291711974,000004E4,false,Rx,0,8,00,7D,85,00,2B,01,00,00,
291811963,000004E4,false,Rx,0,8,00,81,85,00,2D,01,00,00,
291912009,000004E4,false,Rx,0,8,00,85,85,00,2E,01,00,00,
292012005,000004E4,false,Rx,0,8,00,88,85,00,2F,01,00,00,
292112005,000004E4,false,Rx,0,8,00,8A,85,00,30,01,00,00,
292211984,000004E4,false,Rx,0,8,00,8B,85,00,31,01,00,00,
292311985,000004E4,false,Rx,0,8,00,8C,85,00,31,01,00,00,
292411977,000004E4,false,Rx,0,8,00,8D,85,00,31,01,00,00,
292511974,000004E4,false,Rx,0,8,00,8D,85,00,31,01,00,00,
292612025,000004E4,false,Rx,0,8,00,8C,85,00,31,01,00,00,
292712009,000004E4,false,Rx,0,8,00,8C,85,00,31,01,00,00,
292812010,000004E4,false,Rx,0,8,00,8B,85,00,31,00,00,00,
292912003,000004E4,false,Rx,0,8,00,89,85,00,30,00,00,00,
293011994,000004E4,false,Rx,0,8,00,87,85,00,30,00,00,00,
293111974,000004E4,false,Rx,0,8,00,86,85,00,2F,00,00,00,
293212029,000004E4,false,Rx,0,8,00,85,85,00,2F,00,00,00,
293312032,000004E4,false,Rx,0,8,00,84,85,00,2E,00,00,00,
293412021,000004E4,false,Rx,0,8,00,83,85,00,2E,00,00,00,
293512015,000004E4,false,Rx,0,8,00,83,85,00,2E,00,00,00,
293612005,000004E4,false,Rx,0,8,00,82,85,00,2E,00,00,00,
293711998,000004E4,false,Rx,0,8,00,81,85,00,2D,00,00,00,
293811990,000004E4,false,Rx,0,8,00,80,85,00,2D,00,00,00,
293912042,000004E4,false,Rx,0,8,00,7F,85,00,2C,00,00,00,
294012036,000004E4,false,Rx,0,8,00,7E,85,00,2C,00,00,00,
294112025,000004E4,false,Rx,0,8,00,7D,85,00,2C,00,00,00,
294212020,000004E4,false,Rx,0,8,00,7C,85,00,2B,00,00,00,
294312011,000004E4,false,Rx,0,8,00,7B,85,00,2B,00,00,00,
294412000,000004E4,false,Rx,0,8,00,7A,85,00,2B,00,00,00,
294511992,000004E4,false,Rx,0,8,00,79,85,00,2A,00,00,00,
294612036,000004E4,false,Rx,0,8,00,78,85,00,2A,00,00,00,
294712040,000004E4,false,Rx,0,8,00,77,85,00,2A,00,00,00,
294812031,000004E4,false,Rx,0,8,00,76,85,00,29,00,00,00,
294912021,000004E4,false,Rx,0,8,00,75,85,00,29,00,00,00,
295012011,000004E4,false,Rx,0,8,00,74,85,00,29,00,00,00,
295112011,000004E4,false,Rx,0,8,00,74,85,00,29,00,00,00,
295212056,000004E4,false,Rx,0,8,00,74,85,00,29,00,00,00,
295312046,000004E4,false,Rx,0,8,00,74,85,00,29,00,00,00,
295412046,000004E4,false,Rx,0,8,00,73,85,00,28,00,00,00,
295512046,000004E4,false,Rx,0,8,00,73,85,00,28,00,00,00,
295612025,000004E4,false,Rx,0,8,00,72,85,00,28,00,00,00,
295712017,000004E4,false,Rx,0,8,00,71,85,00,28,00,00,00,
295812067,000004E4,false,Rx,0,8,00,70,85,00,27,00,00,00,
295912067,000004E4,false,Rx,0,8,00,6F,85,00,27,00,00,00,
296012056,000004E4,false,Rx,0,8,00,6F,85,00,27,00,00,00,
296112047,000004E4,false,Rx,0,8,00,6E,85,00,27,00,00,00,
296212037,000004E4,false,Rx,0,8,00,6D,85,00,26,00,00,00,
296312088,000004E4,false,Rx,0,8,02,6B,85,00,25,00,00,01,
296412026,000004E4,false,Rx,0,8,02,5F,85,00,21,00,00,01,
296512067,000004E4,false,Rx,0,8,02,53,85,00,1D,00,00,11,
296612067,000004E4,false,Rx,0,8,02,46,85,00,19,00,00,11,
296712060,000004E4,false,Rx,0,8,02,3A,85,00,15,00,00,11,
296812057,000004E4,false,Rx,0,8,02,2E,85,00,10,00,00,11,
296911633,000004E4,false,Rx,0,8,02,1B,85,00,0A,00,00,11,
297011647,000004E4,false,Rx,0,8,02,02,85,00,01,00,00,11,
297111648,000004E4,false,Rx,0,8,02,00,85,00,00,00,00,11,
297211671,000004E4,false,Rx,0,8,02,00,85,00,00,00,00,11,
297311663,000004E4,false,Rx,0,8,02,00,85,00,00,00,00,11,
297411654,000004E4,false,Rx,0,8,02,00,85,00,00,00,00,11,
297511648,000004E4,false,Rx,0,8,02,00,85,00,00,00,00,11,
297611647,000004E4,false,Rx,0,8,02,00,85,00,00,00,00,11,
297711651,000004E4,false,Rx,0,8,02,00,85,00,00,00,00,11,
297811674,000004E4,false,Rx,0,8,02,00,85,00,00,00,00,11,
297911674,000004E4,false,Rx,0,8,02,00,85,00,00,00,00,11,
298011668,000004E4,false,Rx,0,8,02,00,85,00,00,00,00,11,
298111658,000004E4,false,Rx,0,8,02,00,85,00,00,00,00,11,
298211662,000004E4,false,Rx,0,8,02,00,85,00,00,00,00,11,
298311664,000004E4,false,Rx,0,8,02,00,85,00,00,00,00,11,
298411664,000004E4,false,Rx,0,8,02,00,85,00,00,00,00,11,
298511684,000004E4,false,Rx,0,8,02,00,85,00,00,00,00,01,
298611673,000004E4,false,Rx,0,8,02,00,85,00,00,00,00,01,
298711674,000004E4,false,Rx,0,8,02,00,85,00,00,00,00,01,
298811674,000004E4,false,Rx,0,8,02,00,85,00,00,00,00,01,
298911674,000004E4,false,Rx,0,8,02,00,85,00,00,00,00,01,
299011673,000004E4,false,Rx,0,8,02,00,85,00,00,00,00,01,
299111674,000004E4,false,Rx,0,8,02,00,85,00,00,00,00,01,
299211698,000004E4,false,Rx,0,8,02,00,85,00,00,00,00,01,
299311690,000004E4,false,Rx,0,8,02,00,85,00,00,00,00,01,
299411679,000004E4,false,Rx,0,8,02,00,85,00,00,00,00,01,
299511679,000004E4,false,Rx,0,8,02,00,85,00,00,00,00,01,
299611679,000004E4,false,Rx,0,8,02,00,85,00,00,00,00,01,
299711680,000004E4,false,Rx,0,8,02,00,85,00,00,00,00,01,
299811701,000004E4,false,Rx,0,8,02,00,85,00,00,00,00,01,
299911701,000004E4,false,Rx,0,8,02,00,85,00,00,00,00,01,
300011692,000004E4,false,Rx,0,8,02,00,85,00,00,00,00,01,
300111692,000004E4,false,Rx,0,8,02,00,85,00,00,00,00,01,
300211695,000004E4,false,Rx,0,8,02,00,85,00,00,00,00,01,
300311688,000004E4,false,Rx,0,8,02,00,85,00,00,00,00,01,
300411689,000004E4,false,Rx,0,8,02,00,85,00,00,00,00,01,
300511713,000004E4,false,Rx,0,8,02,00,85,00,00,00,00,01,
300611704,000004E4,false,Rx,0,8,02,00,85,00,00,00,00,01,
300711695,000004E4,false,Rx,0,8,02,00,85,00,00,00,00,01,
300811695,000004E4,false,Rx,0,8,02,00,85,00,00,00,00,01,
300911694,000004E4,false,Rx,0,8,02,00,85,00,00,00,00,01,
301011695,000004E4,false,Rx,0,8,02,00,85,00,00,00,00,01,
301111726,000004E4,false,Rx,0,8,02,00,85,00,00,00,00,01,
301211715,000004E4,false,Rx,0,8,02,00,85,00,00,00,00,01,
301311709,000004E4,false,Rx,0,8,02,00,85,00,00,00,00,01,
301411710,000004E4,false,Rx,0,8,02,00,85,00,00,00,00,01,
301511702,000004E4,false,Rx,0,8,02,00,85,00,00,00,00,01,
301611705,000004E4,false,Rx,0,8,02,00,85,00,00,00,00,01,
301711705,000004E4,false,Rx,0,8,02,00,85,00,00,00,00,01,
301811729,000004E4,false,Rx,0,8,02,00,85,00,00,00,00,01,
301911720,000004E4,false,Rx,0,8,02,00,85,00,00,00,00,01,
302011720,000004E4,false,Rx,0,8,02,00,85,00,00,00,00,01,
302111711,000004E4,false,Rx,0,8,02,00,85,00,00,00,00,01,
302211722,000004E4,false,Rx,0,8,02,00,85,00,00,00,00,01,
302311714,000004E4,false,Rx,0,8,02,00,85,00,00,00,00,01,
302411746,000004E4,false,Rx,0,8,02,00,85,00,00,00,00,01,
302511739,000004E4,false,Rx,0,8,02,00,85,00,00,00,00,01,
302611726,000004E4,false,Rx,0,8,02,00,85,00,00,00,00,01,
302711726,000004E4,false,Rx,0,8,02,00,85,00,00,00,00,01,
302811731,000004E4,false,Rx,0,8,02,00,85,00,00,00,00,01,
302911731,000004E4,false,Rx,0,8,02,00,85,00,00,00,00,01,
303011723,000004E4,false,Rx,0,8,02,00,85,00,00,00,00,01,
303111746,000004E4,false,Rx,0,8,02,00,85,00,00,00,00,01,
303211746,000004E4,false,Rx,0,8,02,00,85,00,00,00,00,01,
303311736,000004E4,false,Rx,0,8,02,00,85,00,00,00,00,01,
303411736,000004E4,false,Rx,0,8,02,00,85,00,00,00,00,01,
303511737,000004E4,false,Rx,0,8,02,00,85,00,00,00,00,01,
303611736,000004E4,false,Rx,0,8,02,00,85,00,00,00,00,01,
303711757,000004E4,false,Rx,0,8,02,00,85,00,00,00,00,01,
303811756,000004E4,false,Rx,0,8,02,00,85,00,00,00,00,01,
303911746,000004E4,false,Rx,0,8,02,00,85,00,00,00,00,01,
304011740,000004E4,false,Rx,0,8,02,00,85,00,00,00,00,01,
304111747,000004E4,false,Rx,0,8,02,00,85,00,00,00,00,01,
304211746,000004E4,false,Rx,0,8,02,00,85,00,00,00,00,01,
304311750,000004E4,false,Rx,0,8,02,00,85,00,00,00,00,01,
304411772,000004E4,false,Rx,0,8,02,00,85,00,00,00,00,01,
304511766,000004E4,false,Rx,0,8,02,00,85,00,00,00,00,01,
304611757,000004E4,false,Rx,0,8,02,00,85,00,00,00,00,01,
304711756,000004E4,false,Rx,0,8,02,00,85,00,00,00,00,01,
304811751,000004E4,false,Rx,0,8,02,00,85,00,00,00,00,01,
304911751,000004E4,false,Rx,0,8,02,00,85,00,00,00,00,01,
305011783,000004E4,false,Rx,0,8,02,00,85,00,00,00,00,01,
305111773,000004E4,false,Rx,0,8,02,00,85,00,00,00,00,01,
305211762,000004E4,false,Rx,0,8,02,00,85,00,00,00,00,01,
305311756,000004E4,false,Rx,0,8,02,00,85,00,00,00,00,01,
305411757,000004E4,false,Rx,0,8,02,00,85,00,00,00,00,01,
305511769,000004E4,false,Rx,0,8,02,00,85,00,00,00,00,01,
305611767,000004E4,false,Rx,0,8,02,00,85,00,00,00,00,01,
305711787,000004E4,false,Rx,0,8,02,00,85,00,00,00,00,01,
305811777,000004E4,false,Rx,0,8,02,00,85,00,00,00,00,01,
305911767,000004E4,false,Rx,0,8,02,00,85,00,00,00,00,01,
306011768,000004E4,false,Rx,0,8,02,00,85,00,00,00,00,01,
306111767,000004E4,false,Rx,0,8,02,00,85,00,00,00,00,01,
306211777,000004E4,false,Rx,0,8,02,00,85,00,00,00,00,01,
306311769,000004E4,false,Rx,0,8,02,00,85,00,00,00,00,01,
306411788,000004E4,false,Rx,0,8,02,00,85,00,00,00,00,01,
306511788,000004E4,false,Rx,0,8,02,00,85,00,00,00,00,01,
306611777,000004E4,false,Rx,0,8,02,00,85,00,00,00,00,01,
306711777,000004E4,false,Rx,0,8,02,00,85,00,00,00,00,01,
306811781,000004E4,false,Rx,0,8,02,00,85,00,00,00,00,01,
306911782,000004E4,false,Rx,0,8,02,00,85,00,00,00,00,01,
307011804,000004E4,false,Rx,0,8,02,00,85,00,00,00,00,01,
307111797,000004E4,false,Rx,0,8,02,00,85,00,00,00,00,01,
307211787,000004E4,false,Rx,0,8,02,00,85,00,00,00,00,01,
307311793,000004E4,false,Rx,0,8,02,00,85,00,00,00,00,01,
307411793,000004E4,false,Rx,0,8,02,00,85,00,00,00,00,01,
307511793,000004E4,false,Rx,0,8,02,00,85,00,00,00,00,01,
307611793,000004E4,false,Rx,0,8,02,00,85,00,00,00,00,01,
307711813,000004E4,false,Rx,0,8,02,00,85,00,00,00,00,01,
307811809,000004E4,false,Rx,0,8,02,00,85,00,00,00,00,01,
307911798,000004E4,false,Rx,0,8,02,00,85,00,00,00,00,01,
308011798,000004E4,false,Rx,0,8,02,00,85,00,00,00,00,01,
308111798,000004E4,false,Rx,0,8,02,00,85,00,00,00,00,01,
308211797,000004E4,false,Rx,0,8,02,00,85,00,00,00,00,01,
308311822,000004E4,false,Rx,0,8,02,00,85,00,00,00,00,01,
308411819,000004E4,false,Rx,0,8,02,00,85,00,00,00,00,01,
308511808,000004E4,false,Rx,0,8,02,00,85,00,00,00,00,01,
308611802,000004E4,false,Rx,0,8,02,00,85,00,00,00,00,01,
308711803,000004E4,false,Rx,0,8,02,00,85,00,00,00,00,01,
308811806,000004E4,false,Rx,0,8,02,00,85,00,00,00,00,01,
308911809,000004E4,false,Rx,0,8,02,00,85,00,00,00,00,01,
309011829,000004E4,false,Rx,0,8,02,00,85,00,00,00,00,01,
309111822,000004E4,false,Rx,0,8,02,00,85,00,00,00,00,01,
309211814,000004E4,false,Rx,0,8,02,00,85,00,00,00,00,01,
309311815,000004E4,false,Rx,0,8,02,00,85,00,00,00,00,01,
309411815,000004E4,false,Rx,0,8,02,00,85,00,00,00,00,01,
309511815,000004E4,false,Rx,0,8,02,00,85,00,00,00,00,01,
309611838,000004E4,false,Rx,0,8,02,00,85,00,00,00,00,01,
309711839,000004E4,false,Rx,0,8,02,00,85,00,00,00,00,01,
309811829,000004E4,false,Rx,0,8,02,00,85,00,00,00,00,01,
309911829,000004E4,false,Rx,0,8,02,00,85,00,00,00,00,01,
310011829,000004E4,false,Rx,0,8,02,00,85,00,00,00,00,01,
310111832,000004E4,false,Rx,0,8,02,00,85,00,00,00,00,01,
310211825,000004E4,false,Rx,0,8,02,00,85,00,00,00,00,01,
310311845,000004E4,false,Rx,0,8,02,00,85,00,00,00,00,01,
310411839,000004E4,false,Rx,0,8,02,00,85,00,00,00,00,01,
310511839,000004E4,false,Rx,0,8,02,00,85,00,00,00,00,01,
310611832,000004E4,false,Rx,0,8,02,00,85,00,00,00,00,01,
310711834,000004E4,false,Rx,0,8,02,00,85,00,00,00,00,01,
310811835,000004E4,false,Rx,0,8,02,00,85,00,00,00,00,01,
310911866,000004E4,false,Rx,0,8,02,00,85,00,00,00,00,01,
311011856,000004E4,false,Rx,0,8,02,00,85,00,00,00,00,01,
311111850,000004E4,false,Rx,0,8,02,00,85,00,00,00,00,01,
311211840,000004E4,false,Rx,0,8,02,00,85,00,00,00,00,01,
311311860,000004E4,false,Rx,0,8,00,00,85,00,00,00,00,00,
311412130,000004E4,false,Rx,0,8,00,01,85,00,08,01,00,00,
311512068,000004E4,false,Rx,0,8,00,07,85,00,0C,03,00,00,
311612120,000004E4,false,Rx,0,8,00,0E,85,00,0F,04,00,00,
311712108,000004E4,false,Rx,0,8,00,15,85,00,11,06,00,00,
311812149,000004E4,false,Rx,0,8,00,1B,85,00,14,07,00,00,
311912145,000004E4,false,Rx,0,8,00,21,85,00,18,09,00,00,
312012083,000004E4,false,Rx,0,8,00,44,85,00,18,08,00,00,
312112083,000004E4,false,Rx,0,8,00,45,85,00,18,05,00,00,
312212124,000004E4,false,Rx,0,8,00,44,85,00,18,04,00,00,
312312291,000004E4,false,Rx,0,8,00,49,85,00,19,03,00,00,
312412274,000004E4,false,Rx,0,8,00,52,85,00,1C,02,00,00,
312512274,000004E4,false,Rx,0,8,00,5A,85,00,1F,02,00,00,
312612263,000004E4,false,Rx,0,8,00,61,85,00,21,01,00,00,
312712253,000004E4,false,Rx,0,8,00,68,85,00,24,01,00,00,
312812244,000004E4,false,Rx,0,8,00,6E,85,00,26,01,00,00,
312912299,000004E4,false,Rx,0,8,00,6E,85,00,27,01,00,00,
313012300,000004E4,false,Rx,0,8,00,6A,85,00,26,01,00,00,
313112280,000004E4,false,Rx,0,8,00,67,85,00,25,01,00,00,
313212284,000004E4,false,Rx,0,8,00,6A,85,00,26,01,00,00,
313312274,000004E4,false,Rx,0,8,00,6F,85,00,26,01,00,00,
313412265,000004E4,false,Rx,0,8,00,74,85,00,28,01,00,00,
313512305,000004E4,false,Rx,0,8,00,79,85,00,2A,01,00,00,
313612305,000004E4,false,Rx,0,8,00,7D,85,00,2B,01,00,00,
313712295,000004E4,false,Rx,0,8,00,7B,85,00,2B,01,00,00,
313812285,000004E4,false,Rx,0,8,00,78,85,00,2B,01,00,00,
313912288,000004E4,false,Rx,0,8,00,6D,85,00,28,01,00,00,
314012279,000004E4,false,Rx,0,8,00,56,85,00,22,01,00,00,
314112321,000004E4,false,Rx,0,8,00,43,85,00,1B,01,00,00,
314212315,000004E4,false,Rx,0,8,00,30,85,00,14,01,00,00,
314312315,000004E4,false,Rx,0,8,00,25,85,00,0F,01,00,00,
314412298,000004E4,false,Rx,0,8,00,49,85,00,17,01,00,00,
314512300,000004E4,false,Rx,0,8,00,89,85,00,2C,02,00,00,
314612397,000004E4,false,Rx,0,8,00,AB,85,00,40,04,00,00,
314712285,000004E4,false,Rx,0,8,00,AE,85,00,46,04,00,00,
314812326,000004E4,false,Rx,0,8,00,A6,85,00,3E,04,00,00,
314912320,000004E4,false,Rx,0,8,00,99,85,00,2D,03,00,00,
315012321,000004E4,false,Rx,0,8,00,91,85,00,22,03,00,00,
315112310,000004E4,false,Rx,0,8,00,96,85,00,25,03,00,00,
315212419,000004E4,false,Rx,0,8,00,A5,85,00,37,04,00,00,
315312409,000004E4,false,Rx,0,8,00,B0,85,00,46,05,00,00,
315412402,000004E4,false,Rx,0,8,00,B1,85,00,4B,06,00,00,
315512330,000004E4,false,Rx,0,8,00,AE,85,00,49,06,00,00,
315612332,000004E4,false,Rx,0,8,00,A6,85,00,41,05,00,00,
315712326,000004E4,false,Rx,0,8,00,9E,85,00,36,05,00,00,
315812316,000004E4,false,Rx,0,8,00,9B,85,00,30,04,00,00,
315912309,000004E4,false,Rx,0,8,00,9F,85,00,33,05,00,00,
316012367,000004E4,false,Rx,0,8,00,A9,85,00,3F,06,00,00,
316112409,000004E4,false,Rx,0,8,00,AF,85,00,48,06,00,00,
316212347,000004E4,false,Rx,0,8,00,AE,85,00,49,07,00,00,
316312336,000004E4,false,Rx,0,8,00,A8,85,00,43,06,00,00,
316412330,000004E4,false,Rx,0,8,00,A3,85,00,3C,06,00,00,
316512371,000004E4,false,Rx,0,8,00,9F,85,00,36,05,00,00,
316612322,000004E4,false,Rx,0,8,00,A2,85,00,37,05,00,00,
316712315,000004E4,false,Rx,0,8,00,A7,85,00,3E,06,00,00,
316812346,000004E4,false,Rx,0,8,00,AA,85,00,43,06,00,00,
316912350,000004E4,false,Rx,0,8,00,AA,85,00,44,06,00,00,
317012346,000004E4,false,Rx,0,8,00,A8,85,00,41,06,00,00,
317112336,000004E4,false,Rx,0,8,00,A3,85,00,3C,06,00,00,
317212326,000004E4,false,Rx,0,8,00,9D,85,00,35,05,00,00,
317312326,000004E4,false,Rx,0,8,00,9C,85,00,32,05,00,00,
317412320,000004E4,false,Rx,0,8,00,A2,85,00,37,06,00,00,
317512414,000004E4,false,Rx,0,8,00,AA,85,00,43,07,00,00,
317612466,000004E4,false,Rx,0,8,00,AF,85,00,4A,08,00,00,
317712347,000004E4,false,Rx,0,8,00,AD,85,00,4A,08,00,00,
317812346,000004E4,false,Rx,0,8,00,A9,85,00,45,08,00,00,
317912337,000004E4,false,Rx,0,8,00,A2,85,00,3D,07,00,00,
318012336,000004E4,false,Rx,0,8,00,9F,85,00,36,07,00,00,
318112378,000004E4,false,Rx,0,8,00,9F,85,00,36,07,00,00,
318212367,000004E4,false,Rx,0,8,00,A4,85,00,3B,07,00,00,
318312357,000004E4,false,Rx,0,8,00,A9,85,00,43,08,00,00,
318412350,000004E4,false,Rx,0,8,00,AC,85,00,48,09,00,00,
318512347,000004E4,false,Rx,0,8,00,AB,85,00,47,09,00,00,
318612347,000004E4,false,Rx,0,8,00,A6,85,00,42,08,00,00,
318712336,000004E4,false,Rx,0,8,00,A1,85,00,3B,08,00,00,
318812388,000004E4,false,Rx,0,8,00,9F,85,00,37,08,00,00,
318912381,000004E4,false,Rx,0,8,00,A3,85,00,3A,08,00,00,
319012374,000004E4,false,Rx,0,8,00,A9,85,00,42,08,00,00,
319112364,000004E4,false,Rx,0,8,00,AD,85,00,49,09,00,00,
319212355,000004E4,false,Rx,0,8,00,AC,85,00,49,09,00,00,
319312345,000004E4,false,Rx,0,8,00,A8,85,00,44,09,00,00,
319412399,000004E4,false,Rx,0,8,00,A3,85,00,3D,08,00,00,
319512398,000004E4,false,Rx,0,8,00,A0,85,00,39,07,00,00,
319612388,000004E4,false,Rx,0,8,00,A1,85,00,39,07,00,00,
319712377,000004E4,false,Rx,0,8,00,A5,85,00,3D,08,00,00,
319812367,000004E4,false,Rx,0,8,00,A9,85,00,43,08,00,00,
319912361,000004E4,false,Rx,0,8,00,AB,85,00,47,09,00,00,
320012465,000004E4,false,Rx,0,8,00,AD,85,00,48,09,00,00,
320112507,000004E4,false,Rx,0,8,00,B1,85,00,4A,08,00,00,
320212398,000004E4,false,Rx,0,8,00,B3,85,00,49,06,00,00,
320312387,000004E4,false,Rx,0,8,00,B1,85,00,44,05,00,00,
320412388,000004E4,false,Rx,0,8,00,AE,85,00,3F,04,00,00,
320512378,000004E4,false,Rx,0,8,00,AA,85,00,3B,03,00,00,
320612367,000004E4,false,Rx,0,8,00,A6,85,00,36,02,00,00,
320712412,000004E4,false,Rx,0,8,00,A2,85,00,31,02,00,00,
320812408,000004E4,false,Rx,0,8,00,99,85,00,29,02,00,00,
320912409,000004E4,false,Rx,0,8,00,8F,85,00,1E,01,00,00,
321011994,000004E4,false,Rx,0,8,00,4A,85,00,0B,00,00,00,
321111985,000004E4,false,Rx,0,8,00,04,85,00,01,00,00,00,
321211988,000004E4,false,Rx,0,8,00,00,85,00,00,00,00,00,
321311995,000004E4,false,Rx,0,8,00,00,85,00,00,00,00,00,
321412015,000004E4,false,Rx,0,8,00,00,85,00,00,00,00,00,
321512004,000004E4,false,Rx,0,8,00,00,85,00,00,00,00,00,
321611995,000004E4,false,Rx,0,8,00,00,85,00,00,00,00,00,
321711999,000004E4,false,Rx,0,8,00,00,85,00,00,00,00,00,
321811994,000004E4,false,Rx,0,8,00,00,85,00,00,00,00,00,
321911994,000004E4,false,Rx,0,8,00,00,85,00,00,00,00,00,
322012004,000004E4,false,Rx,0,8,00,00,85,00,00,00,00,00,
322112026,000004E4,false,Rx,0,8,00,00,85,00,00,00,00,00,
322212266,000004E4,false,Rx,0,8,00,00,85,00,05,00,00,00,
322312253,000004E4,false,Rx,0,8,00,04,85,00,0B,02,00,00,
322412244,000004E4,false,Rx,0,8,00,0B,85,00,0E,04,00,00,
322512233,000004E4,false,Rx,0,8,00,12,85,00,10,05,00,00,
322612233,000004E4,false,Rx,0,8,00,19,85,00,13,07,00,00,
322712284,000004E4,false,Rx,0,8,00,20,85,00,17,08,00,00,
322812263,000004E4,false,Rx,0,8,00,79,85,00,19,08,00,00,
322912254,000004E4,false,Rx,0,8,00,8D,85,00,18,06,00,00,
323012258,000004E4,false,Rx,0,8,00,8E,85,00,18,04,00,00,
323112419,000004E4,false,Rx,0,8,00,8E,85,00,19,03,00,00,
323212412,000004E4,false,Rx,0,8,00,90,85,00,1B,02,00,00,
323312450,000004E4,false,Rx,0,8,00,93,85,00,1E,02,00,00,
323412450,000004E4,false,Rx,0,8,00,72,85,00,21,01,00,00,
323512443,000004E4,false,Rx,0,8,00,69,85,00,24,01,00,00,
323612434,000004E4,false,Rx,0,8,00,70,85,00,26,01,00,00,
323712428,000004E4,false,Rx,0,8,00,75,85,00,28,01,00,00,
323812429,000004E4,false,Rx,0,8,00,7A,85,00,2A,01,00,00,
323912418,000004E4,false,Rx,0,8,00,7E,85,00,2C,01,00,00,
324012460,000004E4,false,Rx,0,8,00,82,85,00,2D,01,00,00,
324112460,000004E4,false,Rx,0,8,00,84,85,00,2E,01,00,00,
324212441,000004E4,false,Rx,0,8,00,86,85,00,2F,01,00,00,
324312440,000004E4,false,Rx,0,8,00,88,85,00,2F,01,00,00,
324412439,000004E4,false,Rx,0,8,00,89,85,00,30,01,00,00,
324512429,000004E4,false,Rx,0,8,00,8A,85,00,30,01,00,00,
324612418,000004E4,false,Rx,0,8,00,8A,85,00,31,01,00,00,
324712472,000004E4,false,Rx,0,8,00,8B,85,00,31,01,00,00,
324812471,000004E4,false,Rx,0,8,00,8B,85,00,31,00,00,00,
324912450,000004E4,false,Rx,0,8,00,8B,85,00,31,00,00,00,
325012450,000004E4,false,Rx,0,8,00,8A,85,00,30,00,00,00,
325112439,000004E4,false,Rx,0,8,00,88,85,00,30,00,00,00,
325212433,000004E4,false,Rx,0,8,00,86,85,00,2F,00,00,00,
325312481,000004E4,false,Rx,0,8,00,85,85,00,2F,00,00,00,
325412481,000004E4,false,Rx,0,8,00,83,85,00,2E,00,00,00,
325512475,000004E4,false,Rx,0,8,00,82,85,00,2E,00,00,00,
325612466,000004E4,false,Rx,0,8,00,80,85,00,2D,00,00,00,
325712459,000004E4,false,Rx,0,8,00,80,85,00,2D,00,00,00,
325812448,000004E4,false,Rx,0,8,00,7F,85,00,2D,00,00,00,
325912500,000004E4,false,Rx,0,8,00,7E,85,00,2C,00,00,00,
326012490,000004E4,false,Rx,0,8,00,7E,85,00,2C,00,00,00,
326112481,000004E4,false,Rx,0,8,02,7D,85,00,2C,00,00,10,
326212474,000004E4,false,Rx,0,8,02,74,85,00,29,00,00,10,
326312471,000004E4,false,Rx,0,8,02,66,85,00,24,00,00,10,
326412460,000004E4,false,Rx,0,8,02,59,85,00,1F,00,00,10,
326512444,000004E4,false,Rx,0,8,02,4C,85,00,1B,00,00,10,
326612497,000004E4,false,Rx,0,8,02,3F,85,00,16,00,00,10,
326712497,000004E4,false,Rx,0,8,02,33,85,00,12,00,00,10,
326812486,000004E4,false,Rx,0,8,02,27,85,00,0E,00,00,10,
326912073,000004E4,false,Rx,0,8,02,03,85,00,01,00,00,10,
327012067,000004E4,false,Rx,0,8,02,00,85,00,00,00,00,10,
327112077,000004E4,false,Rx,0,8,02,00,85,00,00,00,00,10,
327212077,000004E4,false,Rx,0,8,02,00,85,00,00,00,00,10,
327312099,000004E4,false,Rx,0,8,02,00,85,00,00,00,00,10,
