Time Stamp,ID,Extended,Dir,Bus,LEN,D1,D2,D3,D4,D5,D6,D7,D8
137291647,000004E4,false,Rx,0,8,00,00,85,00,00,00,00,00,
137392393,000004E4,false,Rx,0,8,00,00,85,00,00,00,00,00,
137492387,000004E4,false,Rx,0,8,00,00,85,00,00,00,00,00,
137592376,000004E4,false,Rx,0,8,00,00,85,00,00,00,00,00,
137692367,000004E4,false,Rx,0,8,00,00,85,00,00,00,00,00,
137792377,000004E4,false,Rx,0,8,00,00,85,00,00,00,00,00,
137892377,000004E4,false,Rx,0,8,00,00,85,00,00,00,00,00,
137992381,000004E4,false,Rx,0,8,00,00,85,00,00,00,00,00,
138092402,000004E4,false,Rx,0,8,00,00,85,00,00,00,00,00,
138192393,000004E4,false,Rx,0,8,00,00,85,00,00,00,00,00,
138227031,000004DE,false,Tx,0,8,02,00,00,00,00,00,00,00,
138292382,000004E4,false,Rx,0,8,00,00,85,00,00,00,00,00,
138365971,000004DE,false,Tx,0,8,02,00,00,00,00,00,00,00,
138392392,000004E4,false,Rx,0,8,00,00,85,00,00,00,00,00,
138443704,000004DE,false,Tx,0,8,02,00,00,00,00,00,00,00,
138492666,000004E4,false,Rx,0,8,00,00,85,00,05,00,00,00,
138557701,000004DE,false,Tx,0,8,02,00,00,00,00,00,00,00,
138592605,000004E4,false,Rx,0,8,00,05,85,00,0B,02,00,00,
138665995,000004DE,false,Tx,0,8,02,00,00,00,00,00,00,00,
138692647,000004E4,false,Rx,0,8,00,0C,85,00,0E,04,00,00,
138778457,000004DE,false,Tx,0,8,02,00,00,00,00,00,00,00,
138792646,000004E4,false,Rx,0,8,00,13,85,00,10,05,00,00,
138887920,000004DE,false,Tx,0,8,02,00,00,00,00,00,00,00,
138892645,000004E4,false,Rx,0,8,00,1A,85,00,14,07,00,00,
138998004,000004DE,false,Tx,0,8,02,00,00,00,00,00,00,00,
138992636,000004E4,false,Rx,0,8,00,20,85,00,17,08,00,00,
139098107,000004DE,false,Tx,0,8,02,00,00,00,00,00,00,00,
139092625,000004E4,false,Rx,0,8,00,31,85,00,19,08,00,00,
139192616,000004E4,false,Rx,0,8,00,34,85,00,18,06,00,00,
139213419,000004DE,false,Tx,0,8,02,00,00,00,00,00,00,00,
139292615,000004E4,false,Rx,0,8,00,33,85,00,18,04,00,00,
139329411,000004DE,false,Tx,0,8,02,00,00,00,00,00,00,00,
139392822,000004E4,false,Rx,0,8,00,33,85,00,18,03,00,00,
139429622,000004DE,false,Tx,0,8,02,00,00,00,00,00,00,00,
139492822,000004E4,false,Rx,0,8,00,33,85,00,19,02,00,00,
139551324,000004DE,false,Tx,0,8,02,00,00,00,00,00,00,00,
139592811,000004E4,false,Rx,0,8,00,34,85,00,19,02,00,00,
139661113,000004DE,false,Tx,0,8,02,00,00,00,00,00,00,00,
139692804,000004E4,false,Rx,0,8,00,34,85,00,19,01,00,00,
139775287,000004DE,false,Tx,0,8,02,00,00,00,00,00,00,00,
139792801,000004E4,false,Rx,0,8,00,34,85,00,19,01,00,00,
139892791,000004E4,false,Rx,0,8,00,34,85,00,19,01,00,00,
139906280,000004DE,false,Tx,0,8,02,00,00,00,00,00,00,00,
139999761,000004DE,false,Tx,0,8,02,00,00,00,00,00,00,00,
139992785,000004E4,false,Rx,0,8,00,34,85,00,19,00,00,00,
140092827,000004E4,false,Rx,0,8,00,44,85,00,19,00,00,00,
140113415,000004DE,false,Tx,0,8,02,00,00,00,00,00,00,00,
140192829,000004E4,false,Rx,0,8,00,48,85,00,19,00,00,00,
140231154,000004DE,false,Tx,0,8,02,00,00,00,00,00,00,00,
140292821,000004E4,false,Rx,0,8,00,48,85,00,19,00,00,00,
140346580,000004DE,false,Tx,0,8,02,00,00,00,00,00,00,00,
140392812,000004E4,false,Rx,0,8,00,48,85,00,19,00,00,00,
140451367,000004DE,false,Tx,0,8,02,00,00,00,00,00,00,00,
140492806,000004E4,false,Rx,0,8,00,47,85,00,19,00,00,00,
140562484,000004DE,false,Tx,0,8,02,00,00,00,00,00,00,00,
140592796,000004E4,false,Rx,0,8,00,47,85,00,19,00,00,00,
140673610,000004DE,false,Tx,0,8,02,00,00,00,00,00,00,00,
140692849,000004E4,false,Rx,0,8,00,47,85,00,19,00,00,00,
140785390,000004DE,false,Tx,0,8,02,00,00,00,00,00,00,00,
140792841,000004E4,false,Rx,0,8,00,48,85,00,19,00,00,00,
140892832,000004E4,false,Rx,0,8,00,48,85,00,19,00,00,00,
140924094,000004DE,false,Tx,0,8,02,00,00,00,00,00,00,00,
140992822,000004E4,false,Rx,0,8,00,48,85,00,19,00,00,00,
141016865,000004DE,false,Tx,0,8,02,00,00,00,00,00,00,00,
141092811,000004E4,false,Rx,0,8,00,49,85,00,19,00,00,00,
141117555,000004DE,false,Tx,0,8,02,00,00,00,00,00,00,00,
141192812,000004E4,false,Rx,0,8,00,49,85,00,19,00,00,00,
141233162,000004DE,false,Tx,0,8,02,00,00,00,00,00,00,00,
141292863,000004E4,false,Rx,0,8,00,49,85,00,19,00,00,00,
141336712,000004DE,false,Tx,0,8,02,00,00,00,00,00,00,00,
141392853,000004E4,false,Rx,0,8,00,49,85,00,19,00,00,00,
141448954,000004DE,false,Tx,0,8,02,00,00,00,00,00,00,00,
141492842,000004E4,false,Rx,0,8,00,49,85,00,19,00,00,00,
141564942,000004DE,false,Tx,0,8,02,00,00,00,00,00,00,00,
141592842,000004E4,false,Rx,0,8,00,49,85,00,19,00,00,00,
141674712,000004DE,false,Tx,0,8,02,00,00,00,00,00,00,00,
141692832,000004E4,false,Rx,0,8,00,49,85,00,1A,00,00,00,
141783062,000004DE,false,Tx,0,8,02,00,00,00,00,00,00,00,
141792822,000004E4,false,Rx,0,8,00,4A,85,00,1A,00,00,00,
141892822,000004E4,false,Rx,0,8,00,49,85,00,1A,00,00,00,
141915934,000004DE,false,Tx,0,8,02,00,00,00,00,00,00,00,
141992864,000004E4,false,Rx,0,8,00,4A,85,00,1A,00,00,00,
142003864,000004DE,false,Tx,0,8,02,00,00,00,00,00,00,00,
142092863,000004E4,false,Rx,0,8,00,4A,85,00,1A,00,00,00,
142104140,000004DE,false,Tx,0,8,02,00,00,00,00,00,00,00,
142192853,000004E4,false,Rx,0,8,00,4A,85,00,1A,00,00,00,
142221531,000004DE,false,Tx,0,8,02,00,00,00,00,00,00,00,
142292843,000004E4,false,Rx,0,8,00,4A,85,00,1A,00,00,00,
142319503,000004DE,false,Tx,0,8,02,00,00,00,00,00,00,00,
142392842,000004E4,false,Rx,0,8,00,4A,85,00,1A,00,00,00,
142434764,000004DE,false,Tx,0,8,02,00,00,00,00,00,00,00,
142492826,000004E4,false,Rx,0,8,00,4A,85,00,1A,00,00,00,
142549903,000004DE,false,Tx,0,8,02,00,00,00,00,00,00,00,
142592826,000004E4,false,Rx,0,8,00,49,85,00,1A,00,00,00,
142653954,000004DE,false,Tx,0,8,02,00,00,00,00,00,00,00,
142692880,000004E4,false,Rx,0,8,00,49,85,00,19,00,00,00,
142767754,000004DE,false,Tx,0,8,02,00,00,00,00,00,00,00,
142792859,000004E4,false,Rx,0,8,00,49,85,00,1A,00,00,00,
142866893,000004DE,false,Tx,0,8,02,00,00,00,00,00,00,00,
142892860,000004E4,false,Rx,0,8,00,4A,85,00,1A,00,00,00,
142982378,000004DE,false,Tx,0,8,02,00,00,00,00,00,00,00,
142992852,000004E4,false,Rx,0,8,00,4A,85,00,1A,00,00,00,
143090957,000004DE,false,Tx,0,8,02,00,00,00,00,00,00,00,
143092852,000004E4,false,Rx,0,8,00,4B,85,00,1A,00,00,00,
143192843,000004E4,false,Rx,0,8,00,4B,85,00,1A,00,00,00,
143204883,000004DE,false,Tx,0,8,02,00,00,00,00,00,00,00,
143292884,000004E4,false,Rx,0,8,00,4B,85,00,1A,00,00,00,
143321136,000004DE,false,Tx,0,8,02,00,00,00,00,00,00,00,
143392884,000004E4,false,Rx,0,8,00,4C,85,00,1A,00,00,00,
143444530,000004DE,false,Tx,0,8,02,00,00,00,00,00,00,00,
143492873,000004E4,false,Rx,0,8,02,4A,85,00,19,00,00,10,
143553001,000004DE,false,Tx,0,8,02,00,00,00,00,00,00,00,
143592873,000004E4,false,Rx,0,8,02,40,85,00,16,00,00,10,
143670260,000004DE,false,Tx,0,8,02,00,00,00,00,00,00,00,
143692865,000004E4,false,Rx,0,8,02,32,85,00,12,00,00,10,
143782319,000004DE,false,Tx,0,8,02,00,00,00,00,00,00,00,
143792853,000004E4,false,Rx,0,8,02,25,85,00,0E,00,00,10,
143892481,000004E4,false,Rx,0,8,02,06,85,00,02,00,00,10,
143914145,000004DE,false,Tx,0,8,02,00,00,00,00,00,00,00,
143991099,000004DE,false,Tx,0,8,02,00,00,00,00,00,00,00,
143992491,000004E4,false,Rx,0,8,02,00,85,00,00,00,00,10,
144101038,000004DE,false,Tx,0,8,02,00,00,00,00,00,00,00,
144092480,000004E4,false,Rx,0,8,02,00,85,00,00,00,00,10,
144192471,000004E4,false,Rx,0,8,02,00,85,00,00,00,00,10,
144223839,000004DE,false,Tx,0,8,02,00,00,00,00,00,00,00,
144292469,000004E4,false,Rx,0,8,02,00,85,00,00,00,00,10,
144345245,000004DE,false,Tx,0,8,02,00,00,00,00,00,00,00,
144392470,000004E4,false,Rx,0,8,02,00,85,00,00,00,00,10,
144455010,000004DE,false,Tx,0,8,02,00,00,00,00,00,00,00,
144492474,000004E4,false,Rx,0,8,02,00,85,00,00,00,00,10,
144555952,000004DE,false,Tx,0,8,02,00,00,00,00,00,00,00,
144592501,000004E4,false,Rx,0,8,02,00,85,00,00,00,00,10,
144672771,000004DE,false,Tx,0,8,02,00,00,00,00,00,00,00,
144692491,000004E4,false,Rx,0,8,02,00,85,00,00,00,00,10,
144781520,000004DE,false,Tx,0,8,02,00,00,00,00,00,00,00,
144792490,000004E4,false,Rx,0,8,02,00,85,00,00,00,00,10,
144892481,000004E4,false,Rx,0,8,02,00,85,00,00,00,00,10,
144927902,000004DE,false,Tx,0,8,02,00,00,00,00,00,00,00,
144988210,000004DE,false,Tx,0,8,02,00,00,00,00,00,00,00,
144992480,000004E4,false,Rx,0,8,02,00,85,00,00,00,00,10,
145099729,000004DE,false,Tx,0,8,02,00,00,00,00,00,00,00,
145092480,000004E4,false,Rx,0,8,02,00,85,00,00,00,00,10,
145192511,000004E4,false,Rx,0,8,02,00,85,00,00,00,00,10,
145210878,000004DE,false,Tx,0,8,02,00,00,00,00,00,00,00,
145292512,000004E4,false,Rx,0,8,02,00,85,00,00,00,00,10,
145327060,000004DE,false,Tx,0,8,02,00,00,00,00,00,00,00,
145392501,000004E4,false,Rx,0,8,02,00,85,00,00,00,00,10,
145442498,000004DE,false,Tx,0,8,02,00,00,00,00,00,00,00,
145492732,000004E4,false,Rx,0,8,02,00,85,00,04,00,00,10,
145568702,000004DE,false,Tx,0,8,02,00,00,00,00,00,00,00,
145592722,000004E4,false,Rx,0,8,02,04,85,00,0B,02,00,10,
145689900,000004DE,false,Tx,0,8,02,00,00,00,00,00,00,00,
145692723,000004E4,false,Rx,0,8,02,0A,85,00,0E,03,00,10,
145799032,000004DE,false,Tx,0,8,02,00,00,00,00,00,00,00,
145792758,000004E4,false,Rx,0,8,02,11,85,00,10,05,00,10,
145892759,000004E4,false,Rx,0,8,00,18,85,00,13,06,00,00,
145936897,000004DE,false,Tx,0,8,02,00,00,00,00,00,00,00,
145992760,000004E4,false,Rx,0,8,00,1F,85,00,16,08,00,00,
146006621,000004DE,false,Tx,0,8,02,00,00,00,00,00,00,00,
146092738,000004E4,false,Rx,0,8,00,2D,85,00,19,09,00,00,
146129776,000004DE,false,Tx,0,8,02,00,00,00,00,00,00,00,
146192749,000004E4,false,Rx,0,8,00,34,85,00,19,06,00,00,
146245059,000004DE,false,Tx,0,8,02,00,00,00,00,00,00,00,
146292739,000004E4,false,Rx,0,8,00,33,85,00,18,05,00,00,
146360551,000004DE,false,Tx,0,8,02,00,00,00,00,00,00,00,
146392894,000004E4,false,Rx,0,8,00,33,85,00,19,03,00,00,
146469412,000004DE,false,Tx,0,8,02,00,00,00,00,00,00,00,
146492885,000004E4,false,Rx,0,8,00,35,85,00,1A,02,00,00,
146576753,000004DE,false,Tx,0,8,02,00,00,00,00,00,00,00,
146592936,000004E4,false,Rx,0,8,00,36,85,00,1C,02,00,00,
146678470,000004DE,false,Tx,0,8,02,00,00,00,00,00,00,00,
146692936,000004E4,false,Rx,0,8,00,37,85,00,1D,01,00,00,
146792929,000004E4,false,Rx,0,8,00,38,85,00,1E,01,00,00,
146807774,000004DE,false,Tx,0,8,02,00,00,00,00,00,00,00,
146892920,000004E4,false,Rx,0,8,00,39,85,00,1F,01,00,00,
146961551,000004DE,false,Tx,0,8,02,00,00,00,00,00,00,00,
146992912,000004E4,false,Rx,0,8,00,39,85,00,20,01,00,00,
147046498,000004DE,false,Tx,0,8,02,00,00,00,00,00,00,00,
147092913,000004E4,false,Rx,0,8,00,4F,85,00,21,00,00,00,
147162182,000004DE,false,Tx,0,8,02,00,00,00,00,00,00,00,
147192944,000004E4,false,Rx,0,8,00,5E,85,00,21,00,00,00,
147278016,000004DE,false,Tx,0,8,02,00,00,00,00,00,00,00,
147292944,000004E4,false,Rx,0,8,00,5F,85,00,21,00,00,00,
147385503,000004DE,false,Tx,0,8,02,00,00,00,00,00,00,00,
147392945,000004E4,false,Rx,0,8,00,5E,85,00,21,00,00,00,
147493651,000004DE,false,Tx,0,8,02,00,00,00,00,00,00,00,
147492926,000004E4,false,Rx,0,8,00,5E,85,00,21,00,00,00,
147592925,000004E4,false,Rx,0,8,00,5D,85,00,20,00,00,00,
147609808,000004DE,false,Tx,0,8,00,00,00,00,00,00,00,00,
147692925,000004E4,false,Rx,0,8,00,59,85,00,1F,00,00,00,
147736846,000004DE,false,Tx,0,8,00,00,00,00,00,00,00,00,
147792909,000004E4,false,Rx,0,8,00,4D,85,00,1B,00,00,00,
147832576,000004DE,false,Tx,0,8,00,00,00,00,00,00,00,00,
147892965,000004E4,false,Rx,0,8,00,3F,85,00,16,00,00,00,
147948591,000004DE,false,Tx,0,8,00,00,00,00,00,00,00,00,
147992956,000004E4,false,Rx,0,8,00,32,85,00,12,00,00,00,
148062373,000004DE,false,Tx,0,8,00,00,00,00,00,00,00,00,
148092946,000004E4,false,Rx,0,8,00,26,85,00,0E,00,00,00,
148164609,000004DE,false,Tx,0,8,00,00,00,00,00,00,00,00,
148192532,000004E4,false,Rx,0,8,00,08,85,00,03,00,00,00,
148271520,000004DE,false,Tx,0,8,00,00,00,00,00,00,00,00,
148292532,000004E4,false,Rx,0,8,00,00,85,00,00,00,00,00,
148380241,000004DE,false,Tx,0,8,00,00,00,00,00,00,00,00,
148392532,000004E4,false,Rx,0,8,00,00,85,00,00,00,00,00,
148497396,000004DE,false,Tx,0,8,00,00,00,00,00,00,00,00,
148492566,000004E4,false,Rx,0,8,00,00,85,00,00,00,00,00,
148592557,000004E4,false,Rx,0,8,00,00,85,00,00,00,00,00,
148605932,000004DE,false,Tx,0,8,00,00,00,00,00,00,00,00,
148692548,000004E4,false,Rx,0,8,00,00,85,00,00,00,00,00,
148742868,000004DE,false,Tx,0,8,00,00,00,00,00,00,00,00,
148792548,000004E4,false,Rx,0,8,00,00,85,00,00,00,00,00,
148834366,000004DE,false,Tx,0,8,00,00,00,00,00,00,00,00,
148892548,000004E4,false,Rx,0,8,00,00,85,00,00,00,00,00,
148950234,000004DE,false,Tx,0,8,00,00,00,00,00,00,00,00,
148992547,000004E4,false,Rx,0,8,00,00,85,00,00,00,00,00,
149065763,000004DE,false,Tx,0,8,00,00,00,00,00,00,00,00,
149092548,000004E4,false,Rx,0,8,00,00,85,00,00,00,00,00,
149166029,000004DE,false,Tx,0,8,00,00,00,00,00,00,00,00,
149192569,000004E4,false,Rx,0,8,00,00,85,00,00,00,00,00,
149285101,000004DE,false,Tx,0,8,00,00,00,00,00,00,00,00,
149292561,000004E4,false,Rx,0,8,00,00,85,00,00,00,00,00,
149397576,000004DE,false,Tx,0,8,00,00,00,00,00,00,00,00,
149392552,000004E4,false,Rx,0,8,00,00,85,00,00,00,00,00,
149492552,000004E4,false,Rx,0,8,00,00,85,00,00,00,00,00,
149511171,000004DE,false,Tx,0,8,00,00,00,00,00,00,00,00,
149592553,000004E4,false,Rx,0,8,00,00,85,00,00,00,00,00,
149613805,000004DE,false,Tx,0,8,00,00,00,00,00,00,00,00,
149692553,000004E4,false,Rx,0,8,00,00,85,00,00,00,00,00,
149736323,000004DE,false,Tx,0,8,00,00,00,00,00,00,00,00,
149792577,000004E4,false,Rx,0,8,00,00,85,00,00,00,00,00,
149835680,000004DE,false,Tx,0,8,00,00,00,00,00,00,00,00,
149892578,000004E4,false,Rx,0,8,00,00,85,00,00,00,00,00,
149951889,000004DE,false,Tx,0,8,00,00,00,00,00,00,00,00,
149992569,000004E4,false,Rx,0,8,00,00,85,00,00,00,00,00,
150051992,000004DE,false,Tx,0,8,00,00,00,00,00,00,00,00,
150092570,000004E4,false,Rx,0,8,00,00,85,00,00,00,00,00,
150170452,000004DE,false,Tx,0,8,00,00,00,00,00,00,00,00,
150192568,000004E4,false,Rx,0,8,00,00,85,00,00,00,00,00,
150292572,000004E4,false,Rx,0,8,00,00,85,00,00,00,00,00,
150317677,000004DE,false,Tx,0,8,00,00,00,00,00,00,00,00,
150378961,000004DE,false,Tx,0,8,00,00,00,00,00,00,00,00,
150392573,000004E4,false,Rx,0,8,00,00,85,00,00,00,00,00,
150500229,000004DE,false,Tx,0,8,00,00,00,00,00,00,00,00,
150492593,000004E4,false,Rx,0,8,00,00,85,00,00,00,00,00,
150599600,000004DE,false,Tx,0,8,00,00,00,00,00,00,00,00,
150592588,000004E4,false,Rx,0,8,00,00,85,00,00,00,00,00,
150692579,000004E4,false,Rx,0,8,00,00,85,00,00,00,00,00,
150717021,000004DE,false,Tx,0,8,00,00,00,00,00,00,00,00,
150792579,000004E4,false,Rx,0,8,00,00,85,00,00,00,00,00,
150837625,000004DE,false,Tx,0,8,00,00,00,00,00,00,00,00,
150892573,000004E4,false,Rx,0,8,00,00,85,00,00,00,00,00,
150954819,000004DE,false,Tx,0,8,00,00,00,00,00,00,00,00,
150992573,000004E4,false,Rx,0,8,00,00,85,00,00,00,00,00,
151064497,000004DE,false,Tx,0,8,00,00,00,00,00,00,00,00,
151092605,000004E4,false,Rx,0,8,00,00,85,00,00,00,00,00,
151169589,000004DE,false,Tx,0,8,00,00,00,00,00,00,00,00,
151192605,000004E4,false,Rx,0,8,00,00,85,00,00,00,00,00,
151285932,000004DE,false,Tx,0,8,00,00,00,00,00,00,00,00,
151292594,000004E4,false,Rx,0,8,00,00,85,00,00,00,00,00,
151385741,000004DE,false,Tx,0,8,00,00,00,00,00,00,00,00,
151392583,000004E4,false,Rx,0,8,00,00,85,00,00,00,00,00,
151501791,000004DE,false,Tx,0,8,00,00,00,00,00,00,00,00,
151492584,000004E4,false,Rx,0,8,00,00,85,00,00,00,00,00,
151601515,000004DE,false,Tx,0,8,00,00,00,00,00,00,00,00,
151592585,000004E4,false,Rx,0,8,00,00,85,00,00,00,00,00,
151692584,000004E4,false,Rx,0,8,00,00,85,00,00,00,00,00,
151717529,000004DE,false,Tx,0,8,00,00,00,00,00,00,00,00,
151792614,000004E4,false,Rx,0,8,00,00,85,00,00,00,00,00,
151840143,000004DE,false,Tx,0,8,00,00,00,00,00,00,00,00,
151892607,000004E4,false,Rx,0,8,00,00,85,00,00,00,00,00,
151957207,000004DE,false,Tx,0,8,00,00,00,00,00,00,00,00,
151992599,000004E4,false,Rx,0,8,00,00,85,00,00,00,00,00,
152070989,000004DE,false,Tx,0,8,00,00,00,00,00,00,00,00,
152092593,000004E4,false,Rx,0,8,00,00,85,00,00,00,00,00,
152187423,000004DE,false,Tx,0,8,00,00,00,00,00,00,00,00,
152192594,000004E4,false,Rx,0,8,00,00,85,00,00,00,00,00,
152292594,000004E4,false,Rx,0,8,00,00,85,00,00,00,00,00,
152303787,000004DE,false,Tx,0,8,00,00,00,00,00,00,00,00,
152392598,000004E4,false,Rx,0,8,00,00,85,00,00,00,00,00,
152403293,000004DE,false,Tx,0,8,00,00,00,00,00,00,00,00,
152492622,000004E4,false,Rx,0,8,00,00,85,00,00,00,00,00,
152517890,000004DE,false,Tx,0,8,00,00,00,00,00,00,00,00,
152592613,000004E4,false,Rx,0,8,00,00,85,00,00,00,00,00,
152615502,000004DE,false,Tx,0,8,00,00,00,00,00,00,00,00,
152692604,000004E4,false,Rx,0,8,00,00,85,00,00,00,00,00,
152726129,000004DE,false,Tx,0,8,00,00,00,00,00,00,00,00,
152792604,000004E4,false,Rx,0,8,00,00,85,00,00,00,00,00,
152844135,000004DE,false,Tx,0,8,00,00,00,00,00,00,00,00,
152892608,000004E4,false,Rx,0,8,00,00,85,00,00,00,00,00,
152958938,000004DE,false,Tx,0,8,00,00,00,00,00,00,00,00,
152992610,000004E4,false,Rx,0,8,00,00,85,00,00,00,00,00,
153101383,000004DE,false,Tx,0,8,00,00,00,00,00,00,00,00,
153092630,000004E4,false,Rx,0,8,00,00,85,00,00,00,00,00,
153179002,000004DE,false,Tx,0,8,00,00,00,00,00,00,00,00,
153192630,000004E4,false,Rx,0,8,00,00,85,00,00,00,00,00,
153286872,000004DE,false,Tx,0,8,00,00,00,00,00,00,00,00,
153292620,000004E4,false,Rx,0,8,00,00,85,00,00,00,00,00,
153402609,000004DE,false,Tx,0,8,00,00,00,00,00,00,00,00,
153392609,000004E4,false,Rx,0,8,00,00,85,00,00,00,00,00,
153492615,000004E4,false,Rx,0,8,00,00,85,00,00,00,00,00,
153505511,000004DE,false,Tx,0,8,00,00,00,00,00,00,00,00,
153592615,000004E4,false,Rx,0,8,00,00,85,00,00,00,00,00,
153620905,000004DE,false,Tx,0,8,00,00,00,00,00,00,00,00,
153692625,000004E4,false,Rx,0,8,00,00,85,00,00,00,00,00,
153725108,000004DE,false,Tx,0,8,00,00,00,00,00,00,00,00,
153792645,000004E4,false,Rx,0,8,00,00,85,00,00,00,00,00,
153843173,000004DE,false,Tx,0,8,00,00,00,00,00,00,00,00,
153892637,000004E4,false,Rx,0,8,00,00,85,00,00,00,00,00,
153943908,000004DE,false,Tx,0,8,00,00,00,00,00,00,00,00,
153992625,000004E4,false,Rx,0,8,00,00,85,00,00,00,00,00,
154095840,000004DE,false,Tx,0,8,00,00,00,00,00,00,00,00,
154092625,000004E4,false,Rx,0,8,00,00,85,00,00,00,00,00,
154179701,000004DE,false,Tx,0,8,00,00,00,00,00,00,00,00,
154192625,000004E4,false,Rx,0,8,00,00,85,00,00,00,00,00,
154292625,000004E4,false,Rx,0,8,00,00,85,00,00,00,00,00,
154304183,000004DE,false,Tx,0,8,00,00,00,00,00,00,00,00,
154392650,000004E4,false,Rx,0,8,00,00,85,00,00,00,00,00,
154417137,000004DE,false,Tx,0,8,00,00,00,00,00,00,00,00,
154492651,000004E4,false,Rx,0,8,00,00,85,00,00,00,00,00,
154524363,000004DE,false,Tx,0,8,00,00,00,00,00,00,00,00,
154592640,000004E4,false,Rx,0,8,00,00,85,00,00,00,00,00,
154638520,000004DE,false,Tx,0,8,00,00,00,00,00,00,00,00,
154692641,000004E4,false,Rx,0,8,00,00,85,00,00,00,00,00,
154745502,000004DE,false,Tx,0,8,00,00,00,00,00,00,00,00,
154792640,000004E4,false,Rx,0,8,00,00,85,00,00,00,00,00,
154878373,000004DE,false,Tx,0,8,00,00,00,00,00,00,00,00,
154892645,000004E4,false,Rx,0,8,00,00,85,00,00,00,00,00,
154964779,000004DE,false,Tx,0,8,00,00,00,00,00,00,00,00,
154992644,000004E4,false,Rx,0,8,00,00,85,00,00,00,00,00,
155078082,000004DE,false,Tx,0,8,00,00,00,00,00,00,00,00,
155092666,000004E4,false,Rx,0,8,00,00,85,00,00,00,00,00,
155179740,000004DE,false,Tx,0,8,00,00,00,00,00,00,00,00,
155192656,000004E4,false,Rx,0,8,00,00,85,00,00,00,00,00,
155301501,000004DE,false,Tx,0,8,00,00,00,00,00,00,00,00,
155292646,000004E4,false,Rx,0,8,00,00,85,00,00,00,00,00,
155392650,000004E4,false,Rx,0,8,00,00,85,00,00,00,00,00,
155413119,000004DE,false,Tx,0,8,00,00,00,00,00,00,00,00,
155492651,000004E4,false,Rx,0,8,00,00,85,00,00,00,00,00,
155525348,000004DE,false,Tx,0,8,00,00,00,00,00,00,00,00,
155592646,000004E4,false,Rx,0,8,00,00,85,00,00,00,00,00,
155655232,000004DE,false,Tx,0,8,00,00,00,00,00,00,00,00,
155692676,000004E4,false,Rx,0,8,00,00,85,00,00,00,00,00,
155764404,000004DE,false,Tx,0,8,00,00,00,00,00,00,00,00,
155792667,000004E4,false,Rx,0,8,00,00,85,00,00,00,00,00,
155902861,000004DE,false,Tx,0,8,00,00,00,00,00,00,00,00,
155892664,000004E4,false,Rx,0,8,00,00,85,00,00,00,00,00,
155980976,000004DE,false,Tx,0,8,00,00,00,00,00,00,00,00,
155992656,000004E4,false,Rx,0,8,00,00,85,00,00,00,00,00,
156095983,000004DE,false,Tx,0,8,00,00,00,00,00,00,00,00,
156092656,000004E4,false,Rx,0,8,00,00,85,00,00,00,00,00,
156202054,000004DE,false,Tx,0,8,00,00,00,00,00,00,00,00,
156192655,000004E4,false,Rx,0,8,00,00,85,00,00,00,00,00,
156292657,000004E4,false,Rx,0,8,00,00,85,00,00,00,00,00,
156311286,000004DE,false,Tx,0,8,00,00,00,00,00,00,00,00,
156392681,000004E4,false,Rx,0,8,00,00,85,00,00,00,00,00,
156419487,000004DE,false,Tx,0,8,00,00,00,00,00,00,00,00,
156492682,000004E4,false,Rx,0,8,00,00,85,00,00,00,00,00,
156533671,000004DE,false,Tx,0,8,00,00,00,00,00,00,00,00,
156592672,000004E4,false,Rx,0,8,00,00,85,00,00,00,00,00,
156681649,000004DE,false,Tx,0,8,00,00,00,00,00,00,00,00,
156692666,000004E4,false,Rx,0,8,00,00,85,00,00,00,00,00,
156765091,000004DE,false,Tx,0,8,00,00,00,00,00,00,00,00,
156792667,000004E4,false,Rx,0,8,00,00,85,00,00,00,00,00,
156896005,000004DE,false,Tx,0,8,00,00,00,00,00,00,00,00,
156892671,000004E4,false,Rx,0,8,00,00,85,00,00,00,00,00,
156981245,000004DE,false,Tx,0,8,00,00,00,00,00,00,00,00,
156992692,000004E4,false,Rx,0,8,00,00,85,00,00,00,00,00,
157087229,000004DE,false,Tx,0,8,00,00,00,00,00,00,00,00,
157092693,000004E4,false,Rx,0,8,00,00,85,00,00,00,00,00,
157197236,000004DE,false,Tx,0,8,00,00,00,00,00,00,00,00,
157192683,000004E4,false,Rx,0,8,00,00,85,00,00,00,00,00,
157292682,000004E4,false,Rx,0,8,00,00,85,00,00,00,00,00,
157313176,000004DE,false,Tx,0,8,00,00,00,00,00,00,00,00,
157392675,000004E4,false,Rx,0,8,00,00,85,00,00,00,00,00,
157425071,000004DE,false,Tx,0,8,00,00,00,00,00,00,00,00,
157492676,000004E4,false,Rx,0,8,00,00,85,00,00,00,00,00,
157529662,000004DE,false,Tx,0,8,00,00,00,00,00,00,00,00,
157592676,000004E4,false,Rx,0,8,00,00,85,00,00,00,00,00,
157654758,000004DE,false,Tx,0,8,00,00,00,00,00,00,00,00,
157692708,000004E4,false,Rx,0,8,00,00,85,00,00,00,00,00,
157752329,000004DE,false,Tx,0,8,00,00,00,00,00,00,00,00,
157792698,000004E4,false,Rx,0,8,00,00,85,00,00,00,00,00,
157853198,000004DE,false,Tx,0,8,00,00,00,00,00,00,00,00,
157892691,000004E4,false,Rx,0,8,00,00,85,00,00,00,00,00,
157965503,000004DE,false,Tx,0,8,00,00,00,00,00,00,00,00,
157992692,000004E4,false,Rx,0,8,00,00,85,00,00,00,00,00,
158068536,000004DE,false,Tx,0,8,00,00,00,00,00,00,00,00,
158092692,000004E4,false,Rx,0,8,00,00,85,00,00,00,00,00,
158176659,000004DE,false,Tx,0,8,00,00,00,00,00,00,00,00,
158192687,000004E4,false,Rx,0,8,00,00,85,00,00,00,00,00,
158292708,000004E4,false,Rx,0,8,00,00,85,00,00,00,00,00,
158310078,000004DE,false,Tx,0,8,00,00,00,00,00,00,00,00,
158392711,000004E4,false,Rx,0,8,00,00,85,00,00,00,00,00,
158424521,000004DE,false,Tx,0,8,00,00,00,00,00,00,00,00,
158492707,000004E4,false,Rx,0,8,00,00,85,00,00,00,00,00,
158534104,000004DE,false,Tx,0,8,00,00,00,00,00,00,00,00,
158592697,000004E4,false,Rx,0,8,00,00,85,00,00,00,00,00,
158657466,000004DE,false,Tx,0,8,00,00,00,00,00,00,00,00,
158692698,000004E4,false,Rx,0,8,00,00,85,00,00,00,00,00,
158754042,000004DE,false,Tx,0,8,00,00,00,00,00,00,00,00,
158792698,000004E4,false,Rx,0,8,00,00,85,00,00,00,00,00,
158870214,000004DE,false,Tx,0,8,00,00,00,00,00,00,00,00,
158892701,000004E4,false,Rx,0,8,00,00,85,00,00,00,00,00,
158989282,000004DE,false,Tx,0,8,00,00,00,00,00,00,00,00,
158992728,000004E4,false,Rx,0,8,00,00,85,00,00,00,00,00,
159100889,000004DE,false,Tx,0,8,00,00,00,00,00,00,00,00,
159092719,000004E4,false,Rx,0,8,00,00,85,00,00,00,00,00,
159192708,000004E4,false,Rx,0,8,00,00,85,00,00,00,00,00,
159210541,000004DE,false,Tx,0,8,00,00,00,00,00,00,00,00,
159292708,000004E4,false,Rx,0,8,00,00,85,00,00,00,00,00,
159317146,000004DE,false,Tx,0,8,00,00,00,00,00,00,00,00,
159392712,000004E4,false,Rx,0,8,00,00,85,00,00,00,00,00,
159432620,000004DE,false,Tx,0,8,00,00,00,00,00,00,00,00,
159492712,000004E4,false,Rx,0,8,00,00,85,00,00,00,00,00,
159545407,000004DE,false,Tx,0,8,00,00,00,00,00,00,00,00,
159592715,000004E4,false,Rx,0,8,00,00,85,00,00,00,00,00,
159674311,000004DE,false,Tx,0,8,00,00,00,00,00,00,00,00,
159692738,000004E4,false,Rx,0,8,00,00,85,00,00,00,00,00,
159756181,000004DE,false,Tx,0,8,00,00,00,00,00,00,00,00,
159792728,000004E4,false,Rx,0,8,00,00,85,00,00,00,00,00,
159872582,000004DE,false,Tx,0,8,00,00,00,00,00,00,00,00,
159892719,000004E4,false,Rx,0,8,00,00,85,00,00,00,00,00,
160001437,000004DE,false,Tx,0,8,00,00,00,00,00,00,00,00,
159992722,000004E4,false,Rx,0,8,00,00,85,00,00,00,00,00,
160092717,000004E4,false,Rx,0,8,00,00,85,00,00,00,00,00,
160111904,000004DE,false,Tx,0,8,00,00,00,00,00,00,00,00,
160192718,000004E4,false,Rx,0,8,00,00,85,00,00,00,00,00,
160219538,000004DE,false,Tx,0,8,00,00,00,00,00,00,00,00,
160292749,000004E4,false,Rx,0,8,00,00,85,00,00,00,00,00,
160320108,000004DE,false,Tx,0,8,00,00,00,00,00,00,00,00,
160392739,000004E4,false,Rx,0,8,00,00,85,00,00,00,00,00,
160434081,000004DE,false,Tx,0,8,00,00,00,00,00,00,00,00,
160492738,000004E4,false,Rx,0,8,00,00,85,00,00,00,00,00,
160558445,000004DE,false,Tx,0,8,00,00,00,00,00,00,00,00,
160592729,000004E4,false,Rx,0,8,00,00,85,00,00,00,00,00,
160685208,000004DE,false,Tx,0,8,00,00,00,00,00,00,00,00,
160692729,000004E4,false,Rx,0,8,00,00,85,00,00,00,00,00,
160788097,000004DE,false,Tx,0,8,00,00,00,00,00,00,00,00,
160792729,000004E4,false,Rx,0,8,00,00,85,00,00,00,00,00,
160892732,000004E4,false,Rx,0,8,00,00,85,00,00,00,00,00,
160923287,000004DE,false,Tx,0,8,00,00,00,00,00,00,00,00,
160992760,000004E4,false,Rx,0,8,00,00,85,00,00,00,00,00,
161013508,000004DE,false,Tx,0,8,00,00,00,00,00,00,00,00,
161092750,000004E4,false,Rx,0,8,00,00,85,00,00,00,00,00,
161122165,000004DE,false,Tx,0,8,00,00,00,00,00,00,00,00,
161192739,000004E4,false,Rx,0,8,00,00,85,00,00,00,00,00,
161236891,000004DE,false,Tx,0,8,00,00,00,00,00,00,00,00,
161292739,000004E4,false,Rx,0,8,00,00,85,00,00,00,00,00,
161334935,000004DE,false,Tx,0,8,00,00,00,00,00,00,00,00,
161392742,000004E4,false,Rx,0,8,00,00,85,00,00,00,00,00,
161459513,000004DE,false,Tx,0,8,00,00,00,00,00,00,00,00,
161492739,000004E4,false,Rx,0,8,00,00,85,00,00,00,00,00,
161575432,000004DE,false,Tx,0,8,00,00,00,00,00,00,00,00,
161592770,000004E4,false,Rx,0,8,00,00,85,00,00,00,00,00,
161688345,000004DE,false,Tx,0,8,00,00,00,00,00,00,00,00,
161692760,000004E4,false,Rx,0,8,00,00,85,00,00,00,00,00,
161785571,000004DE,false,Tx,0,8,00,00,00,00,00,00,00,00,
161792760,000004E4,false,Rx,0,8,00,00,85,00,00,00,00,00,
161892752,000004E4,false,Rx,0,8,00,00,85,00,00,00,00,00,
161926004,000004DE,false,Tx,0,8,00,00,00,00,00,00,00,00,
161992750,000004E4,false,Rx,0,8,00,00,85,00,00,00,00,00,
162009063,000004DE,false,Tx,0,8,00,00,00,00,00,00,00,00,
162092749,000004E4,false,Rx,0,8,00,00,85,00,00,00,00,00,
162115024,000004DE,false,Tx,0,8,00,00,00,00,00,00,00,00,
162192749,000004E4,false,Rx,0,8,00,00,85,00,00,00,00,00,
162234931,000004DE,false,Tx,0,8,00,00,00,00,00,00,00,00,
162292780,000004E4,false,Rx,0,8,00,00,85,00,00,00,00,00,
162339754,000004DE,false,Tx,0,8,00,00,00,00,00,00,00,00,
162392773,000004E4,false,Rx,0,8,00,00,85,00,00,00,00,00,
162445740,000004DE,false,Tx,0,8,00,00,00,00,00,00,00,00,
162492760,000004E4,false,Rx,0,8,00,00,85,00,00,00,00,00,
162563023,000004DE,false,Tx,0,8,00,00,00,00,00,00,00,00,
162592760,000004E4,false,Rx,0,8,00,00,85,00,00,00,00,00,
162663743,000004DE,false,Tx,0,8,00,00,00,00,00,00,00,00,
162692764,000004E4,false,Rx,0,8,00,00,85,00,00,00,00,00,
162779053,000004DE,false,Tx,0,8,00,00,00,00,00,00,00,00,
162792764,000004E4,false,Rx,0,8,00,00,85,00,00,00,00,00,
162878858,000004DE,false,Tx,0,8,00,00,00,00,00,00,00,00,
162892786,000004E4,false,Rx,0,8,00,00,85,00,00,00,00,00,
162995670,000004DE,false,Tx,0,8,00,00,00,00,00,00,00,00,
162992786,000004E4,false,Rx,0,8,00,00,85,00,00,00,00,00,
163092776,000004E4,false,Rx,0,8,00,00,85,00,00,00,00,00,
163117669,000004DE,false,Tx,0,8,00,00,00,00,00,00,00,00,
163192770,000004E4,false,Rx,0,8,00,00,85,00,00,00,00,00,
163225819,000004DE,false,Tx,0,8,00,00,00,00,00,00,00,00,
163292769,000004E4,false,Rx,0,8,00,00,85,00,00,00,00,00,
163344535,000004DE,false,Tx,0,8,00,00,00,00,00,00,00,00,
163392770,000004E4,false,Rx,0,8,00,00,85,00,00,00,00,00,
163479197,000004DE,false,Tx,0,8,00,00,00,00,00,00,00,00,
163492770,000004E4,false,Rx,0,8,00,00,85,00,00,00,00,00,
163564398,000004DE,false,Tx,0,8,00,00,00,00,00,00,00,00,
163592801,000004E4,false,Rx,0,8,00,00,85,00,00,00,00,00,
163664808,000004DE,false,Tx,0,8,00,00,00,00,00,00,00,00,
163692794,000004E4,false,Rx,0,8,00,00,85,00,00,00,00,00,
163781175,000004DE,false,Tx,0,8,00,00,00,00,00,00,00,00,
163792785,000004E4,false,Rx,0,8,00,00,85,00,00,00,00,00,
163880741,000004DE,false,Tx,0,8,00,00,00,00,00,00,00,00,
163892779,000004E4,false,Rx,0,8,00,00,85,00,00,00,00,00,
163989242,000004DE,false,Tx,0,8,00,00,00,00,00,00,00,00,
163992786,000004E4,false,Rx,0,8,00,00,85,00,00,00,00,00,
164092786,000004E4,false,Rx,0,8,00,00,85,00,00,00,00,00,
164112244,000004DE,false,Tx,0,8,00,00,00,00,00,00,00,00,
164192810,000004E4,false,Rx,0,8,00,00,85,00,00,00,00,00,
164235408,000004DE,false,Tx,0,8,00,00,00,00,00,00,00,00,
164292800,000004E4,false,Rx,0,8,00,00,85,00,00,00,00,00,
164327983,000004DE,false,Tx,0,8,00,00,00,00,00,00,00,00,
164392801,000004E4,false,Rx,0,8,00,00,85,00,00,00,00,00,
164428769,000004DE,false,Tx,0,8,00,00,00,00,00,00,00,00,
164492791,000004E4,false,Rx,0,8,00,00,85,00,00,00,00,00,
164537254,000004DE,false,Tx,0,8,00,00,00,00,00,00,00,00,
164592790,000004E4,false,Rx,0,8,00,00,85,00,00,00,00,00,
164666057,000004DE,false,Tx,0,8,00,00,00,00,00,00,00,00,
164692794,000004E4,false,Rx,0,8,00,00,85,00,00,00,00,00,
164782295,000004DE,false,Tx,0,8,00,00,00,00,00,00,00,00,
164792801,000004E4,false,Rx,0,8,00,00,85,00,00,00,00,00,
164882276,000004DE,false,Tx,0,8,00,00,00,00,00,00,00,00,
164892822,000004E4,false,Rx,0,8,00,00,85,00,00,00,00,00,
164992811,000004E4,false,Rx,0,8,00,00,85,00,00,00,00,00,
165010591,000004DE,false,Tx,0,8,00,00,00,00,00,00,00,00,
165098616,000004DE,false,Tx,0,8,00,00,00,00,00,00,00,00,
165092811,000004E4,false,Rx,0,8,00,00,85,00,00,00,00,00,
165192801,000004E4,false,Rx,0,8,00,00,85,00,00,00,00,00,
165214029,000004DE,false,Tx,0,8,00,00,00,00,00,00,00,00,
165292801,000004E4,false,Rx,0,8,00,00,85,00,00,00,00,00,
165330239,000004DE,false,Tx,0,8,00,00,00,00,00,00,00,00,
165392801,000004E4,false,Rx,0,8,00,00,85,00,00,00,00,00,
165437419,000004DE,false,Tx,0,8,00,00,00,00,00,00,00,00,
165492833,000004E4,false,Rx,0,8,00,00,85,00,00,00,00,00,
165546038,000004DE,false,Tx,0,8,00,00,00,00,00,00,00,00,
165592832,000004E4,false,Rx,0,8,00,00,85,00,00,00,00,00,
165646293,000004DE,false,Tx,0,8,00,00,00,00,00,00,00,00,
165692821,000004E4,false,Rx,0,8,00,00,85,00,00,00,00,00,
165782793,000004DE,false,Tx,0,8,00,00,00,00,00,00,00,00,
165792812,000004E4,false,Rx,0,8,00,00,85,00,00,00,00,00,
165869007,000004DE,false,Tx,0,8,00,00,00,00,00,00,00,00,
165892812,000004E4,false,Rx,0,8,00,00,85,00,00,00,00,00,
165985338,000004DE,false,Tx,0,8,00,00,00,00,00,00,00,00,
165992815,000004E4,false,Rx,0,8,00,00,85,00,00,00,00,00,
166098071,000004DE,false,Tx,0,8,00,00,00,00,00,00,00,00,
166092821,000004E4,false,Rx,0,8,00,00,85,00,00,00,00,00,
166192842,000004E4,false,Rx,0,8,00,00,85,00,00,00,00,00,
166216643,000004DE,false,Tx,0,8,00,00,00,00,00,00,00,00,
166292836,000004E4,false,Rx,0,8,00,00,85,00,00,00,00,00,
166321783,000004DE,false,Tx,0,8,00,00,00,00,00,00,00,00,
166392832,000004E4,false,Rx,0,8,00,00,85,00,00,00,00,00,
166432214,000004DE,false,Tx,0,8,00,00,00,00,00,00,00,00,
166492825,000004E4,false,Rx,0,8,00,00,85,00,00,00,00,00,
166538265,000004DE,false,Tx,0,8,00,00,00,00,00,00,00,00,
166592822,000004E4,false,Rx,0,8,00,00,85,00,00,00,00,00,
166670027,000004DE,false,Tx,0,8,00,00,00,00,00,00,00,00,
166692822,000004E4,false,Rx,0,8,00,00,85,00,00,00,00,00,
166784508,000004DE,false,Tx,0,8,00,00,00,00,00,00,00,00,
166792827,000004E4,false,Rx,0,8,00,00,85,00,00,00,00,00,
166886179,000004DE,false,Tx,0,8,00,00,00,00,00,00,00,00,
166892847,000004E4,false,Rx,0,8,00,00,85,00,00,00,00,00,
166999444,000004DE,false,Tx,0,8,00,00,00,00,00,00,00,00,
166992837,000004E4,false,Rx,0,8,00,00,85,00,00,00,00,00,
167103264,000004DE,false,Tx,0,8,00,00,00,00,00,00,00,00,
167092837,000004E4,false,Rx,0,8,00,00,85,00,00,00,00,00,
167192831,000004E4,false,Rx,0,8,00,00,85,00,00,00,00,00,
167218322,000004DE,false,Tx,0,8,00,00,00,00,00,00,00,00,
167292832,000004E4,false,Rx,0,8,00,00,85,00,00,00,00,00,
167336100,000004DE,false,Tx,0,8,00,00,00,00,00,00,00,00,
167392832,000004E4,false,Rx,0,8,00,00,85,00,00,00,00,00,
167449969,000004DE,false,Tx,0,8,00,00,00,00,00,00,00,00,
167492864,000004E4,false,Rx,0,8,00,00,85,00,00,00,00,00,
167571813,000004DE,false,Tx,0,8,00,00,00,00,00,00,00,00,
167592852,000004E4,false,Rx,0,8,00,00,85,00,00,00,00,00,
167690678,000004DE,false,Tx,0,8,00,00,00,00,00,00,00,00,
167692853,000004E4,false,Rx,0,8,00,00,85,00,00,00,00,00,
167794708,000004DE,false,Tx,0,8,00,00,00,00,00,00,00,00,
167792842,000004E4,false,Rx,0,8,00,00,85,00,00,00,00,00,
167892842,000004E4,false,Rx,0,8,00,00,85,00,00,00,00,00,
167903451,000004DE,false,Tx,0,8,00,00,00,00,00,00,00,00,
167992842,000004E4,false,Rx,0,8,00,00,85,00,00,00,00,00,
168061130,000004DE,false,Tx,0,8,00,00,00,00,00,00,00,00,
168092852,000004E4,false,Rx,0,8,00,00,85,00,00,00,00,00,
168135171,000004DE,false,Tx,0,8,00,00,00,00,00,00,00,00,
168192874,000004E4,false,Rx,0,8,00,00,85,00,00,00,00,00,
168253777,000004DE,false,Tx,0,8,00,00,00,00,00,00,00,00,
168292864,000004E4,false,Rx,0,8,00,00,85,00,00,00,00,00,
168356561,000004DE,false,Tx,0,8,00,00,00,00,00,00,00,00,
168392853,000004E4,false,Rx,0,8,00,00,85,00,00,00,00,00,
168473353,000004DE,false,Tx,0,8,00,00,00,00,00,00,00,00,
168492856,000004E4,false,Rx,0,8,00,00,85,00,00,00,00,00,
168591150,000004DE,false,Tx,0,8,00,00,00,00,00,00,00,00,
168592853,000004E4,false,Rx,0,8,00,00,85,00,00,00,00,00,
168692853,000004E4,false,Rx,0,8,00,00,85,00,00,00,00,00,
168704529,000004DE,false,Tx,0,8,00,00,00,00,00,00,00,00,
168792877,000004E4,false,Rx,0,8,00,00,85,00,00,00,00,00,
168806873,000004DE,false,Tx,0,8,00,00,00,00,00,00,00,00,
168892884,000004E4,false,Rx,0,8,00,00,85,00,00,00,00,00,
168930123,000004DE,false,Tx,0,8,00,00,00,00,00,00,00,00,
168992866,000004E4,false,Rx,0,8,00,00,85,00,00,00,00,00,
169039659,000004DE,false,Tx,0,8,00,00,00,00,00,00,00,00,
169092864,000004E4,false,Rx,0,8,00,00,85,00,00,00,00,00,
169154175,000004DE,false,Tx,0,8,00,00,00,00,00,00,00,00,
169192863,000004E4,false,Rx,0,8,00,00,85,00,00,00,00,00,
169299977,000004DE,false,Tx,0,8,00,00,00,00,00,00,00,00,
169292868,000004E4,false,Rx,0,8,00,00,85,00,00,00,00,00,
169374146,000004DE,false,Tx,0,8,00,00,00,00,00,00,00,00,
169392868,000004E4,false,Rx,0,8,00,00,85,00,00,00,00,00,
169474315,000004DE,false,Tx,0,8,00,00,00,00,00,00,00,00,
169492892,000004E4,false,Rx,0,8,00,00,85,00,00,00,00,00,
169589919,000004DE,false,Tx,0,8,00,00,00,00,00,00,00,00,
169592883,000004E4,false,Rx,0,8,00,00,85,00,00,00,00,00,
169692884,000004E4,false,Rx,0,8,00,00,85,00,00,00,00,00,
169718731,000004DE,false,Tx,0,8,00,00,00,00,00,00,00,00,
169792878,000004E4,false,Rx,0,8,00,00,85,00,00,00,00,00,
169830815,000004DE,false,Tx,0,8,00,00,00,00,00,00,00,00,
169892879,000004E4,false,Rx,0,8,00,00,85,00,00,00,00,00,
169937461,000004DE,false,Tx,0,8,08,00,00,00,00,00,00,00,
169993110,000004E4,false,Rx,0,8,00,00,85,00,04,00,00,00,
170042908,000004DE,false,Tx,0,8,08,00,00,00,00,00,00,00,
170093142,000004E4,false,Rx,0,8,00,04,85,00,0B,02,00,00,
170153647,000004DE,false,Tx,0,8,08,00,00,00,00,00,00,00,
170193142,000004E4,false,Rx,0,8,00,0B,85,00,0E,04,00,00,
170297101,000004DE,false,Tx,0,8,08,00,00,00,00,00,00,00,
170293135,000004E4,false,Rx,0,8,00,12,85,00,10,05,00,00,
170391854,000004DE,false,Tx,0,8,08,00,00,00,00,00,00,00,
170393133,000004E4,false,Rx,0,8,00,19,85,00,13,06,00,00,
170492999,000004DE,false,Tx,0,8,08,00,00,00,00,00,00,00,
170493115,000004E4,false,Rx,0,8,00,1F,85,00,17,08,00,00,
170593112,000004E4,false,Rx,0,8,00,2F,85,00,19,08,00,00,
170608194,000004DE,false,Tx,0,8,08,00,00,00,00,00,00,00,
170693101,000004E4,false,Rx,0,8,00,34,85,00,18,06,00,00,
170716047,000004DE,false,Tx,0,8,08,00,00,00,00,00,00,00,
170793154,000004E4,false,Rx,0,8,00,33,85,00,18,04,00,00,
170823472,000004DE,false,Tx,0,8,08,00,00,00,00,00,00,00,
170893310,000004E4,false,Rx,0,8,00,33,85,00,19,03,00,00,
170939690,000004DE,false,Tx,0,8,08,00,00,00,00,00,00,00,
170993310,000004E4,false,Rx,0,8,00,35,85,00,1A,02,00,00,
171042152,000004DE,false,Tx,0,8,08,00,00,00,00,00,00,00,
171093299,000004E4,false,Rx,0,8,00,36,85,00,1C,02,00,00,
171155663,000004DE,false,Tx,0,8,08,00,00,00,00,00,00,00,
171193288,000004E4,false,Rx,0,8,00,37,85,00,1D,01,00,00,
171284100,000004DE,false,Tx,0,8,08,00,00,00,00,00,00,00,
171293283,000004E4,false,Rx,0,8,00,38,85,00,1E,01,00,00,
171378302,000004DE,false,Tx,0,8,08,00,00,00,00,00,00,00,
171393283,000004E4,false,Rx,0,8,00,38,85,00,1F,01,00,00,
171478732,000004DE,false,Tx,0,8,08,00,00,00,00,00,00,00,
171493328,000004E4,false,Rx,0,8,00,39,85,00,20,01,00,00,
171584876,000004DE,false,Tx,0,8,08,00,00,00,00,00,00,00,
171593318,000004E4,false,Rx,0,8,00,4E,85,00,20,00,00,00,
171694438,000004DE,false,Tx,0,8,08,00,00,00,00,00,00,00,
171693319,000004E4,false,Rx,0,8,00,5C,85,00,20,00,00,00,
171793304,000004E4,false,Rx,0,8,00,5C,85,00,20,00,00,00,
171806038,000004DE,false,Tx,0,8,08,00,00,00,00,00,00,00,
171893304,000004E4,false,Rx,0,8,00,5C,85,00,20,00,00,00,
171910647,000004DE,false,Tx,0,8,08,00,00,00,00,00,00,00,
171993297,000004E4,false,Rx,0,8,00,5C,85,00,20,00,00,00,
172048643,000004DE,false,Tx,0,8,08,00,00,00,00,00,00,00,
172093339,000004E4,false,Rx,0,8,00,5C,85,00,20,00,00,00,
172132330,000004DE,false,Tx,0,8,08,00,00,00,00,00,00,00,
172193341,000004E4,false,Rx,0,8,00,5B,85,00,20,00,00,00,
172243216,000004DE,false,Tx,0,8,08,00,00,00,00,00,00,00,
172293335,000004E4,false,Rx,0,8,00,5B,85,00,20,00,00,00,
172356245,000004DE,false,Tx,0,8,08,00,00,00,00,00,00,00,
172393325,000004E4,false,Rx,0,8,00,5B,85,00,20,00,00,00,
172464376,000004DE,false,Tx,0,8,08,00,00,00,00,00,00,00,
172493318,000004E4,false,Rx,0,8,00,5A,85,00,1F,00,00,00,
172579950,000004DE,false,Tx,0,8,08,00,00,00,00,00,00,00,
172593309,000004E4,false,Rx,0,8,00,59,85,00,1F,00,00,00,
172679994,000004DE,false,Tx,0,8,08,00,00,00,00,00,00,00,
172693351,000004E4,false,Rx,0,8,00,58,85,00,1F,00,00,00,
172790334,000004DE,false,Tx,0,8,08,00,00,00,00,00,00,00,
172793351,000004E4,false,Rx,0,8,00,58,85,00,1F,00,00,00,
172900486,000004DE,false,Tx,0,8,08,00,00,00,00,00,00,00,
172893340,000004E4,false,Rx,0,8,00,58,85,00,1F,00,00,00,
172993331,000004E4,false,Rx,0,8,00,58,85,00,1F,00,00,00,
173058785,000004DE,false,Tx,0,8,08,00,00,00,00,00,00,00,
173093330,000004E4,false,Rx,0,8,00,57,85,00,1E,00,00,00,
173114193,000004DE,false,Tx,0,8,08,00,00,00,00,00,00,00,
173193320,000004E4,false,Rx,0,8,00,57,85,00,1E,00,00,00,
173227452,000004DE,false,Tx,0,8,08,00,00,00,00,00,00,00,
173293313,000004E4,false,Rx,0,8,00,57,85,00,1E,00,00,00,
173401783,000004DE,false,Tx,0,8,08,00,00,00,00,00,00,00,
173393361,000004E4,false,Rx,0,8,00,57,85,00,1E,00,00,00,
173469422,000004DE,false,Tx,0,8,08,00,00,00,00,00,00,00,
173493364,000004E4,false,Rx,0,8,00,57,85,00,1E,00,00,00,
173581336,000004DE,false,Tx,0,8,08,00,00,00,00,00,00,00,
173593351,000004E4,false,Rx,0,8,00,57,85,00,1E,00,00,00,
173681364,000004DE,false,Tx,0,8,08,00,00,00,00,00,00,00,
173693341,000004E4,false,Rx,0,8,00,57,85,00,1E,00,00,00,
173793345,000004E4,false,Rx,0,8,00,56,85,00,1E,00,00,00,
173804314,000004DE,false,Tx,0,8,08,00,00,00,00,00,00,00,
173893326,000004E4,false,Rx,0,8,00,55,85,00,1E,00,00,00,
173904625,000004DE,false,Tx,0,8,08,00,00,00,00,00,00,00,
173993328,000004E4,false,Rx,0,8,00,55,85,00,1E,00,00,00,
174063127,000004DE,false,Tx,0,8,08,00,00,00,00,00,00,00,
174093368,000004E4,false,Rx,0,8,00,55,85,00,1D,00,00,00,
174116229,000004DE,false,Tx,0,8,08,00,00,00,00,00,00,00,
174193366,000004E4,false,Rx,0,8,00,54,85,00,1D,00,00,00,
174230797,000004DE,false,Tx,0,8,08,00,00,00,00,00,00,00,
174293359,000004E4,false,Rx,0,8,00,53,85,00,1D,00,00,00,
174337864,000004DE,false,Tx,0,8,08,00,00,00,00,00,00,00,
174393349,000004E4,false,Rx,0,8,00,53,85,00,1D,00,00,00,
174448010,000004DE,false,Tx,0,8,08,00,00,00,00,00,00,00,
174493341,000004E4,false,Rx,0,8,00,53,85,00,1D,00,00,00,
174562193,000004DE,false,Tx,0,8,08,00,00,00,00,00,00,00,
174593341,000004E4,false,Rx,0,8,00,53,85,00,1D,00,00,00,
174682891,000004DE,false,Tx,0,8,08,00,00,00,00,00,00,00,
174693382,000004E4,false,Rx,0,8,00,53,85,00,1D,00,00,00,
174798808,000004DE,false,Tx,0,8,08,00,00,00,00,00,00,00,
174793382,000004E4,false,Rx,0,8,00,53,85,00,1D,00,00,00,
174899091,000004DE,false,Tx,0,8,08,00,00,00,00,00,00,00,
174893371,000004E4,false,Rx,0,8,02,53,85,00,1D,00,00,10,
174993361,000004E4,false,Rx,0,8,02,4C,85,00,1A,00,00,10,
175048704,000004DE,false,Tx,0,8,08,00,00,00,00,00,00,00,
175093361,000004E4,false,Rx,0,8,02,3F,85,00,16,00,00,10,
175124252,000004DE,false,Tx,0,8,08,00,00,00,00,00,00,00,
175193351,000004E4,false,Rx,0,8,02,32,85,00,12,00,00,10,
175230634,000004DE,false,Tx,0,8,08,00,00,00,00,00,00,00,
175293340,000004E4,false,Rx,0,8,02,24,85,00,0D,00,00,10,
175335488,000004DE,false,Tx,0,8,08,00,00,00,00,00,00,00,
175392987,000004E4,false,Rx,0,8,02,04,85,00,01,00,00,10,
175446664,000004DE,false,Tx,0,8,08,00,00,00,00,00,00,00,
175492978,000004E4,false,Rx,0,8,02,00,85,00,00,00,00,10,
175575142,000004DE,false,Tx,0,8,08,00,00,00,00,00,00,00,
175592967,000004E4,false,Rx,0,8,02,00,85,00,00,00,00,10,
175684427,000004DE,false,Tx,0,8,08,00,00,00,00,00,00,00,
175692966,000004E4,false,Rx,0,8,02,00,85,00,00,00,00,10,
175800196,000004DE,false,Tx,0,8,08,00,00,00,00,00,00,00,
175792970,000004E4,false,Rx,0,8,02,00,85,00,00,00,00,10,
175900175,000004DE,false,Tx,0,8,08,00,00,00,00,00,00,00,
175892967,000004E4,false,Rx,0,8,02,00,85,00,00,00,00,10,
175992997,000004E4,false,Rx,0,8,02,00,85,00,00,00,00,10,
176008484,000004DE,false,Tx,0,8,08,00,00,00,00,00,00,00,
176092987,000004E4,false,Rx,0,8,02,00,85,00,00,00,00,10,
176122976,000004DE,false,Tx,0,8,08,00,00,00,00,00,00,00,
176192988,000004E4,false,Rx,0,8,02,00,85,00,00,00,00,10,
176232365,000004DE,false,Tx,0,8,08,00,00,00,00,00,00,00,
176292981,000004E4,false,Rx,0,8,02,00,85,00,00,00,00,10,
176366690,000004DE,false,Tx,0,8,08,00,00,00,00,00,00,00,
176392977,000004E4,false,Rx,0,8,02,00,85,00,00,00,00,10,
176448389,000004DE,false,Tx,0,8,08,00,00,00,00,00,00,00,
176492977,000004E4,false,Rx,0,8,02,00,85,00,00,00,00,10,
176592982,000004E4,false,Rx,0,8,02,00,85,00,00,00,00,10,
176607792,000004DE,false,Tx,0,8,08,00,00,00,00,00,00,00,
176669283,000004DE,false,Tx,0,8,08,00,00,00,00,00,00,00,
176693003,000004E4,false,Rx,0,8,02,00,85,00,00,00,00,10,
176778033,000004DE,false,Tx,0,8,08,00,00,00,00,00,00,00,
176792996,000004E4,false,Rx,0,8,02,00,85,00,00,00,00,10,
176888985,000004DE,false,Tx,0,8,08,00,00,00,00,00,00,00,
176893120,000004E4,false,Rx,0,8,02,00,85,00,00,00,00,10,
176990893,000004DE,false,Tx,0,8,08,00,00,00,00,00,00,00,
176993224,000004E4,false,Rx,0,8,02,01,85,00,09,01,00,10,
177098112,000004DE,false,Tx,0,8,08,00,00,00,00,00,00,00,
177093217,000004E4,false,Rx,0,8,02,08,85,00,0D,03,00,10,
177193216,000004E4,false,Rx,0,8,02,0F,85,00,0F,04,00,10,
177206979,000004DE,false,Tx,0,8,08,00,00,00,00,00,00,00,
177293259,000004E4,false,Rx,0,8,00,15,85,00,12,06,00,00,
177354675,000004DE,false,Tx,0,8,08,00,00,00,00,00,00,00,
177393257,000004E4,false,Rx,0,8,00,1C,85,00,15,07,00,00,
177430146,000004DE,false,Tx,0,8,08,00,00,00,00,00,00,00,
177493248,000004E4,false,Rx,0,8,00,23,85,00,18,09,00,00,
177543073,000004DE,false,Tx,0,8,08,00,00,00,00,00,00,00,
177593237,000004E4,false,Rx,0,8,00,33,85,00,19,07,00,00,
177646025,000004DE,false,Tx,0,8,08,00,00,00,00,00,00,00,
177693237,000004E4,false,Rx,0,8,00,33,85,00,18,05,00,00,
177754247,000004DE,false,Tx,0,8,08,00,00,00,00,00,00,00,
177793394,000004E4,false,Rx,0,8,00,33,85,00,18,04,00,00,
177866536,000004DE,false,Tx,0,8,08,00,00,00,00,00,00,00,
177893393,000004E4,false,Rx,0,8,00,34,85,00,19,03,00,00,
177977249,000004DE,false,Tx,0,8,08,00,00,00,00,00,00,00,
177993434,000004E4,false,Rx,0,8,00,35,85,00,1B,02,00,00,
178093428,000004E4,false,Rx,0,8,00,36,85,00,1C,01,00,00,
178126701,000004DE,false,Tx,0,8,08,00,00,00,00,00,00,00,
178195217,000004DE,false,Tx,0,8,08,00,00,00,00,00,00,00,
178193418,000004E4,false,Rx,0,8,00,37,85,00,1D,01,00,00,
178293410,000004E4,false,Rx,0,8,00,38,85,00,1E,01,00,00,
178334464,000004DE,false,Tx,0,8,08,00,00,00,00,00,00,00,
178393413,000004E4,false,Rx,0,8,00,38,85,00,1F,01,00,00,
178410315,000004DE,false,Tx,0,8,08,00,00,00,00,00,00,00,
178493403,000004E4,false,Rx,0,8,00,38,85,00,20,00,00,00,
178522078,000004DE,false,Tx,0,8,08,00,00,00,00,00,00,00,
178593397,000004E4,false,Rx,0,8,00,58,85,00,20,00,00,00,
178634228,000004DE,false,Tx,0,8,08,00,00,00,00,00,00,00,
178693438,000004E4,false,Rx,0,8,00,5B,85,00,20,00,00,00,
178793440,000004E4,false,Rx,0,8,00,5B,85,00,20,00,00,00,
178872592,000004DE,false,Tx,0,8,08,00,00,00,00,00,00,00,
178893428,000004E4,false,Rx,0,8,00,5A,85,00,1F,00,00,00,
178971842,000004DE,false,Tx,0,8,08,00,00,00,00,00,00,00,
178993428,000004E4,false,Rx,0,8,00,5A,85,00,1F,00,00,00,
179093421,000004E4,false,Rx,0,8,00,59,85,00,1F,00,00,00,
179124227,000004DE,false,Tx,0,8,08,00,00,00,00,00,00,00,
179192802,000004DE,false,Tx,0,8,08,00,00,00,00,00,00,00,
179193410,000004E4,false,Rx,0,8,00,59,85,00,1F,00,00,00,
179293455,000004E4,false,Rx,0,8,00,59,85,00,1F,00,00,00,
179332883,000004DE,false,Tx,0,8,08,00,00,00,00,00,00,00,
179393455,000004E4,false,Rx,0,8,00,59,85,00,1F,00,00,00,
179421952,000004DE,false,Tx,0,8,08,00,00,00,00,00,00,00,
179493444,000004E4,false,Rx,0,8,00,59,85,00,1F,00,00,00,
179531132,000004DE,false,Tx,0,8,08,00,00,00,00,00,00,00,
179593433,000004E4,false,Rx,0,8,00,59,85,00,1F,00,00,00,
179641245,000004DE,false,Tx,0,8,08,00,00,00,00,00,00,00,
179693433,000004E4,false,Rx,0,8,00,59,85,00,1F,00,00,00,
179739439,000004DE,false,Tx,0,8,08,00,00,00,00,00,00,00,
179793427,000004E4,false,Rx,0,8,00,59,85,00,1F,00,00,00,
179853170,000004DE,false,Tx,0,8,08,00,00,00,00,00,00,00,
179893475,000004E4,false,Rx,0,8,00,58,85,00,1F,00,00,00,
179963298,000004DE,false,Tx,0,8,08,00,00,00,00,00,00,00,
179993465,000004E4,false,Rx,0,8,00,57,85,00,1E,00,00,00,
180093458,000004E4,false,Rx,0,8,00,57,85,00,1E,00,00,00,
180104816,000004DE,false,Tx,0,8,08,00,00,00,00,00,00,00,
180176105,000004DE,false,Tx,0,8,08,00,00,00,00,00,00,00,
180193459,000004E4,false,Rx,0,8,00,56,85,00,1E,00,00,00,
180292129,000004DE,false,Tx,0,8,08,00,00,00,00,00,00,00,
180293440,000004E4,false,Rx,0,8,00,56,85,00,1E,00,00,00,
180393440,000004E4,false,Rx,0,8,00,56,85,00,1E,00,00,00,
180408078,000004DE,false,Tx,0,8,08,00,00,00,00,00,00,00,
180493429,000004E4,false,Rx,0,8,00,56,85,00,1E,00,00,00,
180508486,000004DE,false,Tx,0,8,08,00,00,00,00,00,00,00,
180593431,000004E4,false,Rx,0,8,00,56,85,00,1E,00,00,00,
180624620,000004DE,false,Tx,0,8,08,00,00,00,00,00,00,00,
180693481,000004E4,false,Rx,0,8,00,56,85,00,1E,00,00,00,
180724313,000004DE,false,Tx,0,8,08,00,00,00,00,00,00,00,
180793471,000004E4,false,Rx,0,8,00,56,85,00,1E,00,00,00,
180874845,000004DE,false,Tx,0,8,08,00,00,00,00,00,00,00,
180893460,000004E4,false,Rx,0,8,00,56,85,00,1E,00,00,00,
180963235,000004DE,false,Tx,0,8,08,00,00,00,00,00,00,00,
180993450,000004E4,false,Rx,0,8,00,55,85,00,1E,00,00,00,
181071435,000004DE,false,Tx,0,8,00,00,00,00,00,00,00,00,
181093450,000004E4,false,Rx,0,8,00,54,85,00,1E,00,00,00,
181193856,000004DE,false,Tx,0,8,00,00,00,00,00,00,00,00,
181193440,000004E4,false,Rx,0,8,00,4C,85,00,1B,00,00,00,
181293544,000004E4,false,Rx,0,8,00,3F,85,00,16,00,00,00,
181318189,000004DE,false,Tx,0,8,00,00,00,00,00,00,00,00,
181393484,000004E4,false,Rx,0,8,00,31,85,00,12,00,00,00,
181440965,000004DE,false,Tx,0,8,00,00,00,00,00,00,00,00,
181493464,000004E4,false,Rx,0,8,00,24,85,00,0D,00,00,00,
181541505,000004DE,false,Tx,0,8,00,00,00,00,00,00,00,00,
181593064,000004E4,false,Rx,0,8,00,04,85,00,01,00,00,00,
181671535,000004DE,false,Tx,0,8,00,00,00,00,00,00,00,00,
181693060,000004E4,false,Rx,0,8,00,00,85,00,00,00,00,00,
181773335,000004DE,false,Tx,0,8,00,00,00,00,00,00,00,00,
181793070,000004E4,false,Rx,0,8,00,00,85,00,00,00,00,00,
181894718,000004DE,false,Tx,0,8,00,00,00,00,00,00,00,00,
181893095,000004E4,false,Rx,0,8,00,00,85,00,00,00,00,00,
181993081,000004E4,false,Rx,0,8,00,00,85,00,00,00,00,00,
182025694,000004DE,false,Tx,0,8,00,00,00,00,00,00,00,00,
182093081,000004E4,false,Rx,0,8,00,00,85,00,00,00,00,00,
182131979,000004DE,false,Tx,0,8,00,00,00,00,00,00,00,00,
182193070,000004E4,false,Rx,0,8,00,00,85,00,00,00,00,00,
182245143,000004DE,false,Tx,0,8,00,00,00,00,00,00,00,00,
182293080,000004E4,false,Rx,0,8,00,00,85,00,00,00,00,00,
182395113,000004DE,false,Tx,0,8,00,00,00,00,00,00,00,00,
182393081,000004E4,false,Rx,0,8,00,00,85,00,00,00,00,00,
182458126,000004DE,false,Tx,0,8,00,00,00,00,00,00,00,00,
182493081,000004E4,false,Rx,0,8,00,00,85,00,00,00,00,00,
182572425,000004DE,false,Tx,0,8,00,00,00,00,00,00,00,00,
182593102,000004E4,false,Rx,0,8,00,00,85,00,00,00,00,00,
182678006,000004DE,false,Tx,0,8,00,00,00,00,00,00,00,00,
182693091,000004E4,false,Rx,0,8,00,00,85,00,00,00,00,00,
182787047,000004DE,false,Tx,0,8,00,00,00,00,00,00,00,00,
182793090,000004E4,false,Rx,0,8,00,00,85,00,00,00,00,00,
182900441,000004DE,false,Tx,0,8,00,00,00,00,00,00,00,00,
182893082,000004E4,false,Rx,0,8,00,00,85,00,00,00,00,00,
182993081,000004E4,false,Rx,0,8,00,00,85,00,00,00,00,00,
183011090,000004DE,false,Tx,0,8,00,00,00,00,00,00,00,00,
183093091,000004E4,false,Rx,0,8,00,00,85,00,00,00,00,00,
183156855,000004DE,false,Tx,0,8,00,00,00,00,00,00,00,00,
183193111,000004E4,false,Rx,0,8,00,00,85,00,00,00,00,00,
183234984,000004DE,false,Tx,0,8,00,00,00,00,00,00,00,00,
183293111,000004E4,false,Rx,0,8,00,00,85,00,00,00,00,00,
183334760,000004DE,false,Tx,0,8,00,00,00,00,00,00,00,00,
183393106,000004E4,false,Rx,0,8,00,00,85,00,00,00,00,00,
183452684,000004DE,false,Tx,0,8,00,00,00,00,00,00,00,00,
183493096,000004E4,false,Rx,0,8,00,00,85,00,00,00,00,00,
183552134,000004DE,false,Tx,0,8,00,00,00,00,00,00,00,00,
183593097,000004E4,false,Rx,0,8,00,00,85,00,00,00,00,00,
183675131,000004DE,false,Tx,0,8,00,00,00,00,00,00,00,00,
183693097,000004E4,false,Rx,0,8,00,00,85,00,00,00,00,00,
183778242,000004DE,false,Tx,0,8,00,00,00,00,00,00,00,00,
183793095,000004E4,false,Rx,0,8,00,00,85,00,00,00,00,00,
183893120,000004E4,false,Rx,0,8,00,00,85,00,00,00,00,00,
183917814,000004DE,false,Tx,0,8,00,00,00,00,00,00,00,00,
183993120,000004E4,false,Rx,0,8,00,00,85,00,00,00,00,00,
184013014,000004DE,false,Tx,0,8,00,00,00,00,00,00,00,00,
184093110,000004E4,false,Rx,0,8,00,00,85,00,00,00,00,00,
184115465,000004DE,false,Tx,0,8,00,00,00,00,00,00,00,00,
184193101,000004E4,false,Rx,0,8,00,00,85,00,00,00,00,00,
184229023,000004DE,false,Tx,0,8,00,00,00,00,00,00,00,00,
184293102,000004E4,false,Rx,0,8,00,00,85,00,00,00,00,00,
184341575,000004DE,false,Tx,0,8,00,00,00,00,00,00,00,00,
184393112,000004E4,false,Rx,0,8,00,00,85,00,00,00,00,00,
184445098,000004DE,false,Tx,0,8,00,00,00,00,00,00,00,00,
184493132,000004E4,false,Rx,0,8,00,00,85,00,00,00,00,00,
184551524,000004DE,false,Tx,0,8,00,00,00,00,00,00,00,00,
184593132,000004E4,false,Rx,0,8,00,00,85,00,00,00,00,00,
184664041,000004DE,false,Tx,0,8,00,00,00,00,00,00,00,00,
184693121,000004E4,false,Rx,0,8,00,00,85,00,00,00,00,00,
184777775,000004DE,false,Tx,0,8,00,00,00,00,00,00,00,00,
184793122,000004E4,false,Rx,0,8,00,00,85,00,00,00,00,00,
184898633,000004DE,false,Tx,0,8,00,00,00,00,00,00,00,00,
184893115,000004E4,false,Rx,0,8,00,00,85,00,00,00,00,00,
185000767,000004DE,false,Tx,0,8,00,00,00,00,00,00,00,00,
184993122,000004E4,false,Rx,0,8,00,00,85,00,00,00,00,00,
185093122,000004E4,false,Rx,0,8,00,00,85,00,00,00,00,00,
185118414,000004DE,false,Tx,0,8,00,00,00,00,00,00,00,00,
185193142,000004E4,false,Rx,0,8,00,00,85,00,00,00,00,00,
185237008,000004DE,false,Tx,0,8,00,00,00,00,00,00,00,00,
185293133,000004E4,false,Rx,0,8,00,00,85,00,00,00,00,00,
185332079,000004DE,false,Tx,0,8,00,00,00,00,00,00,00,00,
185393126,000004E4,false,Rx,0,8,00,00,85,00,00,00,00,00,
185447608,000004DE,false,Tx,0,8,00,00,00,00,00,00,00,00,
185493127,000004E4,false,Rx,0,8,00,00,85,00,00,00,00,00,
185565261,000004DE,false,Tx,0,8,00,00,00,00,00,00,00,00,
185593127,000004E4,false,Rx,0,8,00,00,85,00,00,00,00,00,
185675012,000004DE,false,Tx,0,8,00,00,00,00,00,00,00,00,
185693127,000004E4,false,Rx,0,8,00,00,85,00,00,00,00,00,
185774018,000004DE,false,Tx,0,8,00,00,00,00,00,00,00,00,
185793148,000004E4,false,Rx,0,8,00,00,85,00,00,00,00,00,
185893152,000004E4,false,Rx,0,8,00,00,85,00,00,00,00,00,
185915444,000004DE,false,Tx,0,8,00,00,00,00,00,00,00,00,
186001464,000004DE,false,Tx,0,8,00,00,00,00,00,00,00,00,
185993142,000004E4,false,Rx,0,8,00,00,85,00,00,00,00,00,
186101745,000004DE,false,Tx,0,8,00,00,00,00,00,00,00,00,
186093142,000004E4,false,Rx,0,8,00,00,85,00,00,00,00,00,
186193133,000004E4,false,Rx,0,8,00,00,85,00,00,00,00,00,
186217213,000004DE,false,Tx,0,8,00,00,00,00,00,00,00,00,
186293143,000004E4,false,Rx,0,8,00,00,85,00,00,00,00,00,
186317756,000004DE,false,Tx,0,8,00,00,00,00,00,00,00,00,
186393146,000004E4,false,Rx,0,8,00,00,85,00,00,00,00,00,
186433534,000004DE,false,Tx,0,8,00,00,00,00,00,00,00,00,
186493163,000004E4,false,Rx,0,8,00,00,85,00,00,00,00,00,
186549254,000004DE,false,Tx,0,8,00,00,00,00,00,00,00,00,
186593163,000004E4,false,Rx,0,8,00,00,85,00,00,00,00,00,
186692923,000004DE,false,Tx,0,8,00,00,00,00,00,00,00,00,
186693153,000004E4,false,Rx,0,8,00,00,85,00,00,00,00,00,
186753947,000004DE,false,Tx,0,8,00,00,00,00,00,00,00,00,
186793143,000004E4,false,Rx,0,8,00,00,85,00,00,00,00,00,
186868581,000004DE,false,Tx,0,8,00,00,00,00,00,00,00,00,
186893146,000004E4,false,Rx,0,8,00,00,85,00,00,00,00,00,
186982070,000004DE,false,Tx,0,8,00,00,00,00,00,00,00,00,
186993152,000004E4,false,Rx,0,8,00,00,85,00,00,00,00,00,
187103267,000004DE,false,Tx,0,8,00,00,00,00,00,00,00,00,
187093167,000004E4,false,Rx,0,8,00,00,85,00,00,00,00,00,
187193174,000004E4,false,Rx,0,8,00,00,85,00,00,00,00,00,
187225909,000004DE,false,Tx,0,8,00,00,00,00,00,00,00,00,
187293163,000004E4,false,Rx,0,8,00,00,85,00,00,00,00,00,
187336168,000004DE,false,Tx,0,8,00,00,00,00,00,00,00,00,
187393164,000004E4,false,Rx,0,8,00,00,85,00,00,00,00,00,
187450386,000004DE,false,Tx,0,8,00,00,00,00,00,00,00,00,
187493163,000004E4,false,Rx,0,8,00,00,85,00,00,00,00,00,
187560111,000004DE,false,Tx,0,8,00,00,00,00,00,00,00,00,
187593154,000004E4,false,Rx,0,8,00,00,85,00,00,00,00,00,
187678650,000004DE,false,Tx,0,8,00,00,00,00,00,00,00,00,
187693164,000004E4,false,Rx,0,8,00,00,85,00,00,00,00,00,
187783376,000004DE,false,Tx,0,8,00,00,00,00,00,00,00,00,
187793184,000004E4,false,Rx,0,8,00,00,85,00,00,00,00,00,
187893177,000004E4,false,Rx,0,8,00,00,85,00,00,00,00,00,
187919335,000004DE,false,Tx,0,8,00,00,00,00,00,00,00,00,
187993173,000004E4,false,Rx,0,8,00,00,85,00,00,00,00,00,
188005607,000004DE,false,Tx,0,8,00,00,00,00,00,00,00,00,
188093164,000004E4,false,Rx,0,8,00,00,85,00,00,00,00,00,
188123757,000004DE,false,Tx,0,8,00,00,00,00,00,00,00,00,
188193174,000004E4,false,Rx,0,8,00,00,85,00,00,00,00,00,
188237178,000004DE,false,Tx,0,8,00,00,00,00,00,00,00,00,
188293174,000004E4,false,Rx,0,8,00,00,85,00,00,00,00,00,
188337453,000004DE,false,Tx,0,8,00,00,00,00,00,00,00,00,
188393168,000004E4,false,Rx,0,8,00,00,85,00,00,00,00,00,
188452633,000004DE,false,Tx,0,8,00,00,00,00,00,00,00,00,
188493191,000004E4,false,Rx,0,8,00,00,85,00,00,00,00,00,
188553271,000004DE,false,Tx,0,8,00,00,00,00,00,00,00,00,
188593191,000004E4,false,Rx,0,8,00,00,85,00,00,00,00,00,
188669958,000004DE,false,Tx,0,8,00,00,00,00,00,00,00,00,
188693183,000004E4,false,Rx,0,8,00,00,85,00,00,00,00,00,
188780302,000004DE,false,Tx,0,8,00,00,00,00,00,00,00,00,
188793183,000004E4,false,Rx,0,8,00,00,85,00,00,00,00,00,
188893183,000004E4,false,Rx,0,8,00,00,85,00,00,00,00,00,
188921208,000004DE,false,Tx,0,8,00,00,00,00,00,00,00,00,
188991136,000004DE,false,Tx,0,8,00,00,00,00,00,00,00,00,
188993183,000004E4,false,Rx,0,8,00,00,85,00,00,00,00,00,
189093206,000004E4,false,Rx,0,8,00,00,85,00,00,00,00,00,
189107278,000004DE,false,Tx,0,8,00,00,00,00,00,00,00,00,
189193206,000004E4,false,Rx,0,8,00,00,85,00,00,00,00,00,
189207515,000004DE,false,Tx,0,8,00,00,00,00,00,00,00,00,
189293195,000004E4,false,Rx,0,8,00,00,85,00,00,00,00,00,
189326706,000004DE,false,Tx,0,8,00,00,00,00,00,00,00,00,
189393184,000004E4,false,Rx,0,8,00,00,85,00,00,00,00,00,
189438850,000004DE,false,Tx,0,8,00,00,00,00,00,00,00,00,
189493195,000004E4,false,Rx,0,8,00,00,85,00,00,00,00,00,
189540535,000004DE,false,Tx,0,8,00,00,00,00,00,00,00,00,
189593196,000004E4,false,Rx,0,8,00,00,85,00,00,00,00,00,
189687707,000004DE,false,Tx,0,8,00,00,00,00,00,00,00,00,
189693196,000004E4,false,Rx,0,8,00,00,85,00,00,00,00,00,
189759135,000004DE,false,Tx,0,8,00,00,00,00,00,00,00,00,
189793216,000004E4,false,Rx,0,8,00,00,85,00,00,00,00,00,
189872838,000004DE,false,Tx,0,8,00,00,00,00,00,00,00,00,
189893206,000004E4,false,Rx,0,8,00,00,85,00,00,00,00,00,
189990431,000004DE,false,Tx,0,8,00,00,00,00,00,00,00,00,
189993206,000004E4,false,Rx,0,8,00,00,85,00,00,00,00,00,
190093196,000004E4,false,Rx,0,8,00,00,85,00,00,00,00,00,
190109233,000004DE,false,Tx,0,8,00,00,00,00,00,00,00,00,
190193199,000004E4,false,Rx,0,8,00,00,85,00,00,00,00,00,
190224326,000004DE,false,Tx,0,8,00,00,00,00,00,00,00,00,
190293206,000004E4,false,Rx,0,8,00,00,85,00,00,00,00,00,
190324905,000004DE,false,Tx,0,8,00,00,00,00,00,00,00,00,
190393226,000004E4,false,Rx,0,8,00,00,85,00,00,00,00,00,
190441351,000004DE,false,Tx,0,8,00,00,00,00,00,00,00,00,
190493227,000004E4,false,Rx,0,8,00,00,85,00,00,00,00,00,
190536230,000004DE,false,Tx,0,8,00,00,00,00,00,00,00,00,
190593216,000004E4,false,Rx,0,8,00,00,85,00,00,00,00,00,
190657079,000004DE,false,Tx,0,8,00,00,00,00,00,00,00,00,
190693209,000004E4,false,Rx,0,8,00,00,85,00,00,00,00,00,
190760928,000004DE,false,Tx,0,8,00,00,00,00,00,00,00,00,
190793216,000004E4,false,Rx,0,8,00,00,85,00,00,00,00,00,
190874621,000004DE,false,Tx,0,8,00,00,00,00,00,00,00,00,
190893216,000004E4,false,Rx,0,8,00,00,85,00,00,00,00,00,
190989139,000004DE,false,Tx,0,8,00,00,00,00,00,00,00,00,
190993212,000004E4,false,Rx,0,8,00,00,85,00,00,00,00,00,
191082918,000004DE,false,Tx,0,8,00,00,00,00,00,00,00,00,
191093242,000004E4,false,Rx,0,8,00,00,85,00,00,00,00,00,
191193232,000004E4,false,Rx,0,8,00,00,85,00,00,00,00,00,
191211323,000004DE,false,Tx,0,8,00,00,00,00,00,00,00,00,
191293221,000004E4,false,Rx,0,8,00,00,85,00,00,00,00,00,
191328532,000004DE,false,Tx,0,8,00,00,00,00,00,00,00,00,
191393221,000004E4,false,Rx,0,8,00,00,85,00,00,00,00,00,
191427417,000004DE,false,Tx,0,8,00,00,00,00,00,00,00,00,
191493226,000004E4,false,Rx,0,8,00,00,85,00,00,00,00,00,
191543117,000004DE,false,Tx,0,8,00,00,00,00,00,00,00,00,
191593227,000004E4,false,Rx,0,8,00,00,85,00,00,00,00,00,
191660191,000004DE,false,Tx,0,8,00,00,00,00,00,00,00,00,
191693247,000004E4,false,Rx,0,8,00,00,85,00,00,00,00,00,
191781961,000004DE,false,Tx,0,8,00,00,00,00,00,00,00,00,
191793247,000004E4,false,Rx,0,8,00,00,85,00,00,00,00,00,
191869979,000004DE,false,Tx,0,8,00,00,00,00,00,00,00,00,
191893237,000004E4,false,Rx,0,8,00,00,85,00,00,00,00,00,
191983344,000004DE,false,Tx,0,8,00,00,00,00,00,00,00,00,
191993237,000004E4,false,Rx,0,8,00,00,85,00,00,00,00,00,
192097299,000004DE,false,Tx,0,8,00,00,00,00,00,00,00,00,
192093227,000004E4,false,Rx,0,8,00,00,85,00,00,00,00,00,
192192505,000004DE,false,Tx,0,8,00,00,00,00,00,00,00,00,
192193237,000004E4,false,Rx,0,8,00,00,85,00,00,00,00,00,
192293238,000004E4,false,Rx,0,8,00,00,85,00,00,00,00,00,
192313183,000004DE,false,Tx,0,8,00,00,00,00,00,00,00,00,
192393258,000004E4,false,Rx,0,8,00,00,85,00,00,00,00,00,
192422396,000004DE,false,Tx,0,8,00,00,00,00,00,00,00,00,
192493258,000004E4,false,Rx,0,8,00,00,85,00,00,00,00,00,
192558071,000004DE,false,Tx,0,8,00,00,00,00,00,00,00,00,
192593247,000004E4,false,Rx,0,8,00,00,85,00,00,00,00,00,
192644211,000004DE,false,Tx,0,8,00,00,00,00,00,00,00,00,
192693237,000004E4,false,Rx,0,8,00,00,85,00,00,00,00,00,
192745110,000004DE,false,Tx,0,8,00,00,00,00,00,00,00,00,
192793240,000004E4,false,Rx,0,8,00,00,85,00,00,00,00,00,
192851985,000004DE,false,Tx,0,8,00,00,00,00,00,00,00,00,
192893243,000004E4,false,Rx,0,8,00,00,85,00,00,00,00,00,
192958372,000004DE,false,Tx,0,8,00,00,00,00,00,00,00,00,
192993264,000004E4,false,Rx,0,8,00,00,85,00,00,00,00,00,
193076729,000004DE,false,Tx,0,8,00,00,00,00,00,00,00,00,
193093264,000004E4,false,Rx,0,8,00,00,85,00,00,00,00,00,
193190499,000004DE,false,Tx,0,8,00,00,00,00,00,00,00,00,
193193262,000004E4,false,Rx,0,8,00,00,85,00,00,00,00,00,
193293256,000004E4,false,Rx,0,8,00,00,85,00,00,00,00,00,
193323483,000004DE,false,Tx,0,8,00,00,00,00,00,00,00,00,
193398611,000004DE,false,Tx,0,8,00,00,00,00,00,00,00,00,
193393247,000004E4,false,Rx,0,8,00,00,85,00,00,00,00,00,
193493258,000004E4,false,Rx,0,8,00,00,85,00,00,00,00,00,
193512955,000004DE,false,Tx,0,8,00,00,00,00,00,00,00,00,
193593257,000004E4,false,Rx,0,8,00,00,85,00,00,00,00,00,
193616200,000004DE,false,Tx,0,8,00,00,00,00,00,00,00,00,
193693278,000004E4,false,Rx,0,8,00,00,85,00,00,00,00,00,
193731966,000004DE,false,Tx,0,8,00,00,00,00,00,00,00,00,
193793272,000004E4,false,Rx,0,8,00,00,85,00,00,00,00,00,
193831926,000004DE,false,Tx,0,8,00,00,00,00,00,00,00,00,
193893268,000004E4,false,Rx,0,8,00,00,85,00,00,00,00,00,
193947832,000004DE,false,Tx,0,8,00,00,00,00,00,00,00,00,
193993258,000004E4,false,Rx,0,8,00,00,85,00,00,00,00,00,
194087013,000004DE,false,Tx,0,8,00,00,00,00,00,00,00,00,
194093268,000004E4,false,Rx,0,8,00,00,85,00,00,00,00,00,
194165009,000004DE,false,Tx,0,8,00,00,00,00,00,00,00,00,
194193267,000004E4,false,Rx,0,8,00,00,85,00,00,00,00,00,
194283850,000004DE,false,Tx,0,8,00,00,00,00,00,00,00,00,
194293272,000004E4,false,Rx,0,8,00,00,85,00,00,00,00,00,
194382969,000004DE,false,Tx,0,8,00,00,00,00,00,00,00,00,
194393289,000004E4,false,Rx,0,8,00,00,85,00,00,00,00,00,
194494781,000004DE,false,Tx,0,8,00,00,00,00,00,00,00,00,
194493278,000004E4,false,Rx,0,8,00,00,85,00,00,00,00,00,
194597942,000004DE,false,Tx,0,8,00,00,00,00,00,00,00,00,
194593278,000004E4,false,Rx,0,8,00,00,85,00,00,00,00,00,
194693278,000004E4,false,Rx,0,8,00,00,85,00,00,00,00,00,
194710070,000004DE,false,Tx,0,8,00,00,00,00,00,00,00,00,
194793270,000004E4,false,Rx,0,8,00,00,85,00,00,00,00,00,
194832459,000004DE,false,Tx,0,8,00,00,00,00,00,00,00,00,
194893279,000004E4,false,Rx,0,8,00,00,85,00,00,00,00,00,
194949578,000004DE,false,Tx,0,8,00,00,00,00,00,00,00,00,
194993299,000004E4,false,Rx,0,8,00,00,85,00,00,00,00,00,
195081388,000004DE,false,Tx,0,8,00,00,00,00,00,00,00,00,
195093302,000004E4,false,Rx,0,8,00,00,85,00,00,00,00,00,
195169009,000004DE,false,Tx,0,8,00,00,00,00,00,00,00,00,
195193293,000004E4,false,Rx,0,8,00,00,85,00,00,00,00,00,
195281248,000004DE,false,Tx,0,8,00,00,00,00,00,00,00,00,
195293288,000004E4,false,Rx,0,8,00,00,85,00,00,00,00,00,
195382893,000004DE,false,Tx,0,8,00,00,00,00,00,00,00,00,
195393289,000004E4,false,Rx,0,8,00,00,85,00,00,00,00,00,
195490540,000004DE,false,Tx,0,8,00,00,00,00,00,00,00,00,
195493289,000004E4,false,Rx,0,8,00,00,85,00,00,00,00,00,
195593283,000004E4,false,Rx,0,8,00,00,85,00,00,00,00,00,
195619143,000004DE,false,Tx,0,8,00,00,00,00,00,00,00,00,
195693315,000004E4,false,Rx,0,8,00,00,85,00,00,00,00,00,
195734751,000004DE,false,Tx,0,8,00,00,00,00,00,00,00,00,
195793306,000004E4,false,Rx,0,8,00,00,85,00,00,00,00,00,
195844260,000004DE,false,Tx,0,8,00,00,00,00,00,00,00,00,
195893294,000004E4,false,Rx,0,8,00,00,85,00,00,00,00,00,
195950871,000004DE,false,Tx,0,8,00,00,00,00,00,00,00,00,
195993294,000004E4,false,Rx,0,8,00,00,85,00,00,00,00,00,
196084117,000004DE,false,Tx,0,8,00,00,00,00,00,00,00,00,
196093297,000004E4,false,Rx,0,8,00,00,85,00,00,00,00,00,
196182873,000004DE,false,Tx,0,8,00,00,00,00,00,00,00,00,
196193299,000004E4,false,Rx,0,8,00,00,85,00,00,00,00,00,
196299058,000004DE,false,Tx,0,8,00,00,00,00,00,00,00,00,
196293321,000004E4,false,Rx,0,8,00,00,85,00,00,00,00,00,
196393320,000004E4,false,Rx,0,8,00,00,85,00,00,00,00,00,
196420924,000004DE,false,Tx,0,8,00,00,00,00,00,00,00,00,
196493309,000004E4,false,Rx,0,8,00,00,85,00,00,00,00,00,
196521413,000004DE,false,Tx,0,8,00,00,00,00,00,00,00,00,
196593309,000004E4,false,Rx,0,8,00,00,85,00,00,00,00,00,
196636930,000004DE,false,Tx,0,8,00,00,00,00,00,00,00,00,
196693310,000004E4,false,Rx,0,8,00,00,85,00,00,00,00,00,
196742581,000004DE,false,Tx,0,8,00,00,00,00,00,00,00,00,
196793303,000004E4,false,Rx,0,8,00,00,85,00,00,00,00,00,
196852623,000004DE,false,Tx,0,8,00,00,00,00,00,00,00,00,
196893309,000004E4,false,Rx,0,8,00,00,85,00,00,00,00,00,
196968832,000004DE,false,Tx,0,8,00,00,00,00,00,00,00,00,
196993330,000004E4,false,Rx,0,8,00,00,85,00,00,00,00,00,
197093024,000004DE,false,Tx,0,8,00,00,00,00,00,00,00,00,
197093323,000004E4,false,Rx,0,8,00,00,85,00,00,00,00,00,
197186168,000004DE,false,Tx,0,8,00,00,00,00,00,00,00,00,
197193316,000004E4,false,Rx,0,8,00,00,85,00,00,00,00,00,
197286834,000004DE,false,Tx,0,8,00,00,00,00,00,00,00,00,
197293318,000004E4,false,Rx,0,8,00,00,85,00,00,00,00,00,
197398301,000004DE,false,Tx,0,8,00,00,00,00,00,00,00,00,
197393320,000004E4,false,Rx,0,8,00,00,85,00,00,00,00,00,
197493319,000004E4,false,Rx,0,8,00,00,85,00,00,00,00,00,
197511115,000004DE,false,Tx,0,8,00,00,00,00,00,00,00,00,
197593345,000004E4,false,Rx,0,8,00,00,85,00,00,00,00,00,
197629244,000004DE,false,Tx,0,8,00,00,00,00,00,00,00,00,
197693345,000004E4,false,Rx,0,8,00,00,85,00,00,00,00,00,
197739493,000004DE,false,Tx,0,8,00,00,00,00,00,00,00,00,
197793336,000004E4,false,Rx,0,8,00,00,85,00,00,00,00,00,
197860026,000004DE,false,Tx,0,8,00,00,00,00,00,00,00,00,
197893326,000004E4,false,Rx,0,8,00,00,85,00,00,00,00,00,
197967687,000004DE,false,Tx,0,8,00,00,00,00,00,00,00,00,
197993324,000004E4,false,Rx,0,8,00,00,85,00,00,00,00,00,
198093330,000004E4,false,Rx,0,8,00,00,85,00,00,00,00,00,
198104168,000004DE,false,Tx,0,8,00,00,00,00,00,00,00,00,
198177366,000004DE,false,Tx,0,8,00,00,00,00,00,00,00,00,
198193330,000004E4,false,Rx,0,8,00,00,85,00,00,00,00,00,
198287256,000004DE,false,Tx,0,8,00,00,00,00,00,00,00,00,
198293351,000004E4,false,Rx,0,8,00,00,85,00,00,00,00,00,
198393350,000004E4,false,Rx,0,8,00,00,85,00,00,00,00,00,
198409224,000004DE,false,Tx,0,8,00,00,00,00,00,00,00,00,
198493340,000004E4,false,Rx,0,8,00,00,85,00,00,00,00,00,
198525455,000004DE,false,Tx,0,8,00,00,00,00,00,00,00,00,
198593334,000004E4,false,Rx,0,8,00,00,85,00,00,00,00,00,
198644173,000004DE,false,Tx,0,8,00,00,00,00,00,00,00,00,
198693336,000004E4,false,Rx,0,8,00,00,85,00,00,00,00,00,
198757092,000004DE,false,Tx,0,8,00,00,00,00,00,00,00,00,
198793335,000004E4,false,Rx,0,8,00,00,85,00,00,00,00,00,
198872311,000004DE,false,Tx,0,8,00,00,00,00,00,00,00,00,
198893361,000004E4,false,Rx,0,8,00,00,85,00,00,00,00,00,
198972782,000004DE,false,Tx,0,8,00,00,00,00,00,00,00,00,
198993361,000004E4,false,Rx,0,8,00,00,85,00,00,00,00,00,
199093355,000004E4,false,Rx,0,8,00,00,85,00,00,00,00,00,
199105103,000004DE,false,Tx,0,8,00,00,00,00,00,00,00,00,
199193346,000004E4,false,Rx,0,8,00,00,85,00,00,00,00,00,
199206794,000004DE,false,Tx,0,8,00,00,00,00,00,00,00,00,
199293346,000004E4,false,Rx,0,8,00,00,85,00,00,00,00,00,
199305460,000004DE,false,Tx,0,8,00,00,00,00,00,00,00,00,
199393346,000004E4,false,Rx,0,8,00,00,85,00,00,00,00,00,
199427084,000004DE,false,Tx,0,8,00,00,00,00,00,00,00,00,
199493347,000004E4,false,Rx,0,8,00,00,85,00,00,00,00,00,
199545136,000004DE,false,Tx,0,8,00,00,00,00,00,00,00,00,
199593370,000004E4,false,Rx,0,8,00,00,85,00,00,00,00,00,
199658442,000004DE,false,Tx,0,8,00,00,00,00,00,00,00,00,
199693372,000004E4,false,Rx,0,8,00,00,85,00,00,00,00,00,
199758486,000004DE,false,Tx,0,8,00,00,00,00,00,00,00,00,
199793361,000004E4,false,Rx,0,8,00,00,85,00,00,00,00,00,
199886099,000004DE,false,Tx,0,8,00,00,00,00,00,00,00,00,
199893354,000004E4,false,Rx,0,8,00,00,85,00,00,00,00,00,
199974352,000004DE,false,Tx,0,8,00,00,00,00,00,00,00,00,
199993362,000004E4,false,Rx,0,8,00,00,85,00,00,00,00,00,
200092461,000004DE,false,Tx,0,8,00,00,00,00,00,00,00,00,
200093363,000004E4,false,Rx,0,8,00,00,85,00,00,00,00,00,
200191582,000004DE,false,Tx,0,8,00,00,00,00,00,00,00,00,
200193382,000004E4,false,Rx,0,8,00,00,85,00,00,00,00,00,
200293382,000004E4,false,Rx,0,8,00,00,85,00,00,00,00,00,
200328456,000004DE,false,Tx,0,8,00,00,00,00,00,00,00,00,
200393376,000004E4,false,Rx,0,8,00,00,85,00,00,00,00,00,
200429672,000004DE,false,Tx,0,8,00,00,00,00,00,00,00,00,
200493366,000004E4,false,Rx,0,8,00,00,85,00,00,00,00,00,
200544043,000004DE,false,Tx,0,8,00,00,00,00,00,00,00,00,
200593366,000004E4,false,Rx,0,8,00,00,85,00,00,00,00,00,
200658815,000004DE,false,Tx,0,8,00,00,00,00,00,00,00,00,
200693366,000004E4,false,Rx,0,8,00,00,85,00,00,00,00,00,
200768476,000004DE,false,Tx,0,8,00,00,00,00,00,00,00,00,
200793376,000004E4,false,Rx,0,8,00,00,85,00,00,00,00,00,
200872861,000004DE,false,Tx,0,8,00,00,00,00,00,00,00,00,
200893390,000004E4,false,Rx,0,8,00,00,85,00,00,00,00,00,
200976821,000004DE,false,Tx,0,8,00,00,00,00,00,00,00,00,
200993393,000004E4,false,Rx,0,8,00,00,85,00,00,00,00,00,
201091109,000004DE,false,Tx,0,8,00,00,00,00,00,00,00,00,
201093382,000004E4,false,Rx,0,8,00,00,85,00,00,00,00,00,
201202267,000004DE,false,Tx,0,8,00,00,00,00,00,00,00,00,
201193383,000004E4,false,Rx,0,8,00,00,85,00,00,00,00,00,
201293381,000004E4,false,Rx,0,8,00,00,85,00,00,00,00,00,
201313287,000004DE,false,Tx,0,8,00,00,00,00,00,00,00,00,
201393386,000004E4,false,Rx,0,8,00,00,85,00,00,00,00,00,
201442732,000004DE,false,Tx,0,8,00,00,00,00,00,00,00,00,
201493387,000004E4,false,Rx,0,8,00,00,85,00,00,00,00,00,
201544718,000004DE,false,Tx,0,8,00,00,00,00,00,00,00,00,
201593408,000004E4,false,Rx,0,8,00,00,85,00,00,00,00,00,
201682163,000004DE,false,Tx,0,8,00,00,00,00,00,00,00,00,
201693398,000004E4,false,Rx,0,8,00,00,85,00,00,00,00,00,
201760904,000004DE,false,Tx,0,8,00,00,00,00,00,00,00,00,
201793387,000004E4,false,Rx,0,8,00,00,85,00,00,00,00,00,
201877866,000004DE,false,Tx,0,8,00,00,00,00,00,00,00,00,
201893388,000004E4,false,Rx,0,8,00,00,85,00,00,00,00,00,
201981771,000004DE,false,Tx,0,8,00,00,00,00,00,00,00,00,
201993388,000004E4,false,Rx,0,8,00,00,85,00,00,00,00,00,
202093388,000004E4,false,Rx,0,8,00,00,85,00,00,00,00,00,
202105433,000004DE,false,Tx,0,8,00,00,00,00,00,00,00,00,
202193410,000004E4,false,Rx,0,8,00,00,85,00,00,00,00,00,
202230567,000004DE,false,Tx,0,8,00,00,00,00,00,00,00,00,
202293418,000004E4,false,Rx,0,8,00,00,85,00,00,00,00,00,
202346801,000004DE,false,Tx,0,8,00,00,00,00,00,00,00,00,
202393409,000004E4,false,Rx,0,8,00,00,85,00,00,00,00,00,
202454017,000004DE,false,Tx,0,8,00,00,00,00,00,00,00,00,
202493398,000004E4,false,Rx,0,8,00,00,85,00,00,00,00,00,
202555986,000004DE,false,Tx,0,8,00,00,00,00,00,00,00,00,
202593398,000004E4,false,Rx,0,8,00,00,85,00,00,00,00,00,
202663681,000004DE,false,Tx,0,8,00,00,00,00,00,00,00,00,
202693401,000004E4,false,Rx,0,8,00,00,85,00,00,00,00,00,
202778797,000004DE,false,Tx,0,8,00,00,00,00,00,00,00,00,
202793402,000004E4,false,Rx,0,8,00,00,85,00,00,00,00,00,
202879089,000004DE,false,Tx,0,8,00,00,00,00,00,00,00,00,
202893424,000004E4,false,Rx,0,8,00,00,85,00,00,00,00,00,
202997576,000004DE,false,Tx,0,8,00,00,00,00,00,00,00,00,
202993418,000004E4,false,Rx,0,8,00,00,85,00,00,00,00,00,
203100712,000004DE,false,Tx,0,8,00,00,00,00,00,00,00,00,
203093418,000004E4,false,Rx,0,8,00,00,85,00,00,00,00,00,
203193411,000004E4,false,Rx,0,8,00,00,85,00,00,00,00,00,
203241037,000004DE,false,Tx,0,8,00,00,00,00,00,00,00,00,
203293412,000004E4,false,Rx,0,8,00,00,85,00,00,00,00,00,
203333219,000004DE,false,Tx,0,8,0A,00,00,00,00,00,00,00,
203393641,000004E4,false,Rx,0,8,00,00,85,00,05,00,00,00,
203486568,000004DE,false,Tx,0,8,0A,00,00,00,00,00,00,00,
203493675,000004E4,false,Rx,0,8,00,04,85,00,0B,02,00,00,
203580584,000004DE,false,Tx,0,8,0A,00,00,00,00,00,00,00,
203593671,000004E4,false,Rx,0,8,00,0B,85,00,0E,04,00,00,
203681546,000004DE,false,Tx,0,8,0A,00,00,00,00,00,00,00,
203693662,000004E4,false,Rx,0,8,00,12,85,00,10,05,00,00,
203793656,000004DE,false,Tx,0,8,0A,00,00,00,00,00,00,00,
203793661,000004E4,false,Rx,0,8,00,19,85,00,13,07,00,00,
203896507,000004DE,false,Tx,0,8,0A,00,00,00,00,00,00,00,
203893661,000004E4,false,Rx,0,8,00,20,85,00,17,08,00,00,
203993651,000004E4,false,Rx,0,8,00,2F,85,00,19,08,00,00,
204006585,000004DE,false,Tx,0,8,0A,00,00,00,00,00,00,00,
204093640,000004E4,false,Rx,0,8,00,34,85,00,18,06,00,00,
204131608,000004DE,false,Tx,0,8,0A,00,00,00,00,00,00,00,
204193683,000004E4,false,Rx,0,8,00,33,85,00,18,04,00,00,
204250337,000004DE,false,Tx,0,8,0A,00,00,00,00,00,00,00,
204293837,000004E4,false,Rx,0,8,00,33,85,00,19,03,00,00,
204350605,000004DE,false,Tx,0,8,0A,00,00,00,00,00,00,00,
204393847,000004E4,false,Rx,0,8,00,35,85,00,1A,02,00,00,
204500053,000004DE,false,Tx,0,8,0A,00,00,00,00,00,00,00,
204493840,000004E4,false,Rx,0,8,00,36,85,00,1B,02,00,00,
204576887,000004DE,false,Tx,0,8,0A,00,00,00,00,00,00,00,
204593827,000004E4,false,Rx,0,8,00,37,85,00,1D,01,00,00,
204678841,000004DE,false,Tx,0,8,0A,00,00,00,00,00,00,00,
204693819,000004E4,false,Rx,0,8,00,37,85,00,1E,01,00,00,
204798219,000004DE,false,Tx,0,8,0A,00,00,00,00,00,00,00,
204793868,000004E4,false,Rx,0,8,00,38,85,00,1F,01,00,00,
204902740,000004DE,false,Tx,0,8,0A,00,00,00,00,00,00,00,
204893920,000004E4,false,Rx,0,8,00,38,85,00,1F,01,00,00,
204993863,000004E4,false,Rx,0,8,00,50,85,00,20,00,00,00,
205013547,000004DE,false,Tx,0,8,0A,00,00,00,00,00,00,00,
205093854,000004E4,false,Rx,0,8,00,5B,85,00,20,00,00,00,
205114302,000004DE,false,Tx,0,8,0A,00,00,00,00,00,00,00,
205193844,000004E4,false,Rx,0,8,00,5B,85,00,20,00,00,00,
205253672,000004DE,false,Tx,0,8,0A,00,00,00,00,00,00,00,
205293836,000004E4,false,Rx,0,8,00,5B,85,00,20,00,00,00,
205336855,000004DE,false,Tx,0,8,0A,00,00,00,00,00,00,00,
205393826,000004E4,false,Rx,0,8,00,5C,85,00,20,00,00,00,
205452359,000004DE,false,Tx,0,8,0A,00,00,00,00,00,00,00,
205493882,000004E4,false,Rx,0,8,00,5C,85,00,20,00,00,00,
205563868,000004DE,false,Tx,0,8,0A,00,00,00,00,00,00,00,
205593868,000004E4,false,Rx,0,8,00,5C,85,00,20,00,00,00,
205668438,000004DE,false,Tx,0,8,0A,00,00,00,00,00,00,00,
205693858,000004E4,false,Rx,0,8,00,5C,85,00,20,00,00,00,
205773343,000004DE,false,Tx,0,8,0A,00,00,00,00,00,00,00,
205793858,000004E4,false,Rx,0,8,00,5C,85,00,20,00,00,00,
205884661,000004DE,false,Tx,0,8,0A,00,00,00,00,00,00,00,
205893848,000004E4,false,Rx,0,8,00,5C,85,00,20,00,00,00,
205993841,000004E4,false,Rx,0,8,00,5B,85,00,20,00,00,00,
206020565,000004DE,false,Tx,0,8,0A,00,00,00,00,00,00,00,
206093889,000004E4,false,Rx,0,8,00,5A,85,00,1F,00,00,00,
206110434,000004DE,false,Tx,0,8,0A,00,00,00,00,00,00,00,
206193889,000004E4,false,Rx,0,8,00,59,85,00,1F,00,00,00,
206217166,000004DE,false,Tx,0,8,0A,00,00,00,00,00,00,00,
206293878,000004E4,false,Rx,0,8,00,58,85,00,1F,00,00,00,
206318320,000004DE,false,Tx,0,8,0A,00,00,00,00,00,00,00,
206393869,000004E4,false,Rx,0,8,00,58,85,00,1F,00,00,00,
206433201,000004DE,false,Tx,0,8,0A,00,00,00,00,00,00,00,
206493869,000004E4,false,Rx,0,8,00,58,85,00,1F,00,00,00,
206538913,000004DE,false,Tx,0,8,0A,00,00,00,00,00,00,00,
206593858,000004E4,false,Rx,0,8,00,57,85,00,1E,00,00,00,
206654852,000004DE,false,Tx,0,8,0A,00,00,00,00,00,00,00,
206693847,000004E4,false,Rx,0,8,00,56,85,00,1E,00,00,00,
206763523,000004DE,false,Tx,0,8,0A,00,00,00,00,00,00,00,
206793899,000004E4,false,Rx,0,8,00,56,85,00,1E,00,00,00,
206870991,000004DE,false,Tx,0,8,0A,00,00,00,00,00,00,00,
206893890,000004E4,false,Rx,0,8,00,56,85,00,1E,00,00,00,
206980459,000004DE,false,Tx,0,8,0A,00,00,00,00,00,00,00,
206993882,000004E4,false,Rx,0,8,00,56,85,00,1E,00,00,00,
207091851,000004DE,false,Tx,0,8,0A,00,00,00,00,00,00,00,
207093879,000004E4,false,Rx,0,8,00,55,85,00,1E,00,00,00,
207203291,000004DE,false,Tx,0,8,0A,00,00,00,00,00,00,00,
207193868,000004E4,false,Rx,0,8,00,55,85,00,1E,00,00,00,
207303393,000004DE,false,Tx,0,8,0A,00,00,00,00,00,00,00,
207293868,000004E4,false,Rx,0,8,00,55,85,00,1E,00,00,00,
207393858,000004E4,false,Rx,0,8,00,54,85,00,1D,00,00,00,
207419576,000004DE,false,Tx,0,8,0A,00,00,00,00,00,00,00,
207493903,000004E4,false,Rx,0,8,00,55,85,00,1D,00,00,00,
207529071,000004DE,false,Tx,0,8,0A,00,00,00,00,00,00,00,
207593899,000004E4,false,Rx,0,8,00,54,85,00,1D,00,00,00,
207641526,000004DE,false,Tx,0,8,0A,00,00,00,00,00,00,00,
207693889,000004E4,false,Rx,0,8,00,54,85,00,1D,00,00,00,
207743085,000004DE,false,Tx,0,8,0A,00,00,00,00,00,00,00,
207793884,000004E4,false,Rx,0,8,00,54,85,00,1D,00,00,00,
207864192,000004DE,false,Tx,0,8,0A,00,00,00,00,00,00,00,
207893877,000004E4,false,Rx,0,8,00,54,85,00,1D,00,00,00,
207973692,000004DE,false,Tx,0,8,0A,00,00,00,00,00,00,00,
207993868,000004E4,false,Rx,0,8,00,54,85,00,1D,00,00,00,
208088718,000004DE,false,Tx,0,8,0A,00,00,00,00,00,00,00,
208093920,000004E4,false,Rx,0,8,00,54,85,00,1D,00,00,00,
208193909,000004E4,false,Rx,0,8,00,54,85,00,1D,00,00,00,
208218701,000004DE,false,Tx,0,8,0A,00,00,00,00,00,00,00,
208293900,000004E4,false,Rx,0,8,02,53,85,00,1D,00,00,10,
208322501,000004DE,false,Tx,0,8,0A,00,00,00,00,00,00,00,
208393889,000004E4,false,Rx,0,8,02,4C,85,00,1A,00,00,10,
208427003,000004DE,false,Tx,0,8,0A,00,00,00,00,00,00,00,
208493890,000004E4,false,Rx,0,8,02,3F,85,00,16,00,00,10,
208543384,000004DE,false,Tx,0,8,0A,00,00,00,00,00,00,00,
208593889,000004E4,false,Rx,0,8,02,33,85,00,12,00,00,10,
208659234,000004DE,false,Tx,0,8,0A,00,00,00,00,00,00,00,
208693878,000004E4,false,Rx,0,8,02,26,85,00,0E,00,00,10,
208792631,000004DE,false,Tx,0,8,0A,00,00,00,00,00,00,00,
208793516,000004E4,false,Rx,0,8,02,07,85,00,03,00,00,10,
208875381,000004DE,false,Tx,0,8,0A,00,00,00,00,00,00,00,
208893516,000004E4,false,Rx,0,8,02,00,85,00,00,00,00,10,
208975412,000004DE,false,Tx,0,8,0A,00,00,00,00,00,00,00,
208993510,000004E4,false,Rx,0,8,02,00,85,00,00,00,00,10,
209103740,000004DE,false,Tx,0,8,0A,00,00,00,00,00,00,00,
209093621,000004E4,false,Rx,0,8,02,00,85,00,00,00,00,10,
209193502,000004E4,false,Rx,0,8,02,00,85,00,00,00,00,10,
209206977,000004DE,false,Tx,0,8,0A,00,00,00,00,00,00,00,
209293506,000004E4,false,Rx,0,8,02,00,85,00,00,00,00,10,
209327156,000004DE,false,Tx,0,8,0A,00,00,00,00,00,00,00,
209393526,000004E4,false,Rx,0,8,02,00,85,00,00,00,00,10,
209441935,000004DE,false,Tx,0,8,0A,00,00,00,00,00,00,00,
209493531,000004E4,false,Rx,0,8,02,00,85,00,00,00,00,10,
209564390,000004DE,false,Tx,0,8,0A,00,00,00,00,00,00,00,
209593517,000004E4,false,Rx,0,8,02,00,85,00,00,00,00,10,
209674072,000004DE,false,Tx,0,8,0A,00,00,00,00,00,00,00,
209693517,000004E4,false,Rx,0,8,02,00,85,00,00,00,00,10,
209793398,000004DE,false,Tx,0,8,0A,00,00,00,00,00,00,00,
209793510,000004E4,false,Rx,0,8,02,00,85,00,00,00,00,10,
209893150,000004DE,false,Tx,0,8,0A,00,00,00,00,00,00,00,
209893521,000004E4,false,Rx,0,8,02,00,85,00,00,00,00,10,
209989547,000004DE,false,Tx,0,8,0A,00,00,00,00,00,00,00,
209993513,000004E4,false,Rx,0,8,02,00,85,00,00,00,00,10,
210093542,000004E4,false,Rx,0,8,02,00,85,00,00,00,00,10,
210109250,000004DE,false,Tx,0,8,0A,00,00,00,00,00,00,00,
210193532,000004E4,false,Rx,0,8,02,00,85,00,00,00,00,10,
210208070,000004DE,false,Tx,0,8,0A,00,00,00,00,00,00,00,
210293609,000004E4,false,Rx,0,8,02,00,85,00,00,00,00,10,
210326186,000004DE,false,Tx,0,8,0A,00,00,00,00,00,00,00,
210393765,000004E4,false,Rx,0,8,02,01,85,00,09,01,00,10,
210447604,000004DE,false,Tx,0,8,0A,00,00,00,00,00,00,00,
210493746,000004E4,false,Rx,0,8,02,08,85,00,0D,03,00,10,
210565959,000004DE,false,Tx,0,8,0A,00,00,00,00,00,00,00,
210593795,000004E4,false,Rx,0,8,02,0F,85,00,0F,04,00,10,
210663599,000004DE,false,Tx,0,8,0A,00,00,00,00,00,00,00,
210693795,000004E4,false,Rx,0,8,00,15,85,00,12,06,00,00,
210796008,000004DE,false,Tx,0,8,0A,00,00,00,00,00,00,00,
210793796,000004E4,false,Rx,0,8,00,1C,85,00,15,07,00,00,
210889878,000004DE,false,Tx,0,8,0A,00,00,00,00,00,00,00,
210893775,000004E4,false,Rx,0,8,00,23,85,00,18,09,00,00,
210996533,000004DE,false,Tx,0,8,0A,00,00,00,00,00,00,00,
210993776,000004E4,false,Rx,0,8,00,33,85,00,19,07,00,00,
211098089,000004DE,false,Tx,0,8,0A,00,00,00,00,00,00,00,
211093764,000004E4,false,Rx,0,8,00,33,85,00,18,05,00,00,
211193931,000004E4,false,Rx,0,8,00,33,85,00,18,04,00,00,
211210834,000004DE,false,Tx,0,8,0A,00,00,00,00,00,00,00,
211293972,000004E4,false,Rx,0,8,00,34,85,00,19,03,00,00,
211327032,000004DE,false,Tx,0,8,0A,00,00,00,00,00,00,00,
211393972,000004E4,false,Rx,0,8,00,35,85,00,1B,02,00,00,
211449730,000004DE,false,Tx,0,8,0A,00,00,00,00,00,00,00,
211493962,000004E4,false,Rx,0,8,00,36,85,00,1C,01,00,00,
211566745,000004DE,false,Tx,0,8,0A,00,00,00,00,00,00,00,
211593962,000004E4,false,Rx,0,8,00,37,85,00,1E,01,00,00,
211681547,000004DE,false,Tx,0,8,0A,00,00,00,00,00,00,00,
211693952,000004E4,false,Rx,0,8,00,38,85,00,1F,01,00,00,
211796966,000004DE,false,Tx,0,8,0A,00,00,00,00,00,00,00,
211793945,000004E4,false,Rx,0,8,00,38,85,00,1F,01,00,00,
211897606,000004DE,false,Tx,0,8,0A,00,00,00,00,00,00,00,
211893941,000004E4,false,Rx,0,8,00,39,85,00,20,00,00,00,
211993985,000004E4,false,Rx,0,8,00,59,85,00,20,00,00,00,
212035547,000004DE,false,Tx,0,8,0A,00,00,00,00,00,00,00,
212093972,000004E4,false,Rx,0,8,00,5D,85,00,20,00,00,00,
212128317,000004DE,false,Tx,0,8,0A,00,00,00,00,00,00,00,
212193972,000004E4,false,Rx,0,8,00,5C,85,00,20,00,00,00,
212234223,000004DE,false,Tx,0,8,0A,00,00,00,00,00,00,00,
212293966,000004E4,false,Rx,0,8,00,5B,85,00,20,00,00,00,
212351378,000004DE,false,Tx,0,8,0A,00,00,00,00,00,00,00,
212393956,000004E4,false,Rx,0,8,00,5A,85,00,1F,00,00,00,
212468470,000004DE,false,Tx,0,8,0A,00,00,00,00,00,00,00,
212493955,000004E4,false,Rx,0,8,00,5A,85,00,1F,00,00,00,
212584145,000004DE,false,Tx,0,8,0A,00,00,00,00,00,00,00,
212593950,000004E4,false,Rx,0,8,00,59,85,00,1F,00,00,00,
212699694,000004DE,false,Tx,0,8,0A,00,00,00,00,00,00,00,
212693992,000004E4,false,Rx,0,8,00,59,85,00,1F,00,00,00,
212793983,000004E4,false,Rx,0,8,00,59,85,00,1F,00,00,00,
212834845,000004DE,false,Tx,0,8,0A,00,00,00,00,00,00,00,
212893982,000004E4,false,Rx,0,8,00,59,85,00,1F,00,00,00,
212930985,000004DE,false,Tx,0,8,0A,00,00,00,00,00,00,00,
212993971,000004E4,false,Rx,0,8,00,59,85,00,1F,00,00,00,
213084367,000004DE,false,Tx,0,8,0A,00,00,00,00,00,00,00,
213093972,000004E4,false,Rx,0,8,00,59,85,00,1F,00,00,00,
213176233,000004DE,false,Tx,0,8,0A,00,00,00,00,00,00,00,
213193961,000004E4,false,Rx,0,8,00,59,85,00,1F,00,00,00,
213294007,000004E4,false,Rx,0,8,00,59,85,00,1F,00,00,00,
213320153,000004DE,false,Tx,0,8,0A,00,00,00,00,00,00,00,
213401336,000004DE,false,Tx,0,8,0A,00,00,00,00,00,00,00,
213394002,000004E4,false,Rx,0,8,00,59,85,00,1F,00,00,00,
213493993,000004E4,false,Rx,0,8,00,58,85,00,1F,00,00,00,
213530928,000004DE,false,Tx,0,8,0A,00,00,00,00,00,00,00,
213593982,000004E4,false,Rx,0,8,00,58,85,00,1F,00,00,00,
213633161,000004DE,false,Tx,0,8,0A,00,00,00,00,00,00,00,
213693982,000004E4,false,Rx,0,8,00,58,85,00,1F,00,00,00,
213738765,000004DE,false,Tx,0,8,0A,00,00,00,00,00,00,00,
213793975,000004E4,false,Rx,0,8,00,57,85,00,1E,00,00,00,
213855282,000004DE,false,Tx,0,8,0A,00,00,00,00,00,00,00,
213893961,000004E4,false,Rx,0,8,00,57,85,00,1E,00,00,00,
213971551,000004DE,false,Tx,0,8,0A,00,00,00,00,00,00,00,
213993962,000004E4,false,Rx,0,8,00,57,85,00,1E,00,00,00,
214085814,000004DE,false,Tx,0,8,0A,00,00,00,00,00,00,00,
214094007,000004E4,false,Rx,0,8,00,57,85,00,1E,00,00,00,
214187389,000004DE,false,Tx,0,8,0A,00,00,00,00,00,00,00,
214194003,000004E4,false,Rx,0,8,00,57,85,00,1E,00,00,00,
214293996,000004E4,false,Rx,0,8,00,57,85,00,1E,00,00,00,
214319629,000004DE,false,Tx,0,8,0A,00,00,00,00,00,00,00,
214393982,000004E4,false,Rx,0,8,00,57,85,00,1E,00,00,00,
214406535,000004DE,false,Tx,0,8,0A,00,00,00,00,00,00,00,
214493983,000004E4,false,Rx,0,8,00,57,85,00,1E,00,00,00,
214519287,000004DE,false,Tx,0,8,00,00,00,00,00,00,00,00,
214593976,000004E4,false,Rx,0,8,00,54,85,00,1D,00,00,00,
214614204,000004DE,false,Tx,0,8,00,00,00,00,00,00,00,00,
214694018,000004E4,false,Rx,0,8,00,48,85,00,19,00,00,00,
214731054,000004DE,false,Tx,0,8,00,00,00,00,00,00,00,00,
214794009,000004E4,false,Rx,0,8,00,3B,85,00,15,00,00,00,
214833864,000004DE,false,Tx,0,8,00,00,00,00,00,00,00,00,
214894007,000004E4,false,Rx,0,8,00,2E,85,00,11,00,00,00,
214942620,000004DE,false,Tx,0,8,00,00,00,00,00,00,00,00,
214993998,000004E4,false,Rx,0,8,00,21,85,00,0C,00,00,00,
215063382,000004DE,false,Tx,0,8,00,00,00,00,00,00,00,00,
215093597,000004E4,false,Rx,0,8,00,03,85,00,01,00,00,00,
215166833,000004DE,false,Tx,0,8,00,00,00,00,00,00,00,00,
215193599,000004E4,false,Rx,0,8,00,00,85,00,00,00,00,00,
215271107,000004DE,false,Tx,0,8,00,00,00,00,00,00,00,00,
215293624,000004E4,false,Rx,0,8,00,00,85,00,00,00,00,00,
215382527,000004DE,false,Tx,0,8,00,00,00,00,00,00,00,00,
215393625,000004E4,false,Rx,0,8,00,00,85,00,00,00,00,00,
215492857,000004DE,false,Tx,0,8,00,00,00,00,00,00,00,00,
215493615,000004E4,false,Rx,0,8,00,00,85,00,00,00,00,00,
215593609,000004E4,false,Rx,0,8,00,00,85,00,00,00,00,00,
215608702,000004DE,false,Tx,0,8,00,00,00,00,00,00,00,00,
215693610,000004E4,false,Rx,0,8,00,00,85,00,00,00,00,00,
215721260,000004DE,false,Tx,0,8,00,00,00,00,00,00,00,00,
215793611,000004E4,false,Rx,0,8,00,00,85,00,00,00,00,00,
215831110,000004DE,false,Tx,0,8,00,00,00,00,00,00,00,00,
215893610,000004E4,false,Rx,0,8,00,00,85,00,00,00,00,00,
215936789,000004DE,false,Tx,0,8,00,00,00,00,00,00,00,00,
215993630,000004E4,false,Rx,0,8,00,00,85,00,00,00,00,00,
216064548,000004DE,false,Tx,0,8,00,00,00,00,00,00,00,00,
216093630,000004E4,false,Rx,0,8,00,00,85,00,00,00,00,00,
216158949,000004DE,false,Tx,0,8,00,00,00,00,00,00,00,00,
216193620,000004E4,false,Rx,0,8,00,00,85,00,00,00,00,00,
216259429,000004DE,false,Tx,0,8,00,00,00,00,00,00,00,00,
216293621,000004E4,false,Rx,0,8,00,00,85,00,00,00,00,00,
216377582,000004DE,false,Tx,0,8,00,00,00,00,00,00,00,00,
216393620,000004E4,false,Rx,0,8,00,00,85,00,00,00,00,00,
216473056,000004DE,false,Tx,0,8,00,00,00,00,00,00,00,00,
216493620,000004E4,false,Rx,0,8,00,00,85,00,00,00,00,00,
216582729,000004DE,false,Tx,0,8,00,00,00,00,00,00,00,00,
216593651,000004E4,false,Rx,0,8,00,00,85,00,00,00,00,00,
216694618,000004DE,false,Tx,0,8,00,00,00,00,00,00,00,00,
216693641,000004E4,false,Rx,0,8,00,00,85,00,00,00,00,00,
216793634,000004E4,false,Rx,0,8,00,00,85,00,00,00,00,00,
216808101,000004DE,false,Tx,0,8,00,00,00,00,00,00,00,00,
216893630,000004E4,false,Rx,0,8,00,00,85,00,00,00,00,00,
216920403,000004DE,false,Tx,0,8,00,00,00,00,00,00,00,00,
216993630,000004E4,false,Rx,0,8,00,00,85,00,00,00,00,00,
217022432,000004DE,false,Tx,0,8,00,00,00,00,00,00,00,00,
217093631,000004E4,false,Rx,0,8,00,00,85,00,00,00,00,00,
217136122,000004DE,false,Tx,0,8,00,00,00,00,00,00,00,00,
217193631,000004E4,false,Rx,0,8,00,00,85,00,00,00,00,00,
217244878,000004DE,false,Tx,0,8,00,00,00,00,00,00,00,00,
217293654,000004E4,false,Rx,0,8,00,00,85,00,00,00,00,00,
217360620,000004DE,false,Tx,0,8,00,00,00,00,00,00,00,00,
217393651,000004E4,false,Rx,0,8,00,00,85,00,00,00,00,00,
217461247,000004DE,false,Tx,0,8,00,00,00,00,00,00,00,00,
217493640,000004E4,false,Rx,0,8,00,00,85,00,00,00,00,00,
217593645,000004E4,false,Rx,0,8,00,00,85,00,00,00,00,00,
217616197,000004DE,false,Tx,0,8,00,00,00,00,00,00,00,00,
217676985,000004DE,false,Tx,0,8,00,00,00,00,00,00,00,00,
217693641,000004E4,false,Rx,0,8,00,00,85,00,00,00,00,00,
217793810,000004DE,false,Tx,0,8,00,00,00,00,00,00,00,00,
217793641,000004E4,false,Rx,0,8,00,00,85,00,00,00,00,00,
217896475,000004DE,false,Tx,0,8,00,00,00,00,00,00,00,00,
217893671,000004E4,false,Rx,0,8,00,00,85,00,00,00,00,00,
217993661,000004E4,false,Rx,0,8,00,00,85,00,00,00,00,00,
218008733,000004DE,false,Tx,0,8,00,00,00,00,00,00,00,00,
218093655,000004E4,false,Rx,0,8,00,00,85,00,00,00,00,00,
218124201,000004DE,false,Tx,0,8,00,00,00,00,00,00,00,00,
218193651,000004E4,false,Rx,0,8,00,00,85,00,00,00,00,00,
218224644,000004DE,false,Tx,0,8,00,00,00,00,00,00,00,00,
218293651,000004E4,false,Rx,0,8,00,00,85,00,00,00,00,00,
218362591,000004DE,false,Tx,0,8,00,00,00,00,00,00,00,00,
218393651,000004E4,false,Rx,0,8,00,00,85,00,00,00,00,00,
218462850,000004DE,false,Tx,0,8,00,00,00,00,00,00,00,00,
218493650,000004E4,false,Rx,0,8,00,00,85,00,00,00,00,00,
218593683,000004E4,false,Rx,0,8,00,00,85,00,00,00,00,00,
218611413,000004DE,false,Tx,0,8,00,00,00,00,00,00,00,00,
218678606,000004DE,false,Tx,0,8,00,00,00,00,00,00,00,00,
218693672,000004E4,false,Rx,0,8,00,00,85,00,00,00,00,00,
218797173,000004DE,false,Tx,0,8,00,00,00,00,00,00,00,00,
218793661,000004E4,false,Rx,0,8,00,00,85,00,00,00,00,00,
218894842,000004DE,false,Tx,0,8,00,00,00,00,00,00,00,00,
218893661,000004E4,false,Rx,0,8,00,00,85,00,00,00,00,00,
218993662,000004E4,false,Rx,0,8,00,00,85,00,00,00,00,00,
219017015,000004DE,false,Tx,0,8,00,00,00,00,00,00,00,00,
219093665,000004E4,false,Rx,0,8,00,00,85,00,00,00,00,00,
219126094,000004DE,false,Tx,0,8,00,00,00,00,00,00,00,00,
219193687,000004E4,false,Rx,0,8,00,00,85,00,00,00,00,00,
219225271,000004DE,false,Tx,0,8,00,00,00,00,00,00,00,00,
219293687,000004E4,false,Rx,0,8,00,00,85,00,00,00,00,00,
219364909,000004DE,false,Tx,0,8,00,00,00,00,00,00,00,00,
219393677,000004E4,false,Rx,0,8,00,00,85,00,00,00,00,00,
219449441,000004DE,false,Tx,0,8,00,00,00,00,00,00,00,00,
219493668,000004E4,false,Rx,0,8,00,00,85,00,00,00,00,00,
219565298,000004DE,false,Tx,0,8,00,00,00,00,00,00,00,00,
219593671,000004E4,false,Rx,0,8,00,00,85,00,00,00,00,00,
219664854,000004DE,false,Tx,0,8,00,00,00,00,00,00,00,00,
219693678,000004E4,false,Rx,0,8,00,00,85,00,00,00,00,00,
219780884,000004DE,false,Tx,0,8,00,00,00,00,00,00,00,00,
219793681,000004E4,false,Rx,0,8,00,00,85,00,00,00,00,00,
219893696,000004E4,false,Rx,0,8,00,00,85,00,00,00,00,00,
219909310,000004DE,false,Tx,0,8,00,00,00,00,00,00,00,00,
220000893,000004DE,false,Tx,0,8,00,00,00,00,00,00,00,00,
219993698,000004E4,false,Rx,0,8,00,00,85,00,00,00,00,00,
220093688,000004E4,false,Rx,0,8,00,00,85,00,00,00,00,00,
220110382,000004DE,false,Tx,0,8,00,00,00,00,00,00,00,00,
220193681,000004E4,false,Rx,0,8,00,00,85,00,00,00,00,00,
220213388,000004DE,false,Tx,0,8,00,00,00,00,00,00,00,00,
220293682,000004E4,false,Rx,0,8,00,00,85,00,00,00,00,00,
220329546,000004DE,false,Tx,0,8,00,00,00,00,00,00,00,00,
220393681,000004E4,false,Rx,0,8,00,00,85,00,00,00,00,00,
220433223,000004DE,false,Tx,0,8,00,00,00,00,00,00,00,00,
220493713,000004E4,false,Rx,0,8,00,00,85,00,00,00,00,00,
220544414,000004DE,false,Tx,0,8,00,00,00,00,00,00,00,00,
220593713,000004E4,false,Rx,0,8,00,00,85,00,00,00,00,00,
220682362,000004DE,false,Tx,0,8,00,00,00,00,00,00,00,00,
220693703,000004E4,false,Rx,0,8,00,00,85,00,00,00,00,00,
220766722,000004DE,false,Tx,0,8,00,00,00,00,00,00,00,00,
220793692,000004E4,false,Rx,0,8,00,00,85,00,00,00,00,00,
220867524,000004DE,false,Tx,0,8,00,00,00,00,00,00,00,00,
220893694,000004E4,false,Rx,0,8,00,00,85,00,00,00,00,00,
220982327,000004DE,false,Tx,0,8,00,00,00,00,00,00,00,00,
220993693,000004E4,false,Rx,0,8,00,00,85,00,00,00,00,00,
221082741,000004DE,false,Tx,0,8,00,00,00,00,00,00,00,00,
221093692,000004E4,false,Rx,0,8,00,00,85,00,00,00,00,00,
221200981,000004DE,false,Tx,0,8,00,00,00,00,00,00,00,00,
221193723,000004E4,false,Rx,0,8,00,00,85,00,00,00,00,00,
221293713,000004E4,false,Rx,0,8,00,00,85,00,00,00,00,00,
221316295,000004DE,false,Tx,0,8,00,00,00,00,00,00,00,00,
221393707,000004E4,false,Rx,0,8,00,00,85,00,00,00,00,00,
221428651,000004DE,false,Tx,0,8,00,00,00,00,00,00,00,00,
221525526,000004DE,false,Tx,0,8,00,00,00,00,00,00,00,00,
221670005,000004DE,false,Tx,0,8,00,00,00,00,00,00,00,00,
221748697,000004DE,false,Tx,0,8,00,00,00,00,00,00,00,00,
221849941,000004DE,false,Tx,0,8,00,00,00,00,00,00,00,00,
221969059,000004DE,false,Tx,0,8,00,00,00,00,00,00,00,00,
222068700,000004DE,false,Tx,0,8,00,00,00,00,00,00,00,00,
222184086,000004DE,false,Tx,0,8,00,00,00,00,00,00,00,00,
222286253,000004DE,false,Tx,0,8,00,00,00,00,00,00,00,00,
222433350,000004DE,false,Tx,0,8,00,00,00,00,00,00,00,00,
222508024,000004DE,false,Tx,0,8,00,00,00,00,00,00,00,00,
222626505,000004DE,false,Tx,0,8,00,00,00,00,00,00,00,00,
222734584,000004DE,false,Tx,0,8,00,00,00,00,00,00,00,00,
222832623,000004DE,false,Tx,0,8,00,00,00,00,00,00,00,00,
222969590,000004DE,false,Tx,0,8,00,00,00,00,00,00,00,00,
223062558,000004DE,false,Tx,0,8,00,00,00,00,00,00,00,00,
223172013,000004DE,false,Tx,0,8,00,00,00,00,00,00,00,00,
223271236,000004DE,false,Tx,0,8,00,00,00,00,00,00,00,00,
223387158,000004DE,false,Tx,0,8,00,00,00,00,00,00,00,00,
223502165,000004DE,false,Tx,0,8,00,00,00,00,00,00,00,00,
223599905,000004DE,false,Tx,0,8,00,00,00,00,00,00,00,00,
223714468,000004DE,false,Tx,0,8,00,00,00,00,00,00,00,00,
223823943,000004DE,false,Tx,0,8,00,00,00,00,00,00,00,00,
223976973,000004DE,false,Tx,0,8,00,00,00,00,00,00,00,00,
224049127,000004DE,false,Tx,0,8,00,00,00,00,00,00,00,00,
224159979,000004DE,false,Tx,0,8,00,00,00,00,00,00,00,00,
224253759,000004DE,false,Tx,0,8,00,00,00,00,00,00,00,00,
224367982,000004DE,false,Tx,0,8,00,00,00,00,00,00,00,00,
224487176,000004DE,false,Tx,0,8,00,00,00,00,00,00,00,00,
224591968,000004DE,false,Tx,0,8,00,00,00,00,00,00,00,00,
224734321,000004DE,false,Tx,0,8,00,00,00,00,00,00,00,00,
224812435,000004DE,false,Tx,0,8,00,00,00,00,00,00,00,00,
224911903,000004DE,false,Tx,0,8,00,00,00,00,00,00,00,00,
225023739,000004DE,false,Tx,0,8,00,00,00,00,00,00,00,00,
225135955,000004DE,false,Tx,0,8,00,00,00,00,00,00,00,00,
225245402,000004DE,false,Tx,0,8,00,00,00,00,00,00,00,00,
225355112,000004DE,false,Tx,0,8,00,00,00,00,00,00,00,00,
225481509,000004DE,false,Tx,0,8,00,00,00,00,00,00,00,00,
225576457,000004DE,false,Tx,0,8,00,00,00,00,00,00,00,00,
225684329,000004DE,false,Tx,0,8,00,00,00,00,00,00,00,00,
225786730,000004DE,false,Tx,0,8,00,00,00,00,00,00,00,00,
225899266,000004DE,false,Tx,0,8,00,00,00,00,00,00,00,00,
226010477,000004DE,false,Tx,0,8,00,00,00,00,00,00,00,00,
226122025,000004DE,false,Tx,0,8,00,00,00,00,00,00,00,00,
226232165,000004DE,false,Tx,0,8,00,00,00,00,00,00,00,00,
226336974,000004DE,false,Tx,0,8,00,00,00,00,00,00,00,00,
226473436,000004DE,false,Tx,0,8,00,00,00,00,00,00,00,00,
226554580,000004DE,false,Tx,0,8,00,00,00,00,00,00,00,00,
226661712,000004DE,false,Tx,0,8,00,00,00,00,00,00,00,00,
226770339,000004DE,false,Tx,0,8,00,00,00,00,00,00,00,00,
226879615,000004DE,false,Tx,0,8,00,00,00,00,00,00,00,00,
226989850,000004DE,false,Tx,0,8,00,00,00,00,00,00,00,00,
227098846,000004DE,false,Tx,0,8,00,00,00,00,00,00,00,00,
227234531,000004DE,false,Tx,0,8,00,00,00,00,00,00,00,00,
227317270,000004DE,false,Tx,0,8,00,00,00,00,00,00,00,00,
227427477,000004DE,false,Tx,0,8,00,00,00,00,00,00,00,00,
227539588,000004DE,false,Tx,0,8,00,00,00,00,00,00,00,00,
227649437,000004DE,false,Tx,0,8,00,00,00,00,00,00,00,00,
227757730,000004DE,false,Tx,0,8,00,00,00,00,00,00,00,00,
227866186,000004DE,false,Tx,0,8,00,00,00,00,00,00,00,00,
227987844,000004DE,false,Tx,0,8,00,00,00,00,00,00,00,00,
228085453,000004DE,false,Tx,0,8,00,00,00,00,00,00,00,00,
228227084,000004DE,false,Tx,0,8,00,00,00,00,00,00,00,00,
228304413,000004DE,false,Tx,0,8,00,00,00,00,00,00,00,00,
228412506,000004DE,false,Tx,0,8,00,00,00,00,00,00,00,00,
228520290,000004DE,false,Tx,0,8,00,00,00,00,00,00,00,00,
228630165,000004DE,false,Tx,0,8,00,00,00,00,00,00,00,00,
228738205,000004DE,false,Tx,0,8,00,00,00,00,00,00,00,00,
228854042,000004DE,false,Tx,0,8,00,00,00,00,00,00,00,00,
228993328,000004DE,false,Tx,0,8,00,00,00,00,00,00,00,00,
229078047,000004DE,false,Tx,0,8,00,00,00,00,00,00,00,00,
229190631,000004DE,false,Tx,0,8,00,00,00,00,00,00,00,00,
229285695,000004DE,false,Tx,0,8,00,00,00,00,00,00,00,00,
229398013,000004DE,false,Tx,0,8,00,00,00,00,00,00,00,00,
229503634,000004DE,false,Tx,0,8,00,00,00,00,00,00,00,00,
229622436,000004DE,false,Tx,0,8,00,00,00,00,00,00,00,00,
229737980,000004DE,false,Tx,0,8,00,00,00,00,00,00,00,00,
229845157,000004DE,false,Tx,0,8,00,00,00,00,00,00,00,00,
229970343,000004DE,false,Tx,0,8,00,00,00,00,00,00,00,00,
