Time Stamp,ID,Extended,Dir,Bus,LEN,D1,D2,D3,D4,D5,D6,D7,D8
286952552,0000007F,false,Rx,0,8,00,00,00,00,00,00,00,00,
286952817,00000412,false,Rx,0,8,00,00,00,00,00,00,00,00,
286952983,00000450,false,Rx,0,3,00,00,00,00,00,00,00,00,
286953243,0000045D,false,Rx,0,8,FF,FF,FF,FF,FF,FF,FF,0F,
286953492,00000462,false,Rx,0,8,FE,3F,FF,0F,F0,1F,00,00,
286953709,00000471,false,Rx,0,6,15,54,11,00,00,00,00,00,
286953991,00000479,false,Rx,0,8,00,00,00,00,00,00,00,00,
286954249,0000049A,false,Rx,0,8,00,00,00,00,00,00,00,03,
286954518,000004A9,false,Rx,0,8,00,00,00,00,00,00,00,00,
286954778,000004FE,false,Rx,0,8,FF,FF,7E,FF,FF,00,FF,FF,
286955069,00000520,false,Rx,0,8,00,00,00,00,00,00,00,00,
286955328,00000559,false,Rx,0,8,00,00,00,00,00,00,00,00,
286955598,000005B4,false,Rx,0,8,00,00,00,00,0C,F0,00,00,
286955856,000005BE,false,Rx,0,8,00,00,00,00,00,C0,00,00,
286962604,00000541,false,Rx,0,8,00,00,00,00,00,08,00,00,
286952899,00000416,false,Rx,3,8,16,01,00,00,00,00,FF,FF,
0,00000371,false,Rx,6,8,00,00,00,00,00,00,00,00,
0,0000007F,false,Rx,6,8,00,00,00,00,00,00,00,00,
0,00000372,false,Rx,6,8,00,00,09,00,00,00,00,00,
0,00000470,false,Rx,6,8,55,55,55,55,55,01,15,00,
0,00000479,false,Rx,6,8,00,00,00,00,00,00,00,00,
0,000004CB,false,Rx,6,8,00,00,00,00,00,00,00,00,
0,0000053B,false,Rx,6,8,00,00,00,00,00,00,00,00,
0,0000053F,false,Rx,6,8,00,00,00,00,00,00,00,00,
0,000005A6,false,Rx,6,8,00,00,00,00,00,00,00,00,
0,00000371,false,Rx,6,8,00,00,00,00,00,00,00,00,
0,00000372,false,Rx,6,8,00,00,09,00,00,00,00,00,
0,00000410,false,Rx,6,8,00,00,40,00,00,00,00,00,
0,00000541,false,Rx,6,8,00,00,00,00,00,08,00,00,
286972447,00000450,false,Rx,0,3,00,00,00,00,00,00,00,00,
286972700,00000462,false,Rx,0,8,FE,3F,FF,0F,F0,1F,00,00,
286972928,00000471,false,Rx,0,6,15,54,11,00,00,44,00,00,
286973189,0000050E,false,Rx,0,8,00,00,00,00,00,00,00,00,
286973458,0000055C,false,Rx,0,8,00,00,00,00,00,00,00,00,
286973727,0000055F,false,Rx,0,8,00,00,00,00,00,00,00,00,
286982443,0000045E,false,Rx,0,8,FF,FF,FF,FF,FF,00,00,00,
286982719,00000561,false,Rx,0,8,00,00,00,00,00,00,00,00,
286983009,00000567,false,Rx,0,8,00,00,00,00,00,00,00,00,
286983238,00000578,false,Rx,0,6,00,00,00,00,00,00,00,00,
286983579,00000588,false,Rx,0,8,00,00,00,00,00,00,00,00,
286983909,000005EC,false,Rx,0,8,00,00,00,00,00,00,00,00,
286992368,00000450,false,Rx,0,3,00,00,00,00,00,00,00,00,
286992643,00000462,false,Rx,0,8,FE,3F,FF,0F,F0,1F,00,00,
286992860,00000471,false,Rx,0,6,15,54,11,00,00,48,00,00,
286993120,00000553,false,Rx,0,8,00,00,00,00,00,00,80,00,
0,00000371,false,Rx,6,8,00,00,00,00,00,00,00,00,
0,00000372,false,Rx,6,8,00,00,09,00,00,00,00,00,
0,00000436,false,Rx,6,4,00,00,00,00,00,00,00,00,
0,00000470,false,Rx,6,8,55,55,55,55,55,C5,15,00,
0,0000054B,false,Rx,6,8,00,10,00,00,00,00,00,00,
0,00000595,false,Rx,6,8,00,00,00,00,00,00,00,00,
0,00000371,false,Rx,6,8,00,00,00,00,00,00,00,00,
0,00000372,false,Rx,6,8,00,00,09,00,00,00,00,00,
0,0000050B,false,Rx,6,8,00,00,00,00,00,00,C0,00,
0,00000596,false,Rx,6,8,80,00,00,00,00,00,00,FF,
0,000005FF,false,Rx,6,8,00,00,00,00,00,00,00,00,
0,00000371,false,Rx,6,8,00,00,00,00,00,00,00,00,
0,00000372,false,Rx,6,8,00,00,09,00,00,00,00,00,
0,00000412,false,Rx,6,8,00,00,00,0C,10,00,00,00,
0,00000470,false,Rx,6,8,55,55,55,55,55,C9,15,00,
0,000004C9,false,Rx,6,8,00,00,00,00,00,00,00,00,
0,00000520,false,Rx,6,8,00,00,00,00,00,00,00,00,
0,000005C1,false,Rx,6,8,00,00,00,00,00,00,00,00,
0,00000371,false,Rx,6,8,00,00,00,00,00,00,00,00,
287045397,0000007F,false,Rx,0,8,00,00,00,00,00,00,00,00,
287045662,00000412,false,Rx,0,8,00,00,00,00,00,00,00,00,
287045828,00000450,false,Rx,0,3,00,00,00,00,00,00,00,00,
287046088,0000045D,false,Rx,0,8,FF,FF,FF,FF,FF,FF,FF,0F,
287046347,00000462,false,Rx,0,8,FE,3F,FF,0F,F0,1F,00,00,
287046555,00000471,false,Rx,0,6,15,54,11,00,00,00,00,00,
287046844,00000479,false,Rx,0,8,00,00,00,00,00,00,00,00,
287047105,0000049A,false,Rx,0,8,00,00,00,00,00,00,00,03,
287047364,000004A9,false,Rx,0,8,00,00,00,00,00,00,00,00,
287047622,000004FE,false,Rx,0,8,FF,FF,7E,FF,FF,00,FF,FF,
287047913,00000520,false,Rx,0,8,00,00,00,00,00,00,00,00,
287048173,00000559,false,Rx,0,8,00,00,00,00,00,00,00,00,
287048442,000005B4,false,Rx,0,8,00,00,00,00,0C,F0,00,00,
287048702,000005BE,false,Rx,0,8,00,00,00,00,00,C0,00,00,
287055450,00000541,false,Rx,0,8,00,00,00,00,00,08,00,00,
287045750,00000416,false,Rx,3,8,16,01,00,00,00,00,FF,FF,
0,00000371,false,Rx,6,8,00,00,00,00,00,00,00,00,
0,0000007F,false,Rx,6,8,00,00,00,00,00,00,00,00,
0,00000372,false,Rx,6,8,00,00,09,00,00,00,00,00,
0,00000470,false,Rx,6,8,55,55,55,55,55,01,15,00,
0,00000479,false,Rx,6,8,00,00,00,00,00,00,00,00,
0,000004CB,false,Rx,6,8,00,00,00,00,00,00,00,00,
0,0000053B,false,Rx,6,8,00,00,00,00,00,00,00,00,
0,0000053F,false,Rx,6,8,00,00,00,00,00,00,00,00,
0,000005A6,false,Rx,6,8,00,00,00,00,00,00,00,00,
0,00000371,false,Rx,6,8,00,00,00,00,00,00,00,00,
0,00000372,false,Rx,6,8,00,00,09,00,00,00,00,00,
0,00000410,false,Rx,6,8,00,00,40,00,00,00,00,00,
0,00000541,false,Rx,6,8,00,00,00,00,00,08,00,00,
287065290,00000450,false,Rx,0,3,00,00,00,00,00,00,00,00,
287065545,00000462,false,Rx,0,8,FE,3F,FF,0F,F0,1F,00,00,
287065772,00000471,false,Rx,0,6,15,54,11,00,00,44,00,00,
287066032,0000050E,false,Rx,0,8,00,00,00,00,00,00,00,00,
287066302,0000055C,false,Rx,0,8,00,00,00,00,00,00,00,00,
287066571,0000055F,false,Rx,0,8,00,00,00,00,00,00,00,00,
287075297,0000045E,false,Rx,0,8,FF,FF,FF,FF,FF,00,00,00,
287075574,00000561,false,Rx,0,8,00,00,00,00,00,00,00,00,
287075853,00000567,false,Rx,0,8,00,00,00,00,00,00,00,00,
287076083,00000578,false,Rx,0,6,00,00,00,00,00,00,00,00,
287076425,00000588,false,Rx,0,8,00,00,00,00,00,00,00,00,
287076755,000005EC,false,Rx,0,8,00,00,00,00,00,00,00,00,
287085224,00000450,false,Rx,0,3,00,00,00,00,00,00,00,00,
287085488,00000462,false,Rx,0,8,FE,3F,FF,0F,F0,1F,00,00,
287085706,00000471,false,Rx,0,6,15,54,11,00,00,48,00,00,
287085964,00000553,false,Rx,0,8,00,00,00,00,00,00,80,00,
0,00000371,false,Rx,6,8,00,00,00,00,00,00,00,00,
0,00000372,false,Rx,6,8,00,00,09,00,00,00,00,00,
0,00000436,false,Rx,6,4,00,00,00,00,00,00,00,00,
0,00000470,false,Rx,6,8,55,55,55,55,55,C5,15,00,
0,0000054B,false,Rx,6,8,00,10,00,00,00,00,00,00,
0,00000595,false,Rx,6,8,00,00,00,00,00,00,00,00,
0,00000371,false,Rx,6,8,00,00,00,00,00,00,00,00,
0,00000372,false,Rx,6,8,00,00,09,00,00,00,00,00,
0,0000050B,false,Rx,6,8,00,00,00,00,00,00,C0,00,
0,00000596,false,Rx,6,8,80,00,00,00,00,00,00,FF,
0,000005FF,false,Rx,6,8,00,00,00,00,00,00,00,00,
0,00000371,false,Rx,6,8,00,00,00,00,00,00,00,00,
0,00000372,false,Rx,6,8,00,00,09,00,00,00,00,00,
0,00000412,false,Rx,6,8,00,00,00,0C,10,00,00,00,
0,00000470,false,Rx,6,8,55,55,55,55,55,C9,15,00,
0,000004C9,false,Rx,6,8,00,00,00,00,00,00,00,00,
0,00000520,false,Rx,6,8,00,00,00,00,00,00,00,00,
0,000005C1,false,Rx,6,8,00,00,00,00,00,00,00,00,
0,00000371,false,Rx,6,8,00,00,00,00,00,00,00,00,
0,00000372,false,Rx,6,8,00,00,09,00,00,00,00,00,
0,00000410,false,Rx,6,8,00,00,40,00,00,00,00,00,
287095462,00000541,false,Rx,0,8,00,00,00,00,00,08,00,00,
287095737,000005B3,false,Rx,0,8,FF,FF,FF,FC,00,00,00,00,
287096059,000005DF,false,Rx,0,8,CF,FF,FF,01,00,00,00,00,
287105294,00000450,false,Rx,0,3,00,00,00,00,00,00,00,00,
287105547,00000462,false,Rx,0,8,FE,3F,FF,0F,F0,1F,00,00,
287105765,00000471,false,Rx,0,6,15,54,11,00,00,8C,00,00,
287115343,000005D0,false,Rx,0,8,00,00,00,00,00,00,00,00,
287115608,000005D3,false,Rx,0,8,0F,00,00,00,00,00,00,00,
287125130,00000450,false,Rx,0,3,00,00,00,00,00,00,00,00,
0,000004A9,false,Rx,6,8,00,00,00,00,00,00,00,00,
0,0000050E,false,Rx,6,8,00,00,00,00,00,00,00,00,
0,00000541,false,Rx,6,8,00,00,00,00,00,08,00,00,
0,00000553,false,Rx,6,8,00,00,00,00,00,00,80,00,
0,00000559,false,Rx,6,8,00,00,00,00,00,00,00,00,
0,00000371,false,Rx,6,8,00,00,00,00,00,00,00,00,
0,00000372,false,Rx,6,8,00,00,09,00,00,00,00,00,
0,00000470,false,Rx,6,8,55,55,55,55,55,0D,15,00,
0,0000049F,false,Rx,6,8,00,00,00,00,00,00,00,00,
0,00000544,false,Rx,6,8,FF,F7,FF,FF,00,00,00,00,
0,00000371,false,Rx,6,8,00,00,00,00,00,00,00,00,
0,00000372,false,Rx,6,8,00,00,09,00,00,00,00,00,
0,00000436,false,Rx,6,4,00,00,00,00,00,00,00,00,
0,000005BE,false,Rx,6,8,0C,00,00,00,00,00,00,00,
0,00000371,false,Rx,6,8,00,00,00,00,00,00,00,00,
0,00000372,false,Rx,6,8,00,00,09,00,00,00,00,00,
0,00000470,false,Rx,6,8,55,55,55,55,55,D1,15,00,
0,0000057F,false,Rx,6,8,FF,00,00,FF,00,00,00,00,
287125384,00000462,false,Rx,0,8,FE,3F,FF,0F,F0,1F,00,00,
287125591,00000471,false,Rx,0,6,15,54,11,00,00,50,00,00,
287135436,00000541,false,Rx,0,8,00,00,00,00,00,08,00,00,
287146046,00000450,false,Rx,0,3,00,00,00,00,00,00,00,00,
287146310,00000462,false,Rx,0,8,FE,3F,FF,0F,F0,1F,00,00,
287146517,00000471,false,Rx,0,6,15,54,11,00,00,54,00,00,
287146776,00000479,false,Rx,0,8,FF,00,00,00,00,00,00,00,
287147047,00000520,false,Rx,0,8,00,00,00,00,00,00,00,00,
287147305,00000541,false,Rx,0,8,00,44,00,00,00,08,00,00,
287145860,00000416,false,Rx,3,8,16,02,00,00,00,00,FF,FF,
287146124,00000168,false,Rx,3,8,10,00,88,00,D2,50,00,00,
287146404,0000018B,false,Rx,3,8,FE,FF,F8,00,00,00,00,00,
287146717,0000018C,false,Rx,3,8,00,00,00,00,00,00,00,00,
287147017,0000018D,false,Rx,3,8,00,00,00,00,00,00,00,00,
287147297,0000018E,false,Rx,3,8,00,00,00,00,00,00,00,00,
287147578,0000018F,false,Rx,3,8,00,00,00,00,00,00,00,00,
287147836,000001F7,false,Rx,3,8,00,00,00,00,00,00,00,00,
287148105,000001FA,false,Rx,3,8,00,00,00,00,00,00,00,00,
287148395,00000588,false,Rx,3,8,00,00,00,00,00,00,00,00,
287148686,00000589,false,Rx,3,8,00,00,00,7F,FF,00,00,00,
0,00000371,false,Rx,6,8,00,00,00,00,00,00,00,00,
0,00000372,false,Rx,6,8,00,00,09,00,00,00,00,00,
0,00000410,false,Rx,6,8,00,00,40,00,00,00,00,00,
0,00000541,false,Rx,6,8,00,00,00,00,00,08,00,00,
0,00000371,false,Rx,6,8,00,00,00,00,00,00,00,00,
0,00000372,false,Rx,6,8,00,00,09,00,00,00,00,00,
0,00000470,false,Rx,6,8,55,55,55,55,55,D5,15,00,
0,00000479,false,Rx,6,8,FF,00,00,00,00,00,00,00,
0,00000541,false,Rx,6,8,00,44,00,00,00,08,00,00,
0,00000371,false,Rx,6,8,00,00,00,00,00,00,00,00,
0,00000372,false,Rx,6,8,00,00,09,00,00,00,00,00,
287165545,00000450,false,Rx,0,3,00,00,00,00,00,00,00,00,
287165798,00000462,false,Rx,0,8,FE,3F,FF,0F,F0,1F,00,00,
287166007,00000471,false,Rx,0,6,15,54,11,00,00,58,00,00,
287166266,0000055C,false,Rx,0,8,00,00,00,00,00,00,00,00,
287166555,0000055F,false,Rx,0,8,00,00,00,00,00,00,00,00,
287175766,00000561,false,Rx,0,8,00,00,00,00,00,00,00,00,
287176054,00000567,false,Rx,0,8,00,00,00,00,00,00,00,00,
287176303,00000578,false,Rx,0,6,00,00,00,00,00,00,00,00,
287176571,00000588,false,Rx,0,8,00,00,00,00,00,00,00,00,
287176831,000005EC,false,Rx,0,8,00,00,00,00,00,00,00,00,
287185721,00000450,false,Rx,0,3,00,00,00,00,00,00,00,00,
287185987,00000462,false,Rx,0,8,FE,3F,FF,0F,F0,1F,00,00,
287186205,00000471,false,Rx,0,6,15,54,11,00,00,9C,00,00,
287186463,00000541,false,Rx,0,8,00,44,00,00,00,08,00,00,
287165916,00000169,false,Rx,3,8,00,00,00,00,00,00,40,00,
287185954,0000016A,false,Rx,3,8,00,00,00,00,00,00,00,00,
0,00000371,false,Rx,6,8,00,00,00,00,00,00,00,00,
0,00000372,false,Rx,6,8,00,00,09,00,00,00,00,00,
0,00000436,false,Rx,6,4,00,00,00,00,00,00,00,00,
0,00000470,false,Rx,6,8,55,55,55,55,55,D9,15,00,
0,0000054B,false,Rx,6,8,00,10,00,00,00,00,00,00,
0,00000595,false,Rx,6,8,00,00,00,00,00,00,00,00,
0,00000371,false,Rx,6,8,00,00,00,00,00,00,00,00,
0,00000372,false,Rx,6,8,00,00,09,00,00,00,00,00,
0,0000050B,false,Rx,6,8,00,00,00,00,00,00,C0,00,
0,00000596,false,Rx,6,8,80,00,00,00,00,00,00,FF,
0,000005FF,false,Rx,6,8,00,00,00,00,00,00,00,00,
0,00000371,false,Rx,6,8,00,00,00,00,00,00,00,00,
0,00000372,false,Rx,6,8,00,00,09,00,00,00,00,00,
0,00000470,false,Rx,6,8,55,55,55,55,55,1D,15,00,
0,00000520,false,Rx,6,8,00,00,00,00,00,00,00,00,
0,00000541,false,Rx,6,8,00,44,00,00,00,08,00,00,
0,000005C1,false,Rx,6,8,00,00,00,00,00,00,00,00,
287205421,00000450,false,Rx,0,3,00,00,00,00,00,00,00,00,
287205674,00000462,false,Rx,0,8,FE,3F,FF,0F,F0,1F,00,00,
287205882,00000471,false,Rx,0,6,15,54,11,00,00,60,00,00,
287205921,00000188,false,Rx,3,8,00,00,01,04,00,00,00,00,
0,00000371,false,Rx,6,8,00,00,00,00,00,00,00,00,
0,00000372,false,Rx,6,8,00,00,09,00,00,00,00,00,
0,00000371,false,Rx,6,8,00,00,00,00,00,00,00,00,
0,00000372,false,Rx,6,8,00,00,09,00,00,00,00,00,
0,00000470,false,Rx,6,8,55,55,55,55,55,E1,15,00,
0,00000371,false,Rx,6,8,00,00,00,00,00,00,00,00,
0,00000372,false,Rx,6,8,00,00,09,00,00,00,00,00,
0,00000436,false,Rx,6,4,00,00,00,00,00,00,00,00,
287225696,00000450,false,Rx,0,3,00,00,00,00,00,00,00,00,
287225950,00000462,false,Rx,0,8,FE,3F,FF,0F,F0,1F,00,00,
287226159,00000471,false,Rx,0,6,15,54,11,00,00,64,00,00,
287226418,00000541,false,Rx,0,8,00,44,00,00,00,08,00,00,
287245654,00000412,false,Rx,0,8,00,00,00,00,00,00,00,00,
287245838,00000450,false,Rx,0,3,00,00,00,00,00,00,00,00,
287246097,0000045D,false,Rx,0,8,FF,FF,FF,FF,FF,FF,FF,0F,
287246345,00000462,false,Rx,0,8,FE,3F,FF,0F,F0,1F,00,00,
287246563,00000471,false,Rx,0,6,15,54,11,00,00,68,00,00,
287246853,00000479,false,Rx,0,8,FF,00,00,00,00,00,00,00,
287247114,0000049A,false,Rx,0,8,00,00,00,00,00,00,00,03,
287247394,000004A9,false,Rx,0,8,00,00,00,00,00,00,00,00,
287247663,000004FE,false,Rx,0,8,FF,FF,7E,FF,FF,00,FF,FF,
287247932,00000520,false,Rx,0,8,00,00,00,00,00,00,00,00,
287248203,00000559,false,Rx,0,8,00,00,00,00,00,00,00,00,
287248472,000005B4,false,Rx,0,8,00,00,00,00,0C,F0,00,00,
287225952,00000189,false,Rx,3,8,00,00,00,00,00,00,00,00,
287245921,0000018A,false,Rx,3,8,00,00,00,00,00,00,00,00,
0,00000371,false,Rx,6,8,00,00,00,00,00,00,00,00,
0,00000372,false,Rx,6,8,00,00,09,00,00,00,00,00,
0,00000470,false,Rx,6,8,55,55,55,55,55,E5,15,00,
0,00000541,false,Rx,6,8,00,44,00,00,00,08,00,00,
0,00000371,false,Rx,6,8,00,00,00,00,00,00,00,00,
0,00000372,false,Rx,6,8,00,00,09,00,00,00,00,00,
0,00000371,false,Rx,6,8,00,00,00,00,00,00,00,00,
0,00000372,false,Rx,6,8,00,00,09,00,00,00,00,00,
0,00000470,false,Rx,6,8,55,55,55,55,55,E9,15,00,
0,00000479,false,Rx,6,8,FF,00,00,00,00,00,00,00,
0,000004CB,false,Rx,6,8,00,00,00,00,00,00,00,00,
0,0000053B,false,Rx,6,8,00,00,00,00,00,00,00,00,
0,0000053F,false,Rx,6,8,00,00,00,00,00,00,00,00,
0,000005A6,false,Rx,6,8,00,00,00,00,00,00,00,00,
0,00000371,false,Rx,6,8,00,00,00,00,00,00,00,00,
0,00000372,false,Rx,6,8,00,00,09,00,00,00,00,00,
287265627,00000450,false,Rx,0,3,00,00,00,00,00,00,00,00,
287265881,00000462,false,Rx,0,8,FE,3F,FF,0F,F0,1F,00,00,
287266090,00000471,false,Rx,0,6,15,54,11,00,00,AC,00,00,
287266359,0000050E,false,Rx,0,8,00,00,00,00,00,00,00,00,
287266618,00000541,false,Rx,0,8,00,44,00,00,00,08,00,00,
287266918,0000055C,false,Rx,0,8,00,00,00,00,00,00,00,00,
287267230,0000055F,false,Rx,0,8,00,00,00,00,00,00,00,00,
287275618,0000045E,false,Rx,0,8,FF,FF,FF,FF,FF,00,00,00,
287275884,00000561,false,Rx,0,8,00,00,00,00,00,00,00,00,
287276144,00000567,false,Rx,0,8,00,00,00,00,00,00,00,00,
287276383,00000578,false,Rx,0,6,00,00,00,00,00,00,00,00,
287276745,00000588,false,Rx,0,8,00,00,00,00,00,00,00,00,
287277015,000005EC,false,Rx,0,8,00,00,00,00,00,00,00,00,
287285535,00000450,false,Rx,0,3,00,00,00,00,00,00,00,00,
0,00000371,false,Rx,6,8,00,00,00,00,00,00,00,00,
0,00000372,false,Rx,6,8,00,00,09,00,00,00,00,00,
0,00000436,false,Rx,6,4,00,00,00,00,00,00,00,00,
0,00000470,false,Rx,6,8,55,55,55,55,55,2D,15,00,
0,0000054B,false,Rx,6,8,00,10,00,00,00,00,00,00,
0,00000595,false,Rx,6,8,00,00,00,00,00,00,00,00,
0,00000371,false,Rx,6,8,00,00,00,00,00,00,00,00,
0,00000372,false,Rx,6,8,00,00,09,00,00,00,00,00,
0,0000050B,false,Rx,6,8,00,00,00,00,00,00,C0,00,
0,00000596,false,Rx,6,8,80,00,00,00,00,00,00,FF,
0,000005FF,false,Rx,6,8,00,00,00,00,00,00,00,00,
0,00000371,false,Rx,6,8,00,00,00,00,00,00,00,00,
0,00000372,false,Rx,6,8,00,00,09,00,00,00,00,00,
0,00000412,false,Rx,6,8,00,00,00,0C,10,00,00,00,
0,00000470,false,Rx,6,8,55,55,55,55,55,31,15,00,
0,000004C9,false,Rx,6,8,00,00,00,00,00,00,00,00,
0,00000520,false,Rx,6,8,00,00,00,00,00,00,00,00,
287285789,00000462,false,Rx,0,8,FE,3F,FF,0F,F0,1F,00,00,
287285998,00000471,false,Rx,0,6,15,54,11,00,00,B0,00,00,
287286256,00000553,false,Rx,0,8,00,00,00,00,00,00,80,00,
287295795,000005B3,false,Rx,0,8,FF,FF,FF,FC,00,00,00,00,
287296061,000005DF,false,Rx,0,8,CF,FF,FF,01,00,00,00,00,
287305632,00000450,false,Rx,0,3,00,00,00,00,00,00,00,00,
287305876,00000462,false,Rx,0,8,FE,3F,FF,0F,F0,1F,00,00,
287306095,00000471,false,Rx,0,6,15,54,11,00,00,B4,00,00,
0,00000541,false,Rx,6,8,00,44,00,00,00,08,00,00,
0,000005C1,false,Rx,6,8,00,00,00,00,00,00,00,00,
0,00000371,false,Rx,6,8,00,00,00,00,00,00,00,00,
0,00000372,false,Rx,6,8,00,00,09,00,00,00,00,00,
0,000004A9,false,Rx,6,8,00,00,00,00,00,00,00,00,
0,0000050E,false,Rx,6,8,00,00,00,00,00,00,00,00,
0,00000553,false,Rx,6,8,00,00,00,00,00,00,80,00,
0,00000559,false,Rx,6,8,00,00,00,00,00,00,00,00,
0,00000371,false,Rx,6,8,00,00,00,00,00,00,00,00,
0,00000372,false,Rx,6,8,00,00,09,00,00,00,00,00,
0,00000410,false,Rx,6,8,00,00,40,00,00,00,00,00,
0,00000470,false,Rx,6,8,55,55,55,55,55,35,15,00,
0,0000049F,false,Rx,6,8,00,00,00,00,00,00,00,00,
0,00000544,false,Rx,6,8,FF,F7,FF,FF,00,00,00,00,
287325370,00000450,false,Rx,0,3,00,00,00,00,00,00,00,00,
287325623,00000462,false,Rx,0,8,FE,3F,FF,0F,F0,1F,00,00,
287325862,00000471,false,Rx,0,6,15,54,11,00,00,B8,00,00,
287345938,00000168,false,Rx,3,8,10,00,88,00,D2,50,00,00,
0,00000371,false,Rx,6,8,00,00,00,00,00,00,00,00,
0,00000372,false,Rx,6,8,00,00,09,00,00,00,00,00,
0,00000436,false,Rx,6,4,00,00,00,00,00,00,00,00,
0,00000371,false,Rx,6,8,00,00,00,00,00,00,00,00,
0,00000372,false,Rx,6,8,00,00,09,00,00,00,00,00,
0,00000470,false,Rx,6,8,55,55,55,55,55,39,15,00,
0,00000371,false,Rx,6,8,00,00,00,00,00,00,00,00,
0,00000372,false,Rx,6,8,00,00,09,00,00,00,00,00,
0,00000371,false,Rx,6,8,00,00,00,00,00,00,00,00,
287345852,00000450,false,Rx,0,3,00,00,00,00,00,00,00,00,
287346106,00000462,false,Rx,0,8,FE,3F,FF,0F,F0,1F,00,00,
287346324,00000471,false,Rx,0,6,15,54,11,00,00,FC,00,00,
287346594,00000479,false,Rx,0,8,FF,00,00,00,00,00,00,00,
287346945,00000520,false,Rx,0,8,00,00,00,00,00,00,00,00,
287365534,00000450,false,Rx,0,3,00,00,00,00,00,00,00,00,
287365788,00000462,false,Rx,0,8,FE,3F,FF,0F,F0,1F,00,00,
287366007,00000471,false,Rx,0,6,15,54,11,00,00,40,00,00,
287366265,00000541,false,Rx,0,8,00,44,00,00,00,08,00,00,
287366556,0000055C,false,Rx,0,8,00,00,00,00,00,00,00,00,
287366856,0000055F,false,Rx,0,8,00,00,00,00,00,00,00,00,
287375769,00000561,false,Rx,0,8,00,00,00,00,00,00,00,00,
287346193,0000018B,false,Rx,3,8,FE,FF,F8,00,00,00,00,00,
287346452,0000018C,false,Rx,3,8,00,00,00,00,00,00,00,00,
287346712,0000018D,false,Rx,3,8,00,00,00,00,00,00,00,00,
287346992,0000018E,false,Rx,3,8,00,00,00,00,00,00,00,00,
287347292,0000018F,false,Rx,3,8,00,00,00,00,00,00,00,00,
287347573,000001F7,false,Rx,3,8,00,00,00,00,00,00,00,00,
287347833,000001FA,false,Rx,3,8,00,00,00,00,00,00,00,00,
287348110,00000588,false,Rx,3,8,00,00,00,00,00,00,00,00,
287348389,00000589,false,Rx,3,8,00,00,00,7F,FF,00,00,00,
287365916,00000169,false,Rx,3,8,00,00,00,00,00,00,40,00,
0,00000372,false,Rx,6,8,00,00,09,00,00,00,00,00,
0,00000470,false,Rx,6,8,55,55,55,55,55,7D,15,00,
0,00000479,false,Rx,6,8,FF,00,00,00,00,00,00,00,
0,00000371,false,Rx,6,8,00,00,00,00,00,00,00,00,
0,00000372,false,Rx,6,8,00,00,09,00,00,00,00,00,
0,00000371,false,Rx,6,8,00,00,00,00,00,00,00,00,
0,00000372,false,Rx,6,8,00,00,09,00,00,00,00,00,
0,00000436,false,Rx,6,4,00,00,00,00,00,00,00,00,
0,00000470,false,Rx,6,8,55,55,55,55,55,C1,15,00,
0,0000054B,false,Rx,6,8,00,10,00,00,00,00,00,00,
0,00000595,false,Rx,6,8,00,00,00,00,00,00,00,00,
0,00000371,false,Rx,6,8,00,00,00,00,00,00,00,00,
0,00000372,false,Rx,6,8,00,00,09,00,00,00,00,00,
0,0000050B,false,Rx,6,8,00,00,00,00,00,00,C0,00,
0,00000596,false,Rx,6,8,80,00,00,00,00,00,00,FF,
0,000005FF,false,Rx,6,8,00,00,00,00,00,00,00,00,
287376047,00000567,false,Rx,0,8,00,00,00,00,00,00,00,00,
287376305,00000578,false,Rx,0,6,00,00,00,00,00,00,00,00,
287376565,00000588,false,Rx,0,8,00,00,00,00,00,00,00,00,
287376834,000005EC,false,Rx,0,8,00,00,00,00,00,00,00,00,
287385703,00000450,false,Rx,0,3,00,00,00,00,00,00,00,00,
287385956,00000462,false,Rx,0,8,FE,3F,FF,0F,F0,1F,00,00,
287386165,00000471,false,Rx,0,6,15,54,11,00,00,44,00,00,
287405523,00000450,false,Rx,0,3,00,00,00,00,00,00,00,00,
287385946,0000016A,false,Rx,3,8,00,00,00,00,00,00,00,00,
287405736,00000416,false,Rx,3,8,16,01,00,00,00,00,FF,FF,
287406002,00000188,false,Rx,3,8,00,00,01,04,00,00,00,00,
0,00000371,false,Rx,6,8,00,00,00,00,00,00,00,00,
0,00000372,false,Rx,6,8,00,00,09,00,00,00,00,00,
0,00000470,false,Rx,6,8,55,55,55,55,55,C5,15,00,
0,00000520,false,Rx,6,8,00,00,00,00,00,00,00,00,
0,00000541,false,Rx,6,8,00,44,00,00,00,08,00,00,
0,000005C1,false,Rx,6,8,00,00,00,00,00,00,00,00,
0,00000371,false,Rx,6,8,00,00,00,00,00,00,00,00,
0,00000372,false,Rx,6,8,00,00,09,00,00,00,00,00,
0,00000371,false,Rx,6,8,00,00,00,00,00,00,00,00,
0,00000372,false,Rx,6,8,00,00,09,00,00,00,00,00,
0,00000470,false,Rx,6,8,55,55,55,55,55,C9,15,00,
287405778,00000462,false,Rx,0,8,FE,3F,FF,0F,F0,1F,00,00,
287405986,00000471,false,Rx,0,6,15,54,11,00,00,48,00,00,
287425583,00000450,false,Rx,0,3,00,00,00,00,00,00,00,00,
287425836,00000462,false,Rx,0,8,FE,3F,FF,0F,F0,1F,00,00,
287426055,00000471,false,Rx,0,6,15,54,11,00,00,8C,00,00,
287425948,00000189,false,Rx,3,8,00,00,00,00,00,00,00,00,
0,00000371,false,Rx,6,8,00,00,00,00,00,00,00,00,
0,00000372,false,Rx,6,8,00,00,09,00,00,00,00,00,
0,00000436,false,Rx,6,4,00,00,00,00,00,00,00,00,
0,00000371,false,Rx,6,8,00,00,00,00,00,00,00,00,
0,00000372,false,Rx,6,8,00,00,09,00,00,00,00,00,
0,00000470,false,Rx,6,8,55,55,55,55,55,0D,15,00,
0,00000371,false,Rx,6,8,00,00,00,00,00,00,00,00,
0,00000372,false,Rx,6,8,00,00,09,00,00,00,00,00,
287445631,00000412,false,Rx,0,8,00,00,00,00,00,00,00,00,
287445834,00000450,false,Rx,0,3,00,00,00,00,00,00,00,00,
287446093,0000045D,false,Rx,0,8,FF,FF,FF,FF,FF,FF,FF,0F,
287446353,00000462,false,Rx,0,8,FE,3F,FF,0F,F0,1F,00,00,
287446560,00000471,false,Rx,0,6,15,54,11,00,00,50,00,00,
287446839,00000479,false,Rx,0,8,FF,00,00,00,00,00,00,00,
287447100,0000049A,false,Rx,0,8,00,00,00,00,00,00,00,03,
287447390,000004A9,false,Rx,0,8,00,00,00,00,00,00,00,00,
287447659,000004FE,false,Rx,0,8,FF,FF,7E,FF,FF,00,FF,FF,
287447918,00000520,false,Rx,0,8,00,00,00,00,00,00,00,00,
287448209,00000559,false,Rx,0,8,00,00,00,00,00,00,00,00,
287448468,000005B4,false,Rx,0,8,00,00,00,00,0C,F0,00,00,
287465603,00000450,false,Rx,0,3,00,00,00,00,00,00,00,00,
287465856,00000462,false,Rx,0,8,FE,3F,FF,0F,F0,1F,00,00,
287466075,00000471,false,Rx,0,6,15,54,11,00,00,54,00,00,
287466345,0000050E,false,Rx,0,8,00,00,00,00,00,00,00,00,
287466604,00000541,false,Rx,0,8,00,44,00,00,00,08,00,00,
287466914,0000055C,false,Rx,0,8,00,00,00,00,00,00,00,00,
287467226,0000055F,false,Rx,0,8,00,00,00,00,00,00,00,00,
287445926,0000018A,false,Rx,3,8,00,00,00,00,00,00,00,00,
0,00000371,false,Rx,6,8,00,00,00,00,00,00,00,00,
0,00000372,false,Rx,6,8,00,00,09,00,00,00,00,00,
0,00000470,false,Rx,6,8,55,55,55,55,55,D1,15,00,
0,00000479,false,Rx,6,8,FF,00,00,00,00,00,00,00,
0,000004CB,false,Rx,6,8,00,00,00,00,00,00,00,00,
0,0000053B,false,Rx,6,8,00,00,00,00,00,00,00,00,
0,0000053F,false,Rx,6,8,00,00,00,00,00,00,00,00,
0,000005A6,false,Rx,6,8,00,00,00,00,00,00,00,00,
0,00000371,false,Rx,6,8,00,00,00,00,00,00,00,00,
0,00000372,false,Rx,6,8,00,00,09,00,00,00,00,00,
0,00000371,false,Rx,6,8,00,00,00,00,00,00,00,00,
0,00000372,false,Rx,6,8,00,00,09,00,00,00,00,00,
0,00000436,false,Rx,6,4,00,00,00,00,00,00,00,00,
0,00000470,false,Rx,6,8,55,55,55,55,55,D5,15,00,
0,0000054B,false,Rx,6,8,00,10,00,00,00,00,00,00,
0,00000595,false,Rx,6,8,00,00,00,00,00,00,00,00,
287475645,0000045E,false,Rx,0,8,FF,FF,FF,FF,FF,00,00,00,
287475910,00000561,false,Rx,0,8,00,00,00,00,00,00,00,00,
287476170,00000567,false,Rx,0,8,00,00,00,00,00,00,00,00,
287476399,00000578,false,Rx,0,6,00,00,00,00,00,00,00,00,
287476740,00000588,false,Rx,0,8,00,00,00,00,00,00,00,00,
287477011,000005EC,false,Rx,0,8,00,00,00,00,00,00,00,00,
287485561,00000450,false,Rx,0,3,00,00,00,00,00,00,00,00,
287485814,00000462,false,Rx,0,8,FE,3F,FF,0F,F0,1F,00,00,
287486023,00000471,false,Rx,0,6,15,54,11,00,00,58,00,00,
287486282,00000553,false,Rx,0,8,00,00,00,00,00,00,80,00,
287495800,000005B3,false,Rx,0,8,FF,FF,FF,FC,00,00,00,00,
287496056,000005DF,false,Rx,0,8,CF,FF,FF,01,00,00,00,00,
287505710,00000450,false,Rx,0,3,00,00,00,00,00,00,00,00,
287505964,00000462,false,Rx,0,8,FE,3F,FF,0F,F0,1F,00,00,
287506172,00000471,false,Rx,0,6,15,54,11,00,00,9C,00,00,
287505832,00000416,false,Rx,3,8,16,02,00,00,00,00,FF,FF,
0,00000371,false,Rx,6,8,00,00,00,00,00,00,00,00,
0,00000372,false,Rx,6,8,00,00,09,00,00,00,00,00,
0,0000050B,false,Rx,6,8,00,00,00,00,00,00,C0,00,
0,00000596,false,Rx,6,8,80,00,00,00,00,00,00,FF,
0,000005FF,false,Rx,6,8,00,00,00,00,00,00,00,00,
0,00000371,false,Rx,6,8,00,00,00,00,00,00,00,00,
0,00000372,false,Rx,6,8,00,00,09,00,00,00,00,00,
0,00000412,false,Rx,6,8,00,00,00,0C,10,00,00,00,
0,00000470,false,Rx,6,8,55,55,55,55,55,D9,15,00,
0,000004C9,false,Rx,6,8,00,00,00,00,00,00,00,00,
0,00000520,false,Rx,6,8,00,00,00,00,00,00,00,00,
0,00000541,false,Rx,6,8,00,44,00,00,00,08,00,00,
0,000005C1,false,Rx,6,8,00,00,00,00,00,00,00,00,
0,00000371,false,Rx,6,8,00,00,00,00,00,00,00,00,
0,00000372,false,Rx,6,8,00,00,09,00,00,00,00,00,
0,000004A9,false,Rx,6,8,00,00,00,00,00,00,00,00,
0,0000050E,false,Rx,6,8,00,00,00,00,00,00,00,00,
0,00000553,false,Rx,6,8,00,00,00,00,00,00,80,00,
0,00000559,false,Rx,6,8,00,00,00,00,00,00,00,00,
0,00000371,false,Rx,6,8,00,00,00,00,00,00,00,00,
0,00000372,false,Rx,6,8,00,00,09,00,00,00,00,00,
0,00000410,false,Rx,6,8,00,00,40,00,00,00,00,00,
0,00000470,false,Rx,6,8,55,55,55,55,55,1D,15,00,
0,0000049F,false,Rx,6,8,00,00,00,00,00,00,00,00,
0,00000544,false,Rx,6,8,FF,F7,FF,FF,00,00,00,00,
287525374,00000450,false,Rx,0,3,00,00,00,00,00,00,00,00,
287525629,00000462,false,Rx,0,8,FE,3F,FF,0F,F0,1F,00,00,
287525867,00000471,false,Rx,0,6,15,54,11,00,00,60,00,00,
0,00000371,false,Rx,6,8,00,00,00,00,00,00,00,00,
0,00000372,false,Rx,6,8,00,00,09,00,00,00,00,00,
0,00000436,false,Rx,6,4,00,00,00,00,00,00,00,00,
0,00000371,false,Rx,6,8,00,00,00,00,00,00,00,00,
0,00000372,false,Rx,6,8,00,00,09,00,00,00,00,00,
0,00000470,false,Rx,6,8,55,55,55,55,55,E1,15,00,
0,00000371,false,Rx,6,8,00,00,00,00,00,00,00,00,
0,00000372,false,Rx,6,8,00,00,09,00,00,00,00,00,
287545849,00000450,false,Rx,0,3,00,00,00,00,00,00,00,00,
287546104,00000462,false,Rx,0,8,FE,3F,FF,0F,F0,1F,00,00,
287546312,00000471,false,Rx,0,6,15,54,11,00,00,64,00,00,
287546591,00000479,false,Rx,0,8,FF,00,00,00,00,00,00,00,
287546944,00000520,false,Rx,0,8,00,00,00,00,00,00,00,00,
287545938,00000168,false,Rx,3,8,10,00,88,00,D2,50,00,00,
287546192,0000018B,false,Rx,3,8,FE,FF,F8,00,00,00,00,00,
287546451,0000018C,false,Rx,3,8,00,00,00,00,00,00,00,00,
287546712,0000018D,false,Rx,3,8,00,00,00,00,00,00,00,00,
287546992,0000018E,false,Rx,3,8,00,00,00,00,00,00,00,00,
287547291,0000018F,false,Rx,3,8,00,00,00,00,00,00,00,00,
287547574,000001F7,false,Rx,3,8,00,00,00,00,00,00,00,00,
287547833,000001FA,false,Rx,3,8,00,00,00,00,00,00,00,00,
287548111,00000588,false,Rx,3,8,00,00,00,00,00,00,00,00,
287548391,00000589,false,Rx,3,8,00,00,00,7F,FF,00,00,00,
0,00000371,false,Rx,6,8,00,00,00,00,00,00,00,00,
0,00000372,false,Rx,6,8,00,00,09,00,00,00,00,00,
0,00000470,false,Rx,6,8,55,55,55,55,55,E5,15,00,
0,00000479,false,Rx,6,8,FF,00,00,00,00,00,00,00,
0,00000371,false,Rx,6,8,00,00,00,00,00,00,00,00,
0,00000372,false,Rx,6,8,00,00,09,00,00,00,00,00,
287565524,00000450,false,Rx,0,3,00,00,00,00,00,00,00,00,
287565788,00000462,false,Rx,0,8,FE,3F,FF,0F,F0,1F,00,00,
287566006,00000471,false,Rx,0,6,15,54,11,00,00,68,00,00,
287566276,00000541,false,Rx,0,8,00,44,00,00,00,08,00,00,
287566556,0000055C,false,Rx,0,8,00,00,00,00,00,00,00,00,
287566835,0000055F,false,Rx,0,8,00,00,00,00,00,00,00,00,
287575790,00000561,false,Rx,0,8,00,00,00,00,00,00,00,00,
287576056,00000567,false,Rx,0,8,00,00,00,00,00,00,00,00,
287576305,00000578,false,Rx,0,6,00,00,00,00,00,00,00,00,
287576574,00000588,false,Rx,0,8,00,00,00,00,00,00,00,00,
287576833,000005EC,false,Rx,0,8,00,00,00,00,00,00,00,00,
287585702,00000450,false,Rx,0,3,00,00,00,00,00,00,00,00,
287585955,00000462,false,Rx,0,8,FE,3F,FF,0F,F0,1F,00,00,
287586165,00000471,false,Rx,0,6,15,54,11,00,00,AC,00,00,
287565917,00000169,false,Rx,3,8,00,00,00,00,00,00,40,00,
287585944,0000016A,false,Rx,3,8,00,00,00,00,00,00,00,00,
0,00000371,false,Rx,6,8,00,00,00,00,00,00,00,00,
0,00000372,false,Rx,6,8,00,00,09,00,00,00,00,00,
0,00000436,false,Rx,6,4,00,00,00,00,00,00,00,00,
0,00000470,false,Rx,6,8,55,55,55,55,55,E9,15,00,
0,0000054B,false,Rx,6,8,00,10,00,00,00,00,00,00,
0,00000595,false,Rx,6,8,00,00,00,00,00,00,00,00,
0,00000371,false,Rx,6,8,00,00,00,00,00,00,00,00,
0,00000372,false,Rx,6,8,00,00,09,00,00,00,00,00,
0,0000050B,false,Rx,6,8,00,00,00,00,00,00,C0,00,
0,00000596,false,Rx,6,8,80,00,00,00,00,00,00,FF,
0,000005FF,false,Rx,6,8,00,00,00,00,00,00,00,00,
0,00000371,false,Rx,6,8,00,00,00,00,00,00,00,00,
0,00000372,false,Rx,6,8,00,00,09,00,00,00,00,00,
0,00000470,false,Rx,6,8,55,55,55,55,55,2D,15,00,
0,00000520,false,Rx,6,8,00,00,00,00,00,00,00,00,
0,00000541,false,Rx,6,8,00,44,00,00,00,08,00,00,
0,000005C1,false,Rx,6,8,00,00,00,00,00,00,00,00,
287605398,00000450,false,Rx,0,3,00,00,00,00,00,00,00,00,
287605651,00000462,false,Rx,0,8,FE,3F,FF,0F,F0,1F,00,00,
287605858,00000471,false,Rx,0,6,15,54,11,00,00,B0,00,00,
287625591,00000450,false,Rx,0,3,00,00,00,00,00,00,00,00,
287605922,00000188,false,Rx,3,8,00,00,01,04,00,00,00,00,
287625949,00000189,false,Rx,3,8,00,00,00,00,00,00,00,00,
0,00000371,false,Rx,6,8,00,00,00,00,00,00,00,00,
0,00000372,false,Rx,6,8,00,00,09,00,00,00,00,00,
0,00000371,false,Rx,6,8,00,00,00,00,00,00,00,00,
0,00000372,false,Rx,6,8,00,00,09,00,00,00,00,00,
0,00000470,false,Rx,6,8,55,55,55,55,55,31,15,00,
0,00000371,false,Rx,6,8,00,00,00,00,00,00,00,00,
0,00000372,false,Rx,6,8,00,00,09,00,00,00,00,00,
0,00000436,false,Rx,6,4,00,00,00,00,00,00,00,00,
0,00000371,false,Rx,6,8,00,00,00,00,00,00,00,00,
0,00000372,false,Rx,6,8,00,00,09,00,00,00,00,00,
0,00000470,false,Rx,6,8,55,55,55,55,55,35,15,00,
287625845,00000462,false,Rx,0,8,FE,3F,FF,0F,F0,1F,00,00,
287626054,00000471,false,Rx,0,6,15,54,11,00,00,B4,00,00,
287645618,00000412,false,Rx,0,8,00,00,00,00,00,00,00,00,
287645832,00000450,false,Rx,0,3,00,00,00,00,00,00,00,00,
287646092,0000045D,false,Rx,0,8,FF,FF,FF,FF,FF,FF,FF,0F,
287646350,00000462,false,Rx,0,8,FE,3F,FF,0F,F0,1F,00,00,
287646558,00000471,false,Rx,0,6,15,54,11,00,00,B8,00,00,
287646838,00000479,false,Rx,0,8,FF,00,00,00,00,00,00,00,
287647098,0000049A,false,Rx,0,8,00,00,00,00,00,00,00,03,
287647387,000004A9,false,Rx,0,8,00,00,00,00,00,00,00,00,
287647676,000004FE,false,Rx,0,8,FF,FF,7E,FF,FF,00,FF,FF,
287647924,00000520,false,Rx,0,8,00,00,00,00,00,00,00,00,
287648205,00000559,false,Rx,0,8,00,00,00,00,00,00,00,00,
287648465,000005B4,false,Rx,0,8,00,00,00,00,0C,F0,00,00,
287645917,0000018A,false,Rx,3,8,00,00,00,00,00,00,00,00,
0,00000371,false,Rx,6,8,00,00,00,00,00,00,00,00,
0,00000372,false,Rx,6,8,00,00,09,00,00,00,00,00,
0,00000371,false,Rx,6,8,00,00,00,00,00,00,00,00,
0,00000372,false,Rx,6,8,00,00,09,00,00,00,00,00,
0,00000470,false,Rx,6,8,55,55,55,55,55,39,15,00,
0,00000479,false,Rx,6,8,FF,00,00,00,00,00,00,00,
0,000004CB,false,Rx,6,8,00,00,00,00,00,00,00,00,
0,0000053B,false,Rx,6,8,00,00,00,00,00,00,00,00,
0,0000053F,false,Rx,6,8,00,00,00,00,00,00,00,00,
0,000005A6,false,Rx,6,8,00,00,00,00,00,00,00,00,
0,00000371,false,Rx,6,8,00,00,00,00,00,00,00,00,
0,00000372,false,Rx,6,8,00,00,09,00,00,00,00,00,
287665603,00000450,false,Rx,0,3,00,00,00,00,00,00,00,00,
287665856,00000462,false,Rx,0,8,FE,3F,FF,0F,F0,1F,00,00,
287666078,00000471,false,Rx,0,6,15,54,11,00,00,FC,00,00,
287666336,0000050E,false,Rx,0,8,00,00,00,00,00,00,00,00,
287666595,00000541,false,Rx,0,8,00,44,00,00,00,08,00,00,
287666916,0000055C,false,Rx,0,8,00,00,00,00,00,00,00,00,
287667227,0000055F,false,Rx,0,8,00,00,00,00,00,00,00,00,
287675617,0000045E,false,Rx,0,8,FF,FF,FF,FF,FF,00,00,00,
287675872,00000561,false,Rx,0,8,00,00,00,00,00,00,00,00,
287676133,00000567,false,Rx,0,8,00,00,00,00,00,00,00,00,
287676381,00000578,false,Rx,0,6,00,00,00,00,00,00,00,00,
287676744,00000588,false,Rx,0,8,00,00,00,00,00,00,00,00,
287677014,000005EC,false,Rx,0,8,00,00,00,00,00,00,00,00,
287685523,00000450,false,Rx,0,3,00,00,00,00,00,00,00,00,
287685766,00000462,false,Rx,0,8,FE,3F,FF,0F,F0,1F,00,00,
287685986,00000471,false,Rx,0,6,15,54,11,00,00,40,00,00,
287686254,00000553,false,Rx,0,8,00,00,00,00,00,00,80,00,
0,00000371,false,Rx,6,8,00,00,00,00,00,00,00,00,
0,00000372,false,Rx,6,8,00,00,09,00,00,00,00,00,
0,00000436,false,Rx,6,4,00,00,00,00,00,00,00,00,
0,00000470,false,Rx,6,8,55,55,55,55,55,7D,15,00,
0,0000054B,false,Rx,6,8,00,10,00,00,00,00,00,00,
0,00000595,false,Rx,6,8,00,00,00,00,00,00,00,00,
0,00000371,false,Rx,6,8,00,00,00,00,00,00,00,00,
0,00000372,false,Rx,6,8,00,00,09,00,00,00,00,00,
0,0000050B,false,Rx,6,8,00,00,00,00,00,00,C0,00,
0,00000596,false,Rx,6,8,80,00,00,00,00,00,00,FF,
0,000005FF,false,Rx,6,8,00,00,00,00,00,00,00,00,
0,00000371,false,Rx,6,8,00,00,00,00,00,00,00,00,
0,00000372,false,Rx,6,8,00,00,09,00,00,00,00,00,
0,00000412,false,Rx,6,8,00,00,00,0C,10,00,00,00,
0,00000470,false,Rx,6,8,55,55,55,55,55,C1,15,00,
0,000004C9,false,Rx,6,8,00,00,00,00,00,00,00,00,
0,00000520,false,Rx,6,8,00,00,00,00,00,00,00,00,
0,00000541,false,Rx,6,8,00,44,00,00,00,08,00,00,
0,000005C1,false,Rx,6,8,00,00,00,00,00,00,00,00,
287695770,000005B3,false,Rx,0,8,FF,FF,FF,FC,00,00,00,00,
287696048,000005DF,false,Rx,0,8,CF,FF,FF,01,00,00,00,00,
287705609,00000450,false,Rx,0,3,00,00,00,00,00,00,00,00,
287705863,00000462,false,Rx,0,8,FE,3F,FF,0F,F0,1F,00,00,
287706073,00000471,false,Rx,0,6,15,54,11,00,00,44,00,00,
0,00000371,false,Rx,6,8,00,00,00,00,00,00,00,00,
0,00000372,false,Rx,6,8,00,00,09,00,00,00,00,00,
0,000004A9,false,Rx,6,8,00,00,00,00,00,00,00,00,
0,0000050E,false,Rx,6,8,00,00,00,00,00,00,00,00,
0,00000553,false,Rx,6,8,00,00,00,00,00,00,80,00,
0,00000559,false,Rx,6,8,00,00,00,00,00,00,00,00,
0,00000371,false,Rx,6,8,00,00,00,00,00,00,00,00,
0,00000372,false,Rx,6,8,00,00,09,00,00,00,00,00,
0,00000410,false,Rx,6,8,00,00,40,00,00,00,00,00,
0,00000470,false,Rx,6,8,55,55,55,55,55,C5,15,00,
0,0000049F,false,Rx,6,8,00,00,00,00,00,00,00,00,
0,00000544,false,Rx,6,8,FF,F7,FF,FF,00,00,00,00,
0,00000371,false,Rx,6,8,00,00,00,00,00,00,00,00,
0,00000372,false,Rx,6,8,00,00,09,00,00,00,00,00,
0,00000436,false,Rx,6,4,00,00,00,00,00,00,00,00,
287725369,00000450,false,Rx,0,3,00,00,00,00,00,00,00,00,
287725622,00000462,false,Rx,0,8,FE,3F,FF,0F,F0,1F,00,00,
287725862,00000471,false,Rx,0,6,15,54,11,00,00,48,00,00,
287745862,00000450,false,Rx,0,3,00,00,00,00,00,00,00,00,
287746117,00000462,false,Rx,0,8,FE,3F,FF,0F,F0,1F,00,00,
287746324,00000471,false,Rx,0,6,15,54,11,00,00,8C,00,00,
287746584,00000479,false,Rx,0,8,FF,00,00,00,00,00,00,00,
287746935,00000520,false,Rx,0,8,00,00,00,00,00,00,00,00,
287745928,00000168,false,Rx,3,8,10,00,88,00,D2,50,00,00,
287746193,0000018B,false,Rx,3,8,FE,FF,F8,00,00,00,00,00,
287746452,0000018C,false,Rx,3,8,00,00,00,00,00,00,00,00,
287746712,0000018D,false,Rx,3,8,00,00,00,00,00,00,00,00,
287746992,0000018E,false,Rx,3,8,00,00,00,00,00,00,00,00,
287747303,0000018F,false,Rx,3,8,00,00,00,00,00,00,00,00,
287747574,000001F7,false,Rx,3,8,00,00,00,00,00,00,00,00,
287747834,000001FA,false,Rx,3,8,00,00,00,00,00,00,00,00,
287748111,00000588,false,Rx,3,8,00,00,00,00,00,00,00,00,
287748391,00000589,false,Rx,3,8,00,00,00,7F,FF,00,00,00,
0,00000371,false,Rx,6,8,00,00,00,00,00,00,00,00,
0,00000372,false,Rx,6,8,00,00,09,00,00,00,00,00,
0,00000470,false,Rx,6,8,55,55,55,55,55,C9,15,00,
0,00000371,false,Rx,6,8,00,00,00,00,00,00,00,00,
0,00000372,false,Rx,6,8,00,00,09,00,00,00,00,00,
0,00000371,false,Rx,6,8,00,00,00,00,00,00,00,00,
0,00000372,false,Rx,6,8,00,00,09,00,00,00,00,00,
0,00000470,false,Rx,6,8,55,55,55,55,55,0D,15,00,
0,00000479,false,Rx,6,8,FF,00,00,00,00,00,00,00,
287765566,00000450,false,Rx,0,3,00,00,00,00,00,00,00,00,
287765810,00000462,false,Rx,0,8,FE,3F,FF,0F,F0,1F,00,00,
287766028,00000471,false,Rx,0,6,15,54,11,00,00,50,00,00,
287766297,00000541,false,Rx,0,8,00,44,00,00,00,08,00,00,
287766557,0000055C,false,Rx,0,8,00,00,00,00,00,00,00,00,
287766846,0000055F,false,Rx,0,8,00,00,00,00,00,00,00,00,
287775749,00000561,false,Rx,0,8,00,00,00,00,00,00,00,00,
287776046,00000567,false,Rx,0,8,00,00,00,00,00,00,00,00,
287776295,00000578,false,Rx,0,6,00,00,00,00,00,00,00,00,
287776554,00000588,false,Rx,0,8,00,00,00,00,00,00,00,00,
287776823,000005EC,false,Rx,0,8,00,00,00,00,00,00,00,00,
287785690,00000450,false,Rx,0,3,00,00,00,00,00,00,00,00,
287765739,00000416,false,Rx,3,8,16,01,00,00,00,00,FF,FF,
287766004,00000169,false,Rx,3,8,00,00,00,00,00,00,40,00,
287785942,0000016A,false,Rx,3,8,00,00,00,00,00,00,00,00,
0,00000371,false,Rx,6,8,00,00,00,00,00,00,00,00,
0,00000372,false,Rx,6,8,00,00,09,00,00,00,00,00,
0,00000371,false,Rx,6,8,00,00,00,00,00,00,00,00,
0,00000372,false,Rx,6,8,00,00,09,00,00,00,00,00,
0,00000436,false,Rx,6,4,00,00,00,00,00,00,00,00,
0,00000470,false,Rx,6,8,55,55,55,55,55,D1,15,00,
0,0000054B,false,Rx,6,8,00,10,00,00,00,00,00,00,
0,00000595,false,Rx,6,8,00,00,00,00,00,00,00,00,
0,00000371,false,Rx,6,8,00,00,00,00,00,00,00,00,
0,00000372,false,Rx,6,8,00,00,09,00,00,00,00,00,
0,0000050B,false,Rx,6,8,00,00,00,00,00,00,C0,00,
0,00000596,false,Rx,6,8,80,00,00,00,00,00,00,FF,
0,000005FF,false,Rx,6,8,00,00,00,00,00,00,00,00,
0,00000371,false,Rx,6,8,00,00,00,00,00,00,00,00,
0,00000372,false,Rx,6,8,00,00,09,00,00,00,00,00,
0,00000470,false,Rx,6,8,55,55,55,55,55,D5,15,00,
0,00000520,false,Rx,6,8,00,00,00,00,00,00,00,00,
0,00000541,false,Rx,6,8,00,44,00,00,00,08,00,00,
0,000005C1,false,Rx,6,8,00,00,00,00,00,00,00,00,
287785945,00000462,false,Rx,0,8,FE,3F,FF,0F,F0,1F,00,00,
287786164,00000471,false,Rx,0,6,15,54,11,00,00,54,00,00,
287805389,00000450,false,Rx,0,3,00,00,00,00,00,00,00,00,
287805642,00000462,false,Rx,0,8,FE,3F,FF,0F,F0,1F,00,00,
287805861,00000471,false,Rx,0,6,15,54,11,00,00,58,00,00,
287805921,00000188,false,Rx,3,8,00,00,01,04,00,00,00,00,
0,00000371,false,Rx,6,8,00,00,00,00,00,00,00,00,
0,00000372,false,Rx,6,8,00,00,09,00,00,00,00,00,
0,00000371,false,Rx,6,8,00,00,00,00,00,00,00,00,
0,00000372,false,Rx,6,8,00,00,09,00,00,00,00,00,
0,00000470,false,Rx,6,8,55,55,55,55,55,D9,15,00,
287825581,00000450,false,Rx,0,3,00,00,00,00,00,00,00,00,
287825835,00000462,false,Rx,0,8,FE,3F,FF,0F,F0,1F,00,00,
287826044,00000471,false,Rx,0,6,15,54,11,00,00,9C,00,00,
287825948,00000189,false,Rx,3,8,00,00,00,00,00,00,00,00,
0,00000371,false,Rx,6,8,00,00,00,00,00,00,00,00,
0,00000372,false,Rx,6,8,00,00,09,00,00,00,00,00,
0,00000436,false,Rx,6,4,00,00,00,00,00,00,00,00,
0,00000371,false,Rx,6,8,00,00,00,00,00,00,00,00,
0,00000372,false,Rx,6,8,00,00,09,00,00,00,00,00,
0,00000470,false,Rx,6,8,55,55,55,55,55,1D,15,00,
0,00000371,false,Rx,6,8,00,00,00,00,00,00,00,00,
0,00000372,false,Rx,6,8,00,00,09,00,00,00,00,00,
287845618,00000412,false,Rx,0,8,00,00,00,00,00,00,00,00,
287845833,00000450,false,Rx,0,3,00,00,00,00,00,00,00,00,
287846092,0000045D,false,Rx,0,8,FF,FF,FF,FF,FF,FF,FF,0F,
287846340,00000462,false,Rx,0,8,FE,3F,FF,0F,F0,1F,00,00,
287846549,00000471,false,Rx,0,6,15,54,11,00,00,60,00,00,
287846838,00000479,false,Rx,0,8,FF,00,00,00,00,00,00,00,
287847098,0000049A,false,Rx,0,8,00,00,00,00,00,00,00,03,
287847389,000004A9,false,Rx,0,8,00,00,00,00,00,00,00,00,
287847647,000004FE,false,Rx,0,8,FF,FF,7E,FF,FF,00,FF,FF,
287847916,00000520,false,Rx,0,8,00,00,00,00,00,00,00,00,
287848198,00000559,false,Rx,0,8,00,00,00,00,00,00,00,00,
287848457,000005B4,false,Rx,0,8,00,00,00,00,0C,F0,00,00,
287865696,00000450,false,Rx,0,3,00,00,00,00,00,00,00,00,
287865949,00000462,false,Rx,0,8,FE,3F,FF,0F,F0,1F,00,00,
287866158,00000471,false,Rx,0,6,15,54,11,00,00,64,00,00,
287866417,0000050E,false,Rx,0,8,00,00,00,00,00,00,00,00,
287866676,00000541,false,Rx,0,8,00,44,00,00,00,08,00,00,
287866945,0000055C,false,Rx,0,8,00,00,00,00,00,00,00,00,
287867227,0000055F,false,Rx,0,8,00,00,00,00,00,00,00,00,
287845916,0000018A,false,Rx,3,8,00,00,00,00,00,00,00,00,
287865770,00000416,false,Rx,3,8,16,02,00,00,00,00,FF,FF,
0,00000371,false,Rx,6,8,00,00,00,00,00,00,00,00,
0,00000372,false,Rx,6,8,00,00,09,00,00,00,00,00,
0,00000470,false,Rx,6,8,55,55,55,55,55,E1,15,00,
0,00000479,false,Rx,6,8,FF,00,00,00,00,00,00,00,
0,000004CB,false,Rx,6,8,00,00,00,00,00,00,00,00,
0,0000053B,false,Rx,6,8,00,00,00,00,00,00,00,00,
0,0000053F,false,Rx,6,8,00,00,00,00,00,00,00,00,
0,000005A6,false,Rx,6,8,00,00,00,00,00,00,00,00,
0,00000371,false,Rx,6,8,00,00,00,00,00,00,00,00,
0,00000372,false,Rx,6,8,00,00,09,00,00,00,00,00,
0,00000371,false,Rx,6,8,00,00,00,00,00,00,00,00,
0,00000372,false,Rx,6,8,00,00,09,00,00,00,00,00,
0,00000436,false,Rx,6,4,00,00,00,00,00,00,00,00,
0,00000470,false,Rx,6,8,55,55,55,55,55,E5,15,00,
0,0000054B,false,Rx,6,8,00,10,00,00,00,00,00,00,
0,00000595,false,Rx,6,8,00,00,00,00,00,00,00,00,
0,00000371,false,Rx,6,8,00,00,00,00,00,00,00,00,
0,00000372,false,Rx,6,8,00,00,09,00,00,00,00,00,
0,0000050B,false,Rx,6,8,00,00,00,00,00,00,C0,00,
287875614,0000045E,false,Rx,0,8,FF,FF,FF,FF,FF,00,00,00,
287875869,00000561,false,Rx,0,8,00,00,00,00,00,00,00,00,
287876139,00000567,false,Rx,0,8,00,00,00,00,00,00,00,00,
287876378,00000578,false,Rx,0,6,00,00,00,00,00,00,00,00,
287876739,00000588,false,Rx,0,8,00,00,00,00,00,00,00,00,
287877009,000005EC,false,Rx,0,8,00,00,00,00,00,00,00,00,
287885519,00000450,false,Rx,0,3,00,00,00,00,00,00,00,00,
287885763,00000462,false,Rx,0,8,FE,3F,FF,0F,F0,1F,00,00,
287885981,00000471,false,Rx,0,6,15,54,11,00,00,68,00,00,
287886250,00000553,false,Rx,0,8,00,00,00,00,00,00,80,00,
287895768,000005B3,false,Rx,0,8,FF,FF,FF,FC,00,00,00,00,
287896045,000005DF,false,Rx,0,8,CF,FF,FF,01,00,00,00,00,
287905607,00000450,false,Rx,0,3,00,00,00,00,00,00,00,00,
0,00000596,false,Rx,6,8,80,00,00,00,00,00,00,FF,
0,000005FF,false,Rx,6,8,00,00,00,00,00,00,00,00,
0,00000371,false,Rx,6,8,00,00,00,00,00,00,00,00,
0,00000372,false,Rx,6,8,00,00,09,00,00,00,00,00,
0,00000412,false,Rx,6,8,00,00,00,0C,10,00,00,00,
0,00000470,false,Rx,6,8,55,55,55,55,55,E9,15,00,
0,000004C9,false,Rx,6,8,00,00,00,00,00,00,00,00,
0,00000520,false,Rx,6,8,00,00,00,00,00,00,00,00,
0,00000541,false,Rx,6,8,00,44,00,00,00,08,00,00,
0,000005C1,false,Rx,6,8,00,00,00,00,00,00,00,00,
0,00000371,false,Rx,6,8,00,00,00,00,00,00,00,00,
0,00000372,false,Rx,6,8,00,00,09,00,00,00,00,00,
0,000004A9,false,Rx,6,8,00,00,00,00,00,00,00,00,
0,0000050E,false,Rx,6,8,00,00,00,00,00,00,00,00,
0,00000553,false,Rx,6,8,00,00,00,00,00,00,80,00,
0,00000559,false,Rx,6,8,00,00,00,00,00,00,00,00,
0,00000371,false,Rx,6,8,00,00,00,00,00,00,00,00,
0,00000372,false,Rx,6,8,00,00,09,00,00,00,00,00,
0,00000410,false,Rx,6,8,00,00,40,00,00,00,00,00,
0,00000470,false,Rx,6,8,55,55,55,55,55,2D,15,00,
0,0000049F,false,Rx,6,8,00,00,00,00,00,00,00,00,
0,00000544,false,Rx,6,8,FF,F7,FF,FF,00,00,00,00,
287905860,00000462,false,Rx,0,8,FE,3F,FF,0F,F0,1F,00,00,
287906069,00000471,false,Rx,0,6,15,54,11,00,00,AC,00,00,
287925365,00000450,false,Rx,0,3,00,00,00,00,00,00,00,00,
287925609,00000462,false,Rx,0,8,FE,3F,FF,0F,F0,1F,00,00,
287925857,00000471,false,Rx,0,6,15,54,11,00,00,B0,00,00,
0,00000371,false,Rx,6,8,00,00,00,00,00,00,00,00,
0,00000372,false,Rx,6,8,00,00,09,00,00,00,00,00,
0,00000436,false,Rx,6,4,00,00,00,00,00,00,00,00,
0,00000371,false,Rx,6,8,00,00,00,00,00,00,00,00,
0,00000372,false,Rx,6,8,00,00,09,00,00,00,00,00,
0,00000470,false,Rx,6,8,55,55,55,55,55,31,15,00,
0,00000371,false,Rx,6,8,00,00,00,00,00,00,00,00,
0,00000372,false,Rx,6,8,00,00,09,00,00,00,00,00,
287945836,00000450,false,Rx,0,3,00,00,00,00,00,00,00,00,
287946091,00000462,false,Rx,0,8,FE,3F,FF,0F,F0,1F,00,00,
287946310,00000471,false,Rx,0,6,15,54,11,00,00,B4,00,00,
287946568,00000479,false,Rx,0,8,FF,00,00,00,00,00,00,00,
287946827,00000520,false,Rx,0,8,00,00,00,00,00,00,00,00,
287965530,00000450,false,Rx,0,3,00,00,00,00,00,00,00,00,
287965783,00000462,false,Rx,0,8,FE,3F,FF,0F,F0,1F,00,00,
287965991,00000471,false,Rx,0,6,15,54,11,00,00,B8,00,00,
287966251,00000541,false,Rx,0,8,00,44,00,00,00,08,00,00,
287966550,0000055C,false,Rx,0,8,00,00,00,00,00,00,00,00,
287966840,0000055F,false,Rx,0,8,00,00,00,00,00,00,00,00,
287945927,00000168,false,Rx,3,8,10,00,88,00,D2,50,00,00,
287946183,0000018B,false,Rx,3,8,FE,FF,F8,00,00,00,00,00,
287946452,0000018C,false,Rx,3,8,00,00,00,00,00,00,00,00,
287946712,0000018D,false,Rx,3,8,00,00,00,00,00,00,00,00,
287946992,0000018E,false,Rx,3,8,00,00,00,00,00,00,00,00,
287947292,0000018F,false,Rx,3,8,00,00,00,00,00,00,00,00,
287947574,000001F7,false,Rx,3,8,00,00,00,00,00,00,00,00,
287947832,000001FA,false,Rx,3,8,00,00,00,00,00,00,00,00,
287948110,00000588,false,Rx,3,8,00,00,00,00,00,00,00,00,
287948401,00000589,false,Rx,3,8,00,00,00,7F,FF,00,00,00,
287965915,00000169,false,Rx,3,8,00,00,00,00,00,00,40,00,
0,00000371,false,Rx,6,8,00,00,00,00,00,00,00,00,
0,00000372,false,Rx,6,8,00,00,09,00,00,00,00,00,
0,00000470,false,Rx,6,8,55,55,55,55,55,35,15,00,
0,00000479,false,Rx,6,8,FF,00,00,00,00,00,00,00,
0,00000371,false,Rx,6,8,00,00,00,00,00,00,00,00,
0,00000372,false,Rx,6,8,00,00,09,00,00,00,00,00,
0,00000371,false,Rx,6,8,00,00,00,00,00,00,00,00,
0,00000372,false,Rx,6,8,00,00,09,00,00,00,00,00,
0,00000436,false,Rx,6,4,00,00,00,00,00,00,00,00,
0,00000470,false,Rx,6,8,55,55,55,55,55,39,15,00,
0,0000054B,false,Rx,6,8,00,10,00,00,00,00,00,00,
0,00000595,false,Rx,6,8,00,00,00,00,00,00,00,00,
287975753,00000561,false,Rx,0,8,00,00,00,00,00,00,00,00,
287976040,00000567,false,Rx,0,8,00,00,00,00,00,00,00,00,
287976290,00000578,false,Rx,0,6,00,00,00,00,00,00,00,00,
287976558,00000588,false,Rx,0,8,00,00,00,00,00,00,00,00,
287976817,000005EC,false,Rx,0,8,00,00,00,00,00,00,00,00,
287985696,00000450,false,Rx,0,3,00,00,00,00,00,00,00,00,
287985949,00000462,false,Rx,0,8,FE,3F,FF,0F,F0,1F,00,00,
287986158,00000471,false,Rx,0,6,15,54,11,00,00,FC,00,00,
287985944,0000016A,false,Rx,3,8,00,00,00,00,00,00,00,00,
0,00000371,false,Rx,6,8,00,00,00,00,00,00,00,00,
0,00000372,false,Rx,6,8,00,00,09,00,00,00,00,00,
0,0000050B,false,Rx,6,8,00,00,00,00,00,00,C0,00,
0,00000596,false,Rx,6,8,80,00,00,00,00,00,00,FF,
0,000005FF,false,Rx,6,8,00,00,00,00,00,00,00,00,
0,00000371,false,Rx,6,8,00,00,00,00,00,00,00,00,
0,00000372,false,Rx,6,8,00,00,09,00,00,00,00,00,
0,00000470,false,Rx,6,8,55,55,55,55,55,7D,15,00,
0,00000520,false,Rx,6,8,00,00,00,00,00,00,00,00,
0,00000541,false,Rx,6,8,00,44,00,00,00,08,00,00,
0,000005C1,false,Rx,6,8,00,00,00,00,00,00,00,00,
0,00000371,false,Rx,6,8,00,00,00,00,00,00,00,00,
0,00000372,false,Rx,6,8,00,00,09,00,00,00,00,00,
288005392,00000450,false,Rx,0,3,00,00,00,00,00,00,00,00,
288005645,00000462,false,Rx,0,8,FE,3F,FF,0F,F0,1F,00,00,
288005862,00000471,false,Rx,0,6,15,54,11,00,00,40,00,00,
288025583,00000450,false,Rx,0,3,00,00,00,00,00,00,00,00,
288025826,00000462,false,Rx,0,8,FE,3F,FF,0F,F0,1F,00,00,
288026045,00000471,false,Rx,0,6,15,54,11,00,00,44,00,00,
288005911,00000188,false,Rx,3,8,00,00,01,04,00,00,00,00,
288025941,00000189,false,Rx,3,8,00,00,00,00,00,00,00,00,
0,00000371,false,Rx,6,8,00,00,00,00,00,00,00,00,
0,00000372,false,Rx,6,8,00,00,09,00,00,00,00,00,
0,00000470,false,Rx,6,8,55,55,55,55,55,C1,15,00,
0,00000371,false,Rx,6,8,00,00,00,00,00,00,00,00,
0,00000372,false,Rx,6,8,00,00,09,00,00,00,00,00,
0,00000436,false,Rx,6,4,00,00,00,00,00,00,00,00,
0,00000371,false,Rx,6,8,00,00,00,00,00,00,00,00,
0,00000372,false,Rx,6,8,00,00,09,00,00,00,00,00,
0,00000470,false,Rx,6,8,55,55,55,55,55,C5,15,00,
288045619,0000007F,false,Rx,0,8,00,00,00,00,00,00,00,00,
288045905,00000412,false,Rx,0,8,00,00,00,00,00,00,00,00,
288046062,00000450,false,Rx,0,3,00,00,00,00,00,00,00,00,
288046342,0000045D,false,Rx,0,8,FF,FF,FF,FF,FF,FF,FF,0F,
288046601,00000462,false,Rx,0,8,FE,3F,FF,0F,F0,1F,00,00,
288046818,00000471,false,Rx,0,6,15,54,11,00,00,48,00,00,
288047079,00000479,false,Rx,0,8,FF,00,00,00,00,00,00,00,
288047389,0000049A,false,Rx,0,8,00,00,00,00,00,00,00,03,
288047649,000004A9,false,Rx,0,8,00,00,00,00,00,00,00,00,
288047908,000004FE,false,Rx,0,8,FF,FF,7E,FF,FF,00,FF,FF,
288048198,00000520,false,Rx,0,8,00,00,00,00,00,00,00,00,
288048458,00000559,false,Rx,0,8,00,00,00,00,00,00,00,00,
288048727,000005B4,false,Rx,0,8,00,00,00,00,0C,F0,00,00,
288048997,000005BE,false,Rx,0,8,00,00,00,00,00,C0,00,00,
288045918,0000018A,false,Rx,3,8,00,00,00,00,00,00,00,00,
0,00000371,false,Rx,6,8,00,00,00,00,00,00,00,00,
0,00000372,false,Rx,6,8,00,00,09,00,00,00,00,00,
0,00000371,false,Rx,6,8,00,00,00,00,00,00,00,00,
0,0000007F,false,Rx,6,8,00,00,00,00,00,00,00,00,
0,00000372,false,Rx,6,8,00,00,09,00,00,00,00,00,
0,00000470,false,Rx,6,8,55,55,55,55,55,C9,15,00,
0,00000479,false,Rx,6,8,FF,00,00,00,00,00,00,00,
0,000004CB,false,Rx,6,8,00,00,00,00,00,00,00,00,
0,0000053B,false,Rx,6,8,00,00,00,00,00,00,00,00,
0,0000053F,false,Rx,6,8,00,00,00,00,00,00,00,00,
0,000005A6,false,Rx,6,8,00,00,00,00,00,00,00,00,
0,00000371,false,Rx,6,8,00,00,00,00,00,00,00,00,
0,00000372,false,Rx,6,8,00,00,09,00,00,00,00,00,
288065601,00000450,false,Rx,0,3,00,00,00,00,00,00,00,00,
288065854,00000462,false,Rx,0,8,FE,3F,FF,0F,F0,1F,00,00,
288066064,00000471,false,Rx,0,6,15,54,11,00,00,8C,00,00,
288066322,0000050E,false,Rx,0,8,00,00,00,00,00,00,00,00,
288066581,00000541,false,Rx,0,8,00,44,00,00,00,08,00,00,
288066913,0000055C,false,Rx,0,8,00,00,00,00,00,00,00,00,
288067214,0000055F,false,Rx,0,8,00,00,00,00,00,00,00,00,
288075612,0000045E,false,Rx,0,8,FF,FF,FF,FF,FF,00,00,00,
288075877,00000561,false,Rx,0,8,00,00,00,00,00,00,00,00,
288076138,00000567,false,Rx,0,8,00,00,00,00,00,00,00,00,
288076366,00000578,false,Rx,0,6,00,00,00,00,00,00,00,00,
288076737,00000588,false,Rx,0,8,00,00,00,00,00,00,00,00,
288077008,000005EC,false,Rx,0,8,00,00,00,00,00,00,00,00,
288085518,00000450,false,Rx,0,3,00,00,00,00,00,00,00,00,
288085761,00000462,false,Rx,0,8,FE,3F,FF,0F,F0,1F,00,00,
288085979,00000471,false,Rx,0,6,15,54,11,00,00,50,00,00,
288086240,00000553,false,Rx,0,8,00,00,00,00,00,00,80,00,
0,00000371,false,Rx,6,8,00,00,00,00,00,00,00,00,
0,00000372,false,Rx,6,8,00,00,09,00,00,00,00,00,
0,00000436,false,Rx,6,4,00,00,00,00,00,00,00,00,
0,00000470,false,Rx,6,8,55,55,55,55,55,0D,15,00,
0,0000054B,false,Rx,6,8,00,10,00,00,00,00,00,00,
0,00000595,false,Rx,6,8,00,00,00,00,00,00,00,00,
0,00000371,false,Rx,6,8,00,00,00,00,00,00,00,00,
0,00000372,false,Rx,6,8,00,00,09,00,00,00,00,00,
0,0000050B,false,Rx,6,8,00,00,00,00,00,00,C0,00,
0,00000596,false,Rx,6,8,80,00,00,00,00,00,00,FF,
0,000005FF,false,Rx,6,8,00,00,00,00,00,00,00,00,
0,00000371,false,Rx,6,8,00,00,00,00,00,00,00,00,
0,00000372,false,Rx,6,8,00,00,09,00,00,00,00,00,
0,00000412,false,Rx,6,8,00,00,00,0C,10,00,00,00,
0,00000470,false,Rx,6,8,55,55,55,55,55,D1,15,00,
0,000004C9,false,Rx,6,8,00,00,00,00,00,00,00,00,
0,00000520,false,Rx,6,8,00,00,00,00,00,00,00,00,
0,00000541,false,Rx,6,8,00,44,00,00,00,08,00,00,
0,000005C1,false,Rx,6,8,00,00,00,00,00,00,00,00,
288095767,000005B3,false,Rx,0,8,FF,FF,FF,FC,00,00,00,00,
288096044,000005DF,false,Rx,0,8,CF,FF,FF,01,00,00,00,00,
288105605,00000450,false,Rx,0,3,00,00,00,00,00,00,00,00,
288105858,00000462,false,Rx,0,8,FE,3F,FF,0F,F0,1F,00,00,
288106068,00000471,false,Rx,0,6,15,54,11,00,00,54,00,00,
288115653,000005D0,false,Rx,0,8,00,00,00,00,00,00,00,00,
288115918,000005D3,false,Rx,0,8,0F,00,00,00,00,00,00,00,
288125732,00000416,false,Rx,3,8,16,01,00,00,00,00,FF,FF,
0,00000371,false,Rx,6,8,00,00,00,00,00,00,00,00,
0,00000372,false,Rx,6,8,00,00,09,00,00,00,00,00,
0,000004A9,false,Rx,6,8,00,00,00,00,00,00,00,00,
0,0000050E,false,Rx,6,8,00,00,00,00,00,00,00,00,
0,00000553,false,Rx,6,8,00,00,00,00,00,00,80,00,
0,00000559,false,Rx,6,8,00,00,00,00,00,00,00,00,
0,00000371,false,Rx,6,8,00,00,00,00,00,00,00,00,
0,00000372,false,Rx,6,8,00,00,09,00,00,00,00,00,
0,00000410,false,Rx,6,8,00,00,40,00,00,00,00,00,
0,00000470,false,Rx,6,8,55,55,55,55,55,D5,15,00,
0,0000049F,false,Rx,6,8,00,00,00,00,00,00,00,00,
0,00000544,false,Rx,6,8,FF,F7,FF,FF,00,00,00,00,
0,00000371,false,Rx,6,8,00,00,00,00,00,00,00,00,
0,00000372,false,Rx,6,8,00,00,09,00,00,00,00,00,
0,00000436,false,Rx,6,4,00,00,00,00,00,00,00,00,
0,000005BE,false,Rx,6,8,0C,00,00,00,00,00,00,00,
0,00000371,false,Rx,6,8,00,00,00,00,00,00,00,00,
288125410,00000450,false,Rx,0,3,00,00,00,00,00,00,00,00,
288125663,00000462,false,Rx,0,8,FE,3F,FF,0F,F0,1F,00,00,
288125870,00000471,false,Rx,0,6,15,54,11,00,00,58,00,00,
288145964,00000450,false,Rx,0,3,00,00,00,00,00,00,00,00,
288146219,00000462,false,Rx,0,8,FE,3F,FF,0F,F0,1F,00,00,
288146436,00000471,false,Rx,0,6,15,54,11,00,00,9C,00,00,
288146696,00000479,false,Rx,0,8,FF,00,00,00,00,00,00,00,
288146955,00000520,false,Rx,0,8,00,00,00,00,00,00,00,00,
288146019,00000168,false,Rx,3,8,10,00,88,00,D2,50,00,00,
288146284,0000018B,false,Rx,3,8,FE,FF,F8,00,00,00,00,00,
288146544,0000018C,false,Rx,3,8,00,00,00,00,00,00,00,00,
288146803,0000018D,false,Rx,3,8,00,00,00,00,00,00,00,00,
288147062,0000018E,false,Rx,3,8,00,00,00,00,00,00,00,00,
288147332,0000018F,false,Rx,3,8,00,00,00,00,00,00,00,00,
288147592,000001F7,false,Rx,3,8,00,00,00,00,00,00,00,00,
288147861,000001FA,false,Rx,3,8,00,00,00,00,00,00,00,00,
288148120,00000588,false,Rx,3,8,00,00,00,00,00,00,00,00,
288148409,00000589,false,Rx,3,8,00,00,00,7F,FF,00,00,00,
0,00000372,false,Rx,6,8,00,00,09,00,00,00,00,00,
0,00000470,false,Rx,6,8,55,55,55,55,55,D9,15,00,
0,00000371,false,Rx,6,8,00,00,00,00,00,00,00,00,
0,00000372,false,Rx,6,8,00,00,09,00,00,00,00,00,
0,00000371,false,Rx,6,8,00,00,00,00,00,00,00,00,
0,00000372,false,Rx,6,8,00,00,09,00,00,00,00,00,
0,00000470,false,Rx,6,8,55,55,55,55,55,1D,15,00,
0,00000479,false,Rx,6,8,FF,00,00,00,00,00,00,00,
0,00000371,false,Rx,6,8,00,00,00,00,00,00,00,00,
0,00000372,false,Rx,6,8,00,00,09,00,00,00,00,00,
288165555,00000450,false,Rx,0,3,00,00,00,00,00,00,00,00,
288165808,00000462,false,Rx,0,8,FE,3F,FF,0F,F0,1F,00,00,
288166018,00000471,false,Rx,0,6,15,54,11,00,00,60,00,00,
288166286,00000541,false,Rx,0,8,00,44,00,00,00,08,00,00,
288166545,0000055C,false,Rx,0,8,00,00,00,00,00,00,00,00,
288166856,0000055F,false,Rx,0,8,00,00,00,00,00,00,00,00,
288175790,00000561,false,Rx,0,8,00,00,00,00,00,00,00,00,
288176047,00000567,false,Rx,0,8,00,00,00,00,00,00,00,00,
288176286,00000578,false,Rx,0,6,00,00,00,00,00,00,00,00,
288176554,00000588,false,Rx,0,8,00,00,00,00,00,00,00,00,
288176835,000005EC,false,Rx,0,8,00,00,00,00,00,00,00,00,
288185733,00000450,false,Rx,0,3,00,00,00,00,00,00,00,00,
288165925,00000169,false,Rx,3,8,00,00,00,00,00,00,40,00,
288185984,0000016A,false,Rx,3,8,00,00,00,00,00,00,00,00,
0,00000371,false,Rx,6,8,00,00,00,00,00,00,00,00,
0,00000372,false,Rx,6,8,00,00,09,00,00,00,00,00,
0,00000436,false,Rx,6,4,00,00,00,00,00,00,00,00,
0,00000470,false,Rx,6,8,55,55,55,55,55,E1,15,00,
0,0000054B,false,Rx,6,8,00,10,00,00,00,00,00,00,
0,00000595,false,Rx,6,8,00,00,00,00,00,00,00,00,
0,00000371,false,Rx,6,8,00,00,00,00,00,00,00,00,
0,00000372,false,Rx,6,8,00,00,09,00,00,00,00,00,
0,0000050B,false,Rx,6,8,00,00,00,00,00,00,C0,00,
0,00000596,false,Rx,6,8,80,00,00,00,00,00,00,FF,
0,000005FF,false,Rx,6,8,00,00,00,00,00,00,00,00,
0,00000371,false,Rx,6,8,00,00,00,00,00,00,00,00,
0,00000372,false,Rx,6,8,00,00,09,00,00,00,00,00,
0,00000470,false,Rx,6,8,55,55,55,55,55,E5,15,00,
0,00000520,false,Rx,6,8,00,00,00,00,00,00,00,00,
0,00000541,false,Rx,6,8,00,44,00,00,00,08,00,00,
0,000005C1,false,Rx,6,8,00,00,00,00,00,00,00,00,
288185989,00000462,false,Rx,0,8,FE,3F,FF,0F,F0,1F,00,00,
288186196,00000471,false,Rx,0,6,15,54,11,00,00,64,00,00,
288205523,00000450,false,Rx,0,3,00,00,00,00,00,00,00,00,
288205776,00000462,false,Rx,0,8,FE,3F,FF,0F,F0,1F,00,00,
288205986,00000471,false,Rx,0,6,15,54,11,00,00,68,00,00,
288205931,00000188,false,Rx,3,8,00,00,01,04,00,00,00,00,
0,00000371,false,Rx,6,8,00,00,00,00,00,00,00,00,
0,00000372,false,Rx,6,8,00,00,09,00,00,00,00,00,
0,00000371,false,Rx,6,8,00,00,00,00,00,00,00,00,
0,00000372,false,Rx,6,8,00,00,09,00,00,00,00,00,
0,00000470,false,Rx,6,8,55,55,55,55,55,E9,15,00,
0,00000371,false,Rx,6,8,00,00,00,00,00,00,00,00,
0,00000372,false,Rx,6,8,00,00,09,00,00,00,00,00,
0,00000436,false,Rx,6,4,00,00,00,00,00,00,00,00,
288225715,00000450,false,Rx,0,3,00,00,00,00,00,00,00,00,
288225969,00000462,false,Rx,0,8,FE,3F,FF,0F,F0,1F,00,00,
288226178,00000471,false,Rx,0,6,15,54,11,00,00,AC,00,00,
288245659,00000412,false,Rx,0,8,00,00,00,00,00,00,00,00,
288245823,00000450,false,Rx,0,3,00,00,00,00,00,00,00,00,
288246082,0000045D,false,Rx,0,8,FF,FF,FF,FF,FF,FF,FF,0F,
288246340,00000462,false,Rx,0,8,FE,3F,FF,0F,F0,1F,00,00,
288246549,00000471,false,Rx,0,6,15,54,11,00,00,B0,00,00,
288246828,00000479,false,Rx,0,8,FF,00,00,00,00,00,00,00,
288247087,0000049A,false,Rx,0,8,00,00,00,00,00,00,00,03,
288247378,000004A9,false,Rx,0,8,00,00,00,00,00,00,00,00,
288247647,000004FE,false,Rx,0,8,FF,FF,7E,FF,FF,00,FF,FF,
288225824,00000416,false,Rx,3,8,16,02,00,00,00,00,FF,FF,
288226089,00000189,false,Rx,3,8,00,00,00,00,00,00,00,00,
288245942,0000018A,false,Rx,3,8,00,00,00,00,00,00,00,00,
0,00000371,false,Rx,6,8,00,00,00,00,00,00,00,00,
0,00000372,false,Rx,6,8,00,00,09,00,00,00,00,00,
0,00000470,false,Rx,6,8,55,55,55,55,55,2D,15,00,
0,00000371,false,Rx,6,8,00,00,00,00,00,00,00,00,
0,00000372,false,Rx,6,8,00,00,09,00,00,00,00,00,
0,00000371,false,Rx,6,8,00,00,00,00,00,00,00,00,
0,00000372,false,Rx,6,8,00,00,09,00,00,00,00,00,
0,00000470,false,Rx,6,8,55,55,55,55,55,31,15,00,
0,00000479,false,Rx,6,8,FF,00,00,00,00,00,00,00,
0,000004CB,false,Rx,6,8,00,00,00,00,00,00,00,00,
0,0000053B,false,Rx,6,8,00,00,00,00,00,00,00,00,
0,0000053F,false,Rx,6,8,00,00,00,00,00,00,00,00,
0,000005A6,false,Rx,6,8,00,00,00,00,00,00,00,00,
288247906,00000520,false,Rx,0,8,00,00,00,00,00,00,00,00,
288248198,00000559,false,Rx,0,8,00,00,00,00,00,00,00,00,
288248457,000005B4,false,Rx,0,8,00,00,00,00,0C,F0,00,00,
288265716,00000450,false,Rx,0,3,00,00,00,00,00,00,00,00,
288265971,00000462,false,Rx,0,8,FE,3F,FF,0F,F0,1F,00,00,
288266190,00000471,false,Rx,0,6,15,54,11,00,00,B4,00,00,
288266459,0000050E,false,Rx,0,8,00,00,00,00,00,00,00,00,
288266719,00000541,false,Rx,0,8,00,44,00,00,00,08,00,00,
288266978,0000055C,false,Rx,0,8,00,00,00,00,00,00,00,00,
288267248,0000055F,false,Rx,0,8,00,00,00,00,00,00,00,00,
288275657,0000045E,false,Rx,0,8,FF,FF,FF,FF,FF,00,00,00,
288275923,00000561,false,Rx,0,8,00,00,00,00,00,00,00,00,
288276183,00000567,false,Rx,0,8,00,00,00,00,00,00,00,00,
288276410,00000578,false,Rx,0,6,00,00,00,00,00,00,00,00,
288276732,00000588,false,Rx,0,8,00,00,00,00,00,00,00,00,
288277002,000005EC,false,Rx,0,8,00,00,00,00,00,00,00,00,
0,00000371,false,Rx,6,8,00,00,00,00,00,00,00,00,
0,00000372,false,Rx,6,8,00,00,09,00,00,00,00,00,
0,00000371,false,Rx,6,8,00,00,00,00,00,00,00,00,
0,00000372,false,Rx,6,8,00,00,09,00,00,00,00,00,
0,00000436,false,Rx,6,4,00,00,00,00,00,00,00,00,
0,00000470,false,Rx,6,8,55,55,55,55,55,35,15,00,
0,0000054B,false,Rx,6,8,00,10,00,00,00,00,00,00,
0,00000595,false,Rx,6,8,00,00,00,00,00,00,00,00,
0,00000371,false,Rx,6,8,00,00,00,00,00,00,00,00,
0,00000372,false,Rx,6,8,00,00,09,00,00,00,00,00,
0,0000050B,false,Rx,6,8,00,00,00,00,00,00,C0,00,
0,00000596,false,Rx,6,8,80,00,00,00,00,00,00,FF,
0,000005FF,false,Rx,6,8,00,00,00,00,00,00,00,00,
288285551,00000450,false,Rx,0,3,00,00,00,00,00,00,00,00,
288285805,00000462,false,Rx,0,8,FE,3F,FF,0F,F0,1F,00,00,
288286014,00000471,false,Rx,0,6,15,54,11,00,00,B8,00,00,
288286283,00000553,false,Rx,0,8,00,00,00,00,00,00,80,00,
288295820,000005B3,false,Rx,0,8,FF,FF,FF,FC,00,00,00,00,
288296086,000005DF,false,Rx,0,8,CF,FF,FF,01,00,00,00,00,
288305700,00000450,false,Rx,0,3,00,00,00,00,00,00,00,00,
288305953,00000462,false,Rx,0,8,FE,3F,FF,0F,F0,1F,00,00,
288306172,00000471,false,Rx,0,6,15,54,11,00,00,FC,00,00,
0,00000371,false,Rx,6,8,00,00,00,00,00,00,00,00,
0,00000372,false,Rx,6,8,00,00,09,00,00,00,00,00,
0,00000412,false,Rx,6,8,00,00,00,0C,10,00,00,00,
0,00000470,false,Rx,6,8,55,55,55,55,55,39,15,00,
0,000004C9,false,Rx,6,8,00,00,00,00,00,00,00,00,
0,00000520,false,Rx,6,8,00,00,00,00,00,00,00,00,
0,00000541,false,Rx,6,8,00,44,00,00,00,08,00,00,
0,000005C1,false,Rx,6,8,00,00,00,00,00,00,00,00,
0,00000371,false,Rx,6,8,00,00,00,00,00,00,00,00,
0,00000372,false,Rx,6,8,00,00,09,00,00,00,00,00,
0,000004A9,false,Rx,6,8,00,00,00,00,00,00,00,00,
0,0000050E,false,Rx,6,8,00,00,00,00,00,00,00,00,
0,00000553,false,Rx,6,8,00,00,00,00,00,00,80,00,
0,00000559,false,Rx,6,8,00,00,00,00,00,00,00,00,
0,00000371,false,Rx,6,8,00,00,00,00,00,00,00,00,
0,00000372,false,Rx,6,8,00,00,09,00,00,00,00,00,
0,00000410,false,Rx,6,8,00,00,40,00,00,00,00,00,
0,00000470,false,Rx,6,8,55,55,55,55,55,7D,15,00,
0,0000049F,false,Rx,6,8,00,00,00,00,00,00,00,00,
0,00000544,false,Rx,6,8,FF,F7,FF,FF,00,00,00,00,
0,00000371,false,Rx,6,8,00,00,00,00,00,00,00,00,
0,00000372,false,Rx,6,8,00,00,09,00,00,00,00,00,
0,00000436,false,Rx,6,4,00,00,00,00,00,00,00,00,
288325405,00000450,false,Rx,0,3,00,00,00,00,00,00,00,00,
288325649,00000462,false,Rx,0,8,FE,3F,FF,0F,F0,1F,00,00,
288325867,00000471,false,Rx,0,6,15,54,11,00,00,40,00,00,
0,00000371,false,Rx,6,8,00,00,00,00,00,00,00,00,
0,00000372,false,Rx,6,8,00,00,09,00,00,00,00,00,
0,00000470,false,Rx,6,8,55,55,55,55,55,C1,15,00,
0,00000371,false,Rx,6,8,00,00,00,00,00,00,00,00,
0,00000372,false,Rx,6,8,00,00,09,00,00,00,00,00,
288345898,00000450,false,Rx,0,3,00,00,00,00,00,00,00,00,
288346142,00000462,false,Rx,0,8,FE,3F,FF,0F,F0,1F,00,00,
288346360,00000471,false,Rx,0,6,15,54,11,00,00,44,00,00,
288346661,00000479,false,Rx,0,8,FF,00,00,00,00,00,00,00,
288346930,00000520,false,Rx,0,8,00,00,00,00,00,00,00,00,
288365550,00000450,false,Rx,0,3,00,00,00,00,00,00,00,00,
288365805,00000462,false,Rx,0,8,FE,3F,FF,0F,F0,1F,00,00,
288366013,00000471,false,Rx,0,6,15,54,11,00,00,48,00,00,
288366282,00000541,false,Rx,0,8,00,44,00,00,00,08,00,00,
288366542,0000055C,false,Rx,0,8,00,00,00,00,00,00,00,00,
288366852,0000055F,false,Rx,0,8,00,00,00,00,00,00,00,00,
288345974,00000168,false,Rx,3,8,10,00,88,00,D2,50,00,00,
288346230,0000018B,false,Rx,3,8,FE,FF,F8,00,00,00,00,00,
288346499,0000018C,false,Rx,3,8,00,00,00,00,00,00,00,00,
288346759,0000018D,false,Rx,3,8,00,00,00,00,00,00,00,00,
288347019,0000018E,false,Rx,3,8,00,00,00,00,00,00,00,00,
288347308,0000018F,false,Rx,3,8,00,00,00,00,00,00,00,00,
288347568,000001F7,false,Rx,3,8,00,00,00,00,00,00,00,00,
288347828,000001FA,false,Rx,3,8,00,00,00,00,00,00,00,00,
288348096,00000588,false,Rx,3,8,00,00,00,00,00,00,00,00,
288348385,00000589,false,Rx,3,8,00,00,00,7F,FF,00,00,00,
288365920,00000169,false,Rx,3,8,00,00,00,00,00,00,40,00,
0,00000371,false,Rx,6,8,00,00,00,00,00,00,00,00,
0,00000372,false,Rx,6,8,00,00,09,00,00,00,00,00,
0,00000470,false,Rx,6,8,55,55,55,55,55,C5,15,00,
0,00000479,false,Rx,6,8,FF,00,00,00,00,00,00,00,
0,00000371,false,Rx,6,8,00,00,00,00,00,00,00,00,
0,00000372,false,Rx,6,8,00,00,09,00,00,00,00,00,
0,00000371,false,Rx,6,8,00,00,00,00,00,00,00,00,
0,00000372,false,Rx,6,8,00,00,09,00,00,00,00,00,
0,00000436,false,Rx,6,4,00,00,00,00,00,00,00,00,
0,00000470,false,Rx,6,8,55,55,55,55,55,C9,15,00,
0,0000054B,false,Rx,6,8,00,10,00,00,00,00,00,00,
0,00000595,false,Rx,6,8,00,00,00,00,00,00,00,00,
288375786,00000561,false,Rx,0,8,00,00,00,00,00,00,00,00,
288376052,00000567,false,Rx,0,8,00,00,00,00,00,00,00,00,
288376290,00000578,false,Rx,0,6,00,00,00,00,00,00,00,00,
288376550,00000588,false,Rx,0,8,00,00,00,00,00,00,00,00,
288376829,000005EC,false,Rx,0,8,00,00,00,00,00,00,00,00,
288385729,00000450,false,Rx,0,3,00,00,00,00,00,00,00,00,
288385982,00000462,false,Rx,0,8,FE,3F,FF,0F,F0,1F,00,00,
288386191,00000471,false,Rx,0,6,15,54,11,00,00,8C,00,00,
288405509,00000450,false,Rx,0,3,00,00,00,00,00,00,00,00,
288385990,0000016A,false,Rx,3,8,00,00,00,00,00,00,00,00,
288405936,00000188,false,Rx,3,8,00,00,01,04,00,00,00,00,
0,00000371,false,Rx,6,8,00,00,00,00,00,00,00,00,
0,00000372,false,Rx,6,8,00,00,09,00,00,00,00,00,
0,0000050B,false,Rx,6,8,00,00,00,00,00,00,C0,00,
0,00000596,false,Rx,6,8,80,00,00,00,00,00,00,FF,
0,000005FF,false,Rx,6,8,00,00,00,00,00,00,00,00,
0,00000371,false,Rx,6,8,00,00,00,00,00,00,00,00,
0,00000372,false,Rx,6,8,00,00,09,00,00,00,00,00,
0,00000470,false,Rx,6,8,55,55,55,55,55,0D,15,00,
0,00000520,false,Rx,6,8,00,00,00,00,00,00,00,00,
0,00000541,false,Rx,6,8,00,44,00,00,00,08,00,00,
0,000005C1,false,Rx,6,8,00,00,00,00,00,00,00,00,
0,00000371,false,Rx,6,8,00,00,00,00,00,00,00,00,
0,00000372,false,Rx,6,8,00,00,09,00,00,00,00,00,
0,00000371,false,Rx,6,8,00,00,00,00,00,00,00,00,
0,00000372,false,Rx,6,8,00,00,09,00,00,00,00,00,
0,00000470,false,Rx,6,8,55,55,55,55,55,D1,15,00,
288405752,00000462,false,Rx,0,8,FE,3F,FF,0F,F0,1F,00,00,
288405969,00000471,false,Rx,0,6,15,54,11,00,00,50,00,00,
288425671,00000450,false,Rx,0,3,00,00,00,00,00,00,00,00,
288425924,00000462,false,Rx,0,8,FE,3F,FF,0F,F0,1F,00,00,
288426142,00000471,false,Rx,0,6,15,54,11,00,00,54,00,00,
288425988,00000189,false,Rx,3,8,00,00,00,00,00,00,00,00,
0,00000371,false,Rx,6,8,00,00,00,00,00,00,00,00,
0,00000372,false,Rx,6,8,00,00,09,00,00,00,00,00,
0,00000436,false,Rx,6,4,00,00,00,00,00,00,00,00,
0,00000371,false,Rx,6,8,00,00,00,00,00,00,00,00,
0,00000372,false,Rx,6,8,00,00,09,00,00,00,00,00,
0,00000470,false,Rx,6,8,55,55,55,55,55,D5,15,00,
0,00000371,false,Rx,6,8,00,00,00,00,00,00,00,00,
0,00000372,false,Rx,6,8,00,00,09,00,00,00,00,00,
288445657,00000412,false,Rx,0,8,00,00,00,00,00,00,00,00,
288445819,00000450,false,Rx,0,3,00,00,00,00,00,00,00,00,
288446088,0000045D,false,Rx,0,8,FF,FF,FF,FF,FF,FF,FF,0F,
288446338,00000462,false,Rx,0,8,FE,3F,FF,0F,F0,1F,00,00,
288446545,00000471,false,Rx,0,6,15,54,11,00,00,58,00,00,
288446824,00000479,false,Rx,0,8,FF,00,00,00,00,00,00,00,
288447085,0000049A,false,Rx,0,8,00,00,00,00,00,00,00,03,
288447375,000004A9,false,Rx,0,8,00,00,00,00,00,00,00,00,
288447643,000004FE,false,Rx,0,8,FF,FF,7E,FF,FF,00,FF,FF,
288447903,00000520,false,Rx,0,8,00,00,00,00,00,00,00,00,
288448194,00000559,false,Rx,0,8,00,00,00,00,00,00,00,00,
288448453,000005B4,false,Rx,0,8,00,00,00,00,0C,F0,00,00,
288465712,00000450,false,Rx,0,3,00,00,00,00,00,00,00,00,
288465975,00000462,false,Rx,0,8,FE,3F,FF,0F,F0,1F,00,00,
288466185,00000471,false,Rx,0,6,15,54,11,00,00,9C,00,00,
288466443,0000050E,false,Rx,0,8,00,00,00,00,00,00,00,00,
288466702,00000541,false,Rx,0,8,00,44,00,00,00,08,00,00,
288466972,0000055C,false,Rx,0,8,00,00,00,00,00,00,00,00,
288445932,0000018A,false,Rx,3,8,00,00,00,00,00,00,00,00,
0,00000371,false,Rx,6,8,00,00,00,00,00,00,00,00,
0,00000372,false,Rx,6,8,00,00,09,00,00,00,00,00,
0,00000470,false,Rx,6,8,55,55,55,55,55,D9,15,00,
0,00000479,false,Rx,6,8,FF,00,00,00,00,00,00,00,
0,000004CB,false,Rx,6,8,00,00,00,00,00,00,00,00,
0,0000053B,false,Rx,6,8,00,00,00,00,00,00,00,00,
0,0000053F,false,Rx,6,8,00,00,00,00,00,00,00,00,
0,000005A6,false,Rx,6,8,00,00,00,00,00,00,00,00,
0,00000371,false,Rx,6,8,00,00,00,00,00,00,00,00,
0,00000372,false,Rx,6,8,00,00,09,00,00,00,00,00,
0,00000371,false,Rx,6,8,00,00,00,00,00,00,00,00,
0,00000372,false,Rx,6,8,00,00,09,00,00,00,00,00,
0,00000436,false,Rx,6,4,00,00,00,00,00,00,00,00,
0,00000470,false,Rx,6,8,55,55,55,55,55,1D,15,00,
0,0000054B,false,Rx,6,8,00,10,00,00,00,00,00,00,
0,00000595,false,Rx,6,8,00,00,00,00,00,00,00,00,
288467242,0000055F,false,Rx,0,8,00,00,00,00,00,00,00,00,
288475650,0000045E,false,Rx,0,8,FF,FF,FF,FF,FF,00,00,00,
288475915,00000561,false,Rx,0,8,00,00,00,00,00,00,00,00,
288476176,00000567,false,Rx,0,8,00,00,00,00,00,00,00,00,
288476394,00000578,false,Rx,0,6,00,00,00,00,00,00,00,00,
288476724,00000588,false,Rx,0,8,00,00,00,00,00,00,00,00,
288477006,000005EC,false,Rx,0,8,00,00,00,00,00,00,00,00,
288485598,00000450,false,Rx,0,3,00,00,00,00,00,00,00,00,
288485912,00000462,false,Rx,0,8,FE,3F,FF,0F,F0,1F,00,00,
288486215,00000471,false,Rx,0,6,15,54,11,00,00,60,00,00,
288486555,00000553,false,Rx,0,8,00,00,00,00,00,00,80,00,
288495834,000005B3,false,Rx,0,8,FF,FF,FF,FC,00,00,00,00,
288496090,000005DF,false,Rx,0,8,CF,FF,FF,01,00,00,00,00,
288485735,00000416,false,Rx,3,8,16,01,00,00,00,00,FF,FF,
0,00000371,false,Rx,6,8,00,00,00,00,00,00,00,00,
0,00000372,false,Rx,6,8,00,00,09,00,00,00,00,00,
0,0000050B,false,Rx,6,8,00,00,00,00,00,00,C0,00,
0,00000596,false,Rx,6,8,80,00,00,00,00,00,00,FF,
0,000005FF,false,Rx,6,8,00,00,00,00,00,00,00,00,
0,00000371,false,Rx,6,8,00,00,00,00,00,00,00,00,
0,00000372,false,Rx,6,8,00,00,09,00,00,00,00,00,
0,00000412,false,Rx,6,8,00,00,00,0C,10,00,00,00,
0,00000470,false,Rx,6,8,55,55,55,55,55,E1,15,00,
0,000004C9,false,Rx,6,8,00,00,00,00,00,00,00,00,
0,00000520,false,Rx,6,8,00,00,00,00,00,00,00,00,
0,00000541,false,Rx,6,8,00,44,00,00,00,08,00,00,
0,000005C1,false,Rx,6,8,00,00,00,00,00,00,00,00,
0,00000371,false,Rx,6,8,00,00,00,00,00,00,00,00,
0,00000372,false,Rx,6,8,00,00,09,00,00,00,00,00,
0,000004A9,false,Rx,6,8,00,00,00,00,00,00,00,00,
0,0000050E,false,Rx,6,8,00,00,00,00,00,00,00,00,
0,00000553,false,Rx,6,8,00,00,00,00,00,00,80,00,
0,00000559,false,Rx,6,8,00,00,00,00,00,00,00,00,
288505705,00000450,false,Rx,0,3,00,00,00,00,00,00,00,00,
288505968,00000462,false,Rx,0,8,FE,3F,FF,0F,F0,1F,00,00,
288506178,00000471,false,Rx,0,6,15,54,11,00,00,64,00,00,
288525484,00000450,false,Rx,0,3,00,00,00,00,00,00,00,00,
288525727,00000462,false,Rx,0,8,FE,3F,FF,0F,F0,1F,00,00,
288525945,00000471,false,Rx,0,6,15,54,11,00,00,68,00,00,
0,00000371,false,Rx,6,8,00,00,00,00,00,00,00,00,
0,00000372,false,Rx,6,8,00,00,09,00,00,00,00,00,
0,00000410,false,Rx,6,8,00,00,40,00,00,00,00,00,
0,00000470,false,Rx,6,8,55,55,55,55,55,E5,15,00,
0,0000049F,false,Rx,6,8,00,00,00,00,00,00,00,00,
0,00000544,false,Rx,6,8,FF,F7,FF,FF,00,00,00,00,
0,00000371,false,Rx,6,8,00,00,00,00,00,00,00,00,
0,00000372,false,Rx,6,8,00,00,09,00,00,00,00,00,
0,00000436,false,Rx,6,4,00,00,00,00,00,00,00,00,
0,00000371,false,Rx,6,8,00,00,00,00,00,00,00,00,
0,00000372,false,Rx,6,8,00,00,09,00,00,00,00,00,
0,00000470,false,Rx,6,8,55,55,55,55,55,E9,15,00,
288545893,00000450,false,Rx,0,3,00,00,00,00,00,00,00,00,
288546148,00000462,false,Rx,0,8,FE,3F,FF,0F,F0,1F,00,00,
288546356,00000471,false,Rx,0,6,15,54,11,00,00,AC,00,00,
288546655,00000479,false,Rx,0,8,FF,00,00,00,00,00,00,00,
288546925,00000520,false,Rx,0,8,00,00,00,00,00,00,00,00,
288565556,00000450,false,Rx,0,3,00,00,00,00,00,00,00,00,
288545975,00000168,false,Rx,3,8,10,00,88,00,D2,50,00,00,
288546230,0000018B,false,Rx,3,8,FE,FF,F8,00,00,00,00,00,
288546499,0000018C,false,Rx,3,8,00,00,00,00,00,00,00,00,
288546770,0000018D,false,Rx,3,8,00,00,00,00,00,00,00,00,
288547039,0000018E,false,Rx,3,8,00,00,00,00,00,00,00,00,
288547308,0000018F,false,Rx,3,8,00,00,00,00,00,00,00,00,
288547569,000001F7,false,Rx,3,8,00,00,00,00,00,00,00,00,
288547828,000001FA,false,Rx,3,8,00,00,00,00,00,00,00,00,
288548096,00000588,false,Rx,3,8,00,00,00,00,00,00,00,00,
288548386,00000589,false,Rx,3,8,00,00,00,7F,FF,00,00,00,
288565931,00000169,false,Rx,3,8,00,00,00,00,00,00,40,00,
0,00000371,false,Rx,6,8,00,00,00,00,00,00,00,00,
0,00000372,false,Rx,6,8,00,00,09,00,00,00,00,00,
0,00000371,false,Rx,6,8,00,00,00,00,00,00,00,00,
0,00000372,false,Rx,6,8,00,00,09,00,00,00,00,00,
0,00000470,false,Rx,6,8,55,55,55,55,55,2D,15,00,
0,00000479,false,Rx,6,8,FF,00,00,00,00,00,00,00,
0,00000371,false,Rx,6,8,00,00,00,00,00,00,00,00,
0,00000372,false,Rx,6,8,00,00,09,00,00,00,00,00,
0,00000371,false,Rx,6,8,00,00,00,00,00,00,00,00,
0,00000372,false,Rx,6,8,00,00,09,00,00,00,00,00,
0,00000436,false,Rx,6,4,00,00,00,00,00,00,00,00,
0,00000470,false,Rx,6,8,55,55,55,55,55,31,15,00,
0,0000054B,false,Rx,6,8,00,10,00,00,00,00,00,00,
0,00000595,false,Rx,6,8,00,00,00,00,00,00,00,00,
288565809,00000462,false,Rx,0,8,FE,3F,FF,0F,F0,1F,00,00,
288566018,00000471,false,Rx,0,6,15,54,11,00,00,B0,00,00,
288566278,00000541,false,Rx,0,8,00,44,00,00,00,08,00,00,
288566536,0000055C,false,Rx,0,8,00,00,00,00,00,00,00,00,
288566827,0000055F,false,Rx,0,8,00,00,00,00,00,00,00,00,
288575782,00000561,false,Rx,0,8,00,00,00,00,00,00,00,00,
288576050,00000567,false,Rx,0,8,00,00,00,00,00,00,00,00,
288576277,00000578,false,Rx,0,6,00,00,00,00,00,00,00,00,
288576546,00000588,false,Rx,0,8,00,00,00,00,00,00,00,00,
288576806,000005EC,false,Rx,0,8,00,00,00,00,00,00,00,00,
288585726,00000450,false,Rx,0,3,00,00,00,00,00,00,00,00,
288585979,00000462,false,Rx,0,8,FE,3F,FF,0F,F0,1F,00,00,
288586199,00000471,false,Rx,0,6,15,54,11,00,00,B4,00,00,
288585991,0000016A,false,Rx,3,8,00,00,00,00,00,00,00,00,
0,00000371,false,Rx,6,8,00,00,00,00,00,00,00,00,
0,00000372,false,Rx,6,8,00,00,09,00,00,00,00,00,
0,0000050B,false,Rx,6,8,00,00,00,00,00,00,C0,00,
0,00000596,false,Rx,6,8,80,00,00,00,00,00,00,FF,
0,000005FF,false,Rx,6,8,00,00,00,00,00,00,00,00,
0,00000371,false,Rx,6,8,00,00,00,00,00,00,00,00,
0,00000372,false,Rx,6,8,00,00,09,00,00,00,00,00,
0,00000470,false,Rx,6,8,55,55,55,55,55,35,15,00,
0,00000520,false,Rx,6,8,00,00,00,00,00,00,00,00,
0,00000541,false,Rx,6,8,00,44,00,00,00,08,00,00,
0,000005C1,false,Rx,6,8,00,00,00,00,00,00,00,00,
288605504,00000450,false,Rx,0,3,00,00,00,00,00,00,00,00,
288605757,00000462,false,Rx,0,8,FE,3F,FF,0F,F0,1F,00,00,
288605966,00000471,false,Rx,0,6,15,54,11,00,00,B8,00,00,
288605937,00000188,false,Rx,3,8,00,00,01,04,00,00,00,00,
0,00000371,false,Rx,6,8,00,00,00,00,00,00,00,00,
0,00000372,false,Rx,6,8,00,00,09,00,00,00,00,00,
0,00000371,false,Rx,6,8,00,00,00,00,00,00,00,00,
0,00000372,false,Rx,6,8,00,00,09,00,00,00,00,00,
0,00000470,false,Rx,6,8,55,55,55,55,55,39,15,00,
0,00000371,false,Rx,6,8,00,00,00,00,00,00,00,00,
0,00000372,false,Rx,6,8,00,00,09,00,00,00,00,00,
0,00000436,false,Rx,6,4,00,00,00,00,00,00,00,00,
288625675,00000450,false,Rx,0,3,00,00,00,00,00,00,00,00,
288625930,00000462,false,Rx,0,8,FE,3F,FF,0F,F0,1F,00,00,
288626139,00000471,false,Rx,0,6,15,54,11,00,00,FC,00,00,
288645653,00000412,false,Rx,0,8,00,00,00,00,00,00,00,00,
288645815,00000450,false,Rx,0,3,00,00,00,00,00,00,00,00,
288646086,0000045D,false,Rx,0,8,FF,FF,FF,FF,FF,FF,FF,0F,
288646334,00000462,false,Rx,0,8,FE,3F,FF,0F,F0,1F,00,00,
288646552,00000471,false,Rx,0,6,15,54,11,00,00,40,00,00,
288646821,00000479,false,Rx,0,8,FF,00,00,00,00,00,00,00,
