Time [s],Packet,Type,Identifier,Control,Data,CRC,ACK
0.000433166666667,0,DATA,0x16A,0x8,0x03 0x0C 0xF0 0x00 0x00 0x00 0x3C 0x3C,0x2FC4,NAK
0.001793541666667,1,DATA,0x16A,0x8,0x03 0x0C 0xF0 0x00 0x00 0x00 0x3C 0x3C,0x2FC4,NAK
0.003153916666667,2,DATA,0x16A,0x8,0x03 0x0C 0xF0 0x00 0x00 0x00 0x3C 0x3C,0x2FC4,NAK
0.004514333333333,3,DATA,0x16A,0x8,0x03 0x0C 0xF0 0x00 0x00 0x00 0x3C 0x3C,0x2FC4,NAK
0.006075250000000,4,DATA,0x16A,0x8,0x03 0x0C 0xF0 0x00 0x00 0x00 0x3C 0x3C,0x2FC4,NAK
0.007595666666667,5,DATA,0x12B,0x8,0x00 0x00 0x00 0x00 0x00 0x00 0x00 0x00,0x5C96,NAK
0.009136125000000,6,DATA,0x17A,0x8,0x00 0x00 0x00 0x00 0xC0 0x00 0x00 0x00,0x523C,NAK
0.010676541666667,7,DATA,0x17B,0x8,0x00 0x00 0x20 0x00 0x00 0x00 0x00 0x00,0x6554,NAK
0.012216958333333,8,DATA,0x17D,0x8,0x00 0x00 0x00 0x00 0x00 0x00 0x00 0x00,0x4973,NAK
0.013767416666667,9,DATA,0x15E,0x8,0x00 0x00 0x00 0x00 0x00 0x00 0x0D 0x0F,0x3D85,NAK
0.015287833333333,10,DATA,0x17F,0x8,0x00 0x00 0x0C 0x00 0x00 0x03 0x00 0x00,0x46A9,NAK
0.016818291666667,11,DATA,0x19D,0x8,0x00 0x00 0x00 0x00 0x00 0x00 0x00 0x00,0x4D9B,NAK
0.018358708333333,12,DATA,0x1AB,0x8,0xFF 0xFF 0xFF 0xFF 0xFF 0x7E 0x00 0x00,0x678D,NAK
0.019889125000000,13,DATA,0x55C,0x8,0x00 0x00 0x00 0x00 0x00 0x30 0xC0 0x00,0x6D05,NAK
0.021429583333333,14,DATA,0x55D,0x8,0x00 0x00 0x00 0x00 0x00 0x00 0xFF 0x00,0x7274,NAK
0.022960000000000,15,DATA,0x55E,0x8,0x00 0x00 0x00 0x3F 0xC0 0xFF 0x00 0x00,0x533C,NAK
0.024480416666667,16,DATA,0x157,0x8,0xCF 0xFF 0x00 0x00 0x00 0x00 0x00 0x00,0x01DE,NAK
0.026010875000000,17,DATA,0x56A,0x8,0x00 0x00 0x00 0x00 0x00 0x00 0x00 0x00,0x4A4E,NAK
0.027551291666667,18,DATA,0x56B,0x8,0x00 0x00 0x00 0x00 0x00 0x00 0x00 0x00,0x4155,NAK
0.029101708333333,19,DATA,0x56C,0x8,0x00 0x00 0x00 0x00 0x00 0x00 0x00 0x00,0x7014,NAK
0.030502125000000,20,DATA,0x56C,0x8,0x00 0x00 0x00 0x00 0x00 0x00 0x00 0x00,0x7014,NAK
0.031902500000000,21,DATA,0x56C,0x8,0x00 0x00 0x00 0x00 0x00 0x00 0x00 0x00,0x7014,NAK
0.033302916666667,22,DATA,0x56C,0x8,0x00 0x00 0x00 0x00 0x00 0x00 0x00 0x00,0x7014,NAK
0.034703291666667,23,DATA,0x56C,0x8,0x00 0x00 0x00 0x00 0x00 0x00 0x00 0x00,0x7014,NAK
0.036103708333333,24,DATA,0x56C,0x8,0x00 0x00 0x00 0x00 0x00 0x00 0x00 0x00,0x7014,NAK
0.037504083333333,25,DATA,0x56C,0x8,0x00 0x00 0x00 0x00 0x00 0x00 0x00 0x00,0x7014,NAK
0.038904500000000,26,DATA,0x56C,0x8,0x00 0x00 0x00 0x00 0x00 0x00 0x00 0x00,0x7014,NAK
0.040304875000000,27,DATA,0x56C,0x8,0x00 0x00 0x00 0x00 0x00 0x00 0x00 0x00,0x7014,NAK
0.041705250000000,28,DATA,0x56C,0x8,0x00 0x00 0x00 0x00 0x00 0x00 0x00 0x00,0x7014,NAK
0.043105666666667,29,DATA,0x56C,0x8,0x00 0x00 0x00 0x00 0x00 0x00 0x00 0x00,0x7014,NAK
0.044506041666667,30,DATA,0x56C,0x8,0x00 0x00 0x00 0x00 0x00 0x00 0x00 0x00,0x7014,NAK
0.045906458333333,31,DATA,0x56C,0x8,0x00 0x00 0x00 0x00 0x00 0x00 0x00 0x00,0x7014,NAK
0.047306833333333,32,DATA,0x56C,0x8,0x00 0x00 0x00 0x00 0x00 0x00 0x00 0x00,0x7014,NAK
0.048707250000000,33,DATA,0x56C,0x8,0x00 0x00 0x00 0x00 0x00 0x00 0x00 0x00,0x7014,NAK
0.050107625000000,34,DATA,0x56C,0x8,0x00 0x00 0x00 0x00 0x00 0x00 0x00 0x00,0x7014,NAK
0.051508041666667,35,DATA,0x56C,0x8,0x00 0x00 0x00 0x00 0x00 0x00 0x00 0x00,0x7014,NAK
0.052908416666667,36,DATA,0x56C,0x8,0x00 0x00 0x00 0x00 0x00 0x00 0x00 0x00,0x7014,NAK
0.054308791666667,37,DATA,0x56C,0x8,0x00 0x00 0x00 0x00 0x00 0x00 0x00 0x00,0x7014,NAK
0.055709208333333,38,DATA,0x56C,0x8,0x00 0x00 0x00 0x00 0x00 0x00 0x00 0x00,0x7014,NAK
0.057109583333333,39,DATA,0x56C,0x8,0x00 0x00 0x00 0x00 0x00 0x00 0x00 0x00,0x7014,NAK
0.058510000000000,40,DATA,0x56C,0x8,0x00 0x00 0x00 0x00 0x00 0x00 0x00 0x00,0x7014,NAK
0.059910375000000,41,DATA,0x56C,0x8,0x00 0x00 0x00 0x00 0x00 0x00 0x00 0x00,0x7014,NAK
0.061310791666667,42,DATA,0x56C,0x8,0x00 0x00 0x00 0x00 0x00 0x00 0x00 0x00,0x7014,NAK
0.062711166666667,43,DATA,0x56C,0x8,0x00 0x00 0x00 0x00 0x00 0x00 0x00 0x00,0x7014,NAK
0.064111583333333,44,DATA,0x56C,0x8,0x00 0x00 0x00 0x00 0x00 0x00 0x00 0x00,0x7014,NAK
0.065511958333333,45,DATA,0x56C,0x8,0x00 0x00 0x00 0x00 0x00 0x00 0x00 0x00,0x7014,NAK
0.066912333333333,46,DATA,0x56C,0x8,0x00 0x00 0x00 0x00 0x00 0x00 0x00 0x00,0x7014,NAK
0.068312750000000,47,DATA,0x56C,0x8,0x00 0x00 0x00 0x00 0x00 0x00 0x00 0x00,0x7014,NAK
0.069713125000000,48,DATA,0x56C,0x8,0x00 0x00 0x00 0x00 0x00 0x00 0x00 0x00,0x7014,NAK
0.071113541666667,49,DATA,0x56C,0x8,0x00 0x00 0x00 0x00 0x00 0x00 0x00 0x00,0x7014,NAK
0.072513916666667,50,DATA,0x56C,0x8,0x00 0x00 0x00 0x00 0x00 0x00 0x00 0x00,0x7014,NAK
0.073914333333333,51,DATA,0x56C,0x8,0x00 0x00 0x00 0x00 0x00 0x00 0x00 0x00,0x7014,NAK
0.075314708333333,52,DATA,0x56C,0x8,0x00 0x00 0x00 0x00 0x00 0x00 0x00 0x00,0x7014,NAK
0.076715125000000,53,DATA,0x56C,0x8,0x00 0x00 0x00 0x00 0x00 0x00 0x00 0x00,0x7014,NAK
0.078115500000000,54,DATA,0x56C,0x8,0x00 0x00 0x00 0x00 0x00 0x00 0x00 0x00,0x7014,NAK
0.079515875000000,55,DATA,0x56C,0x8,0x00 0x00 0x00 0x00 0x00 0x00 0x00 0x00,0x7014,NAK
0.080916291666667,56,DATA,0x56C,0x8,0x00 0x00 0x00 0x00 0x00 0x00 0x00 0x00,0x7014,NAK
0.082316666666667,57,DATA,0x56C,0x8,0x00 0x00 0x00 0x00 0x00 0x00 0x00 0x00,0x7014,NAK
0.083717083333333,58,DATA,0x56C,0x8,0x00 0x00 0x00 0x00 0x00 0x00 0x00 0x00,0x7014,NAK
0.085117458333333,59,DATA,0x56C,0x8,0x00 0x00 0x00 0x00 0x00 0x00 0x00 0x00,0x7014,NAK
0.086517875000000,60,DATA,0x56C,0x8,0x00 0x00 0x00 0x00 0x00 0x00 0x00 0x00,0x7014,NAK
0.087918250000000,61,DATA,0x56C,0x8,0x00 0x00 0x00 0x00 0x00 0x00 0x00 0x00,0x7014,NAK
0.089318666666667,62,DATA,0x56C,0x8,0x00 0x00 0x00 0x00 0x00 0x00 0x00 0x00,0x7014,NAK
0.090719041666667,63,DATA,0x56C,0x8,0x00 0x00 0x00 0x00 0x00 0x00 0x00 0x00,0x7014,NAK
0.092119416666667,64,DATA,0x56C,0x8,0x00 0x00 0x00 0x00 0x00 0x00 0x00 0x00,0x7014,NAK
0.093519833333333,65,DATA,0x56C,0x8,0x00 0x00 0x00 0x00 0x00 0x00 0x00 0x00,0x7014,NAK
0.094920208333333,66,DATA,0x56C,0x8,0x00 0x00 0x00 0x00 0x00 0x00 0x00 0x00,0x7014,NAK
0.096320625000000,67,DATA,0x56C,0x8,0x00 0x00 0x00 0x00 0x00 0x00 0x00 0x00,0x7014,NAK
0.097721000000000,68,DATA,0x56C,0x8,0x00 0x00 0x00 0x00 0x00 0x00 0x00 0x00,0x7014,NAK
0.099121416666667,69,DATA,0x56C,0x8,0x00 0x00 0x00 0x00 0x00 0x00 0x00 0x00,0x7014,NAK
0.100521791666667,70,DATA,0x56C,0x8,0x00 0x00 0x00 0x00 0x00 0x00 0x00 0x00,0x7014,NAK
0.101922208333333,71,DATA,0x56C,0x8,0x00 0x00 0x00 0x00 0x00 0x00 0x00 0x00,0x7014,NAK
0.103322583333333,72,DATA,0x56C,0x8,0x00 0x00 0x00 0x00 0x00 0x00 0x00 0x00,0x7014,NAK
0.104722958333333,73,DATA,0x56C,0x8,0x00 0x00 0x00 0x00 0x00 0x00 0x00 0x00,0x7014,NAK
0.106123375000000,74,DATA,0x56C,0x8,0x00 0x00 0x00 0x00 0x00 0x00 0x00 0x00,0x7014,NAK
0.107523750000000,75,DATA,0x56C,0x8,0x00 0x00 0x00 0x00 0x00 0x00 0x00 0x00,0x7014,NAK
0.108924166666667,76,DATA,0x56C,0x8,0x00 0x00 0x00 0x00 0x00 0x00 0x00 0x00,0x7014,NAK
0.110324541666667,77,DATA,0x56C,0x8,0x00 0x00 0x00 0x00 0x00 0x00 0x00 0x00,0x7014,NAK
0.111724958333333,78,DATA,0x56C,0x8,0x00 0x00 0x00 0x00 0x00 0x00 0x00 0x00,0x7014,NAK
0.113125333333333,79,DATA,0x56C,0x8,0x00 0x00 0x00 0x00 0x00 0x00 0x00 0x00,0x7014,NAK
0.114525750000000,80,DATA,0x56C,0x8,0x00 0x00 0x00 0x00 0x00 0x00 0x00 0x00,0x7014,NAK
0.115926125000000,81,DATA,0x56C,0x8,0x00 0x00 0x00 0x00 0x00 0x00 0x00 0x00,0x7014,NAK
0.117326541666667,82,DATA,0x56C,0x8,0x00 0x00 0x00 0x00 0x00 0x00 0x00 0x00,0x7014,NAK
0.118927458333333,83,DATA,0x56C,0x8,0x00 0x00 0x00 0x00 0x00 0x00 0x00 0x00,0x7014,NAK
0.120487916666667,84,DATA,0x12A,0x8,0x00 0x00 0x00 0x00 0x00 0x00 0x00 0x00,0x578D,NAK
0.122028333333333,85,DATA,0x133,0x8,0x03 0xFF 0x00 0x00 0x00 0x00 0x00 0xFF,0x1073,NAK
0.123568791666667,86,DATA,0x12B,0x8,0x00 0x00 0x00 0x00 0x00 0x00 0x00 0x00,0x5C96,NAK
0.125109208333333,87,DATA,0x135,0x8,0x00 0x00 0x00 0x00 0xFF 0xFF 0xFF 0x00,0x17F0,NAK
0.126669666666667,88,DATA,0x158,0x8,0x00 0x00 0x00 0x00 0x00 0x00 0x00 0x00,0x43CF,NAK
0.128220083333333,89,DATA,0x15D,0x8,0x00 0x00 0x00 0x00 0x00 0x00 0x00 0xF0,0x43D7,NAK
0.129740500000000,90,DATA,0x161,0x8,0x03 0x00 0x00 0x00 0x00 0x00 0x00 0x00,0x7527,NAK
0.131270958333333,91,DATA,0x164,0x8,0x00 0x00 0x00 0x00 0x00 0x00 0x00 0x00,0x6E99,NAK
0.132821375000000,92,DATA,0x166,0x8,0x00 0x00 0x00 0x00 0x00 0x00 0x00 0x00,0x78AF,NAK
0.134361791666667,93,DATA,0x169,0x8,0x0F 0x00 0x00 0x00 0x00 0x00 0x03 0xE8,0x6C4E,NAK
0.135882250000000,94,DATA,0x16A,0x8,0x03 0x0C 0xF0 0x00 0x00 0x00 0x3C 0x3C,0x2FC4,NAK
0.137402666666667,95,DATA,0x17D,0x8,0x00 0x00 0x00 0x00 0x00 0x00 0x00 0x00,0x4973,NAK
0.138953083333333,96,DATA,0x17F,0x8,0x00 0x00 0x0C 0x00 0x00 0x03 0x00 0x00,0x46A9,NAK
0.140483541666667,97,DATA,0x19D,0x8,0x00 0x00 0x00 0x00 0x00 0x00 0x00 0x00,0x4D9B,NAK
0.142023958333333,98,DATA,0x1AB,0x8,0xFF 0xFF 0xFF 0xFF 0xFF 0x7E 0x00 0x00,0x678D,NAK
0.143394333333333,99,DATA,0x1AB,0x8,0xFF 0xFF 0xFF 0xFF 0xFF 0x7E 0x00 0x00,0x678D,NAK
0.144764750000000,100,DATA,0x1AB,0x8,0xFF 0xFF 0xFF 0xFF 0xFF 0x7E 0x00 0x00,0x678D,NAK
0.146135125000000,101,DATA,0x1AB,0x8,0xFF 0xFF 0xFF 0xFF 0xFF 0x7E 0x00 0x00,0x678D,NAK
0.147505500000000,102,DATA,0x1AB,0x8,0xFF 0xFF 0xFF 0xFF 0xFF 0x7E 0x00 0x00,0x678D,NAK
0.148875875000000,103,DATA,0x1AB,0x8,0xFF 0xFF 0xFF 0xFF 0xFF 0x7E 0x00 0x00,0x678D,NAK
0.150246291666667,104,DATA,0x1AB,0x8,0xFF 0xFF 0xFF 0xFF 0xFF 0x7E 0x00 0x00,0x678D,NAK
0.151616666666667,105,DATA,0x1AB,0x8,0xFF 0xFF 0xFF 0xFF 0xFF 0x7E 0x00 0x00,0x678D,NAK
0.152987041666667,106,DATA,0x1AB,0x8,0xFF 0xFF 0xFF 0xFF 0xFF 0x7E 0x00 0x00,0x678D,NAK
0.154357416666667,107,DATA,0x1AB,0x8,0xFF 0xFF 0xFF 0xFF 0xFF 0x7E 0x00 0x00,0x678D,NAK
0.155727791666667,108,DATA,0x1AB,0x8,0xFF 0xFF 0xFF 0xFF 0xFF 0x7E 0x00 0x00,0x678D,NAK
0.157098208333333,109,DATA,0x1AB,0x8,0xFF 0xFF 0xFF 0xFF 0xFF 0x7E 0x00 0x00,0x678D,NAK
0.158468583333333,110,DATA,0x1AB,0x8,0xFF 0xFF 0xFF 0xFF 0xFF 0x7E 0x00 0x00,0x678D,NAK
0.159838958333333,111,DATA,0x1AB,0x8,0xFF 0xFF 0xFF 0xFF 0xFF 0x7E 0x00 0x00,0x678D,NAK
0.161209333333333,112,DATA,0x1AB,0x8,0xFF 0xFF 0xFF 0xFF 0xFF 0x7E 0x00 0x00,0x678D,NAK
0.162579750000000,113,DATA,0x1AB,0x8,0xFF 0xFF 0xFF 0xFF 0xFF 0x7E 0x00 0x00,0x678D,NAK
0.163950125000000,114,DATA,0x1AB,0x8,0xFF 0xFF 0xFF 0xFF 0xFF 0x7E 0x00 0x00,0x678D,NAK
0.165320500000000,115,DATA,0x1AB,0x8,0xFF 0xFF 0xFF 0xFF 0xFF 0x7E 0x00 0x00,0x678D,NAK
0.166690875000000,116,DATA,0x1AB,0x8,0xFF 0xFF 0xFF 0xFF 0xFF 0x7E 0x00 0x00,0x678D,NAK
0.168061291666667,117,DATA,0x1AB,0x8,0xFF 0xFF 0xFF 0xFF 0xFF 0x7E 0x00 0x00,0x678D,NAK
0.169431666666667,118,DATA,0x1AB,0x8,0xFF 0xFF 0xFF 0xFF 0xFF 0x7E 0x00 0x00,0x678D,NAK
0.170802041666667,119,DATA,0x1AB,0x8,0xFF 0xFF 0xFF 0xFF 0xFF 0x7E 0x00 0x00,0x678D,NAK
0.172172416666667,120,DATA,0x1AB,0x8,0xFF 0xFF 0xFF 0xFF 0xFF 0x7E 0x00 0x00,0x678D,NAK
0.173542833333333,121,DATA,0x1AB,0x8,0xFF 0xFF 0xFF 0xFF 0xFF 0x7E 0x00 0x00,0x678D,NAK
0.174913208333333,122,DATA,0x1AB,0x8,0xFF 0xFF 0xFF 0xFF 0xFF 0x7E 0x00 0x00,0x678D,NAK
0.176283583333333,123,DATA,0x1AB,0x8,0xFF 0xFF 0xFF 0xFF 0xFF 0x7E 0x00 0x00,0x678D,NAK
0.177653958333333,124,DATA,0x1AB,0x8,0xFF 0xFF 0xFF 0xFF 0xFF 0x7E 0x00 0x00,0x678D,NAK
0.179024375000000,125,DATA,0x1AB,0x8,0xFF 0xFF 0xFF 0xFF 0xFF 0x7E 0x00 0x00,0x678D,NAK
0.180394750000000,126,DATA,0x1AB,0x8,0xFF 0xFF 0xFF 0xFF 0xFF 0x7E 0x00 0x00,0x678D,NAK
0.181765125000000,127,DATA,0x1AB,0x8,0xFF 0xFF 0xFF 0xFF 0xFF 0x7E 0x00 0x00,0x678D,NAK
0.183135500000000,128,DATA,0x1AB,0x8,0xFF 0xFF 0xFF 0xFF 0xFF 0x7E 0x00 0x00,0x678D,NAK
0.184505916666667,129,DATA,0x1AB,0x8,0xFF 0xFF 0xFF 0xFF 0xFF 0x7E 0x00 0x00,0x678D,NAK
0.185876291666667,130,DATA,0x1AB,0x8,0xFF 0xFF 0xFF 0xFF 0xFF 0x7E 0x00 0x00,0x678D,NAK
0.187246666666667,131,DATA,0x1AB,0x8,0xFF 0xFF 0xFF 0xFF 0xFF 0x7E 0x00 0x00,0x678D,NAK
0.188617041666667,132,DATA,0x1AB,0x8,0xFF 0xFF 0xFF 0xFF 0xFF 0x7E 0x00 0x00,0x678D,NAK
0.189987458333333,133,DATA,0x1AB,0x8,0xFF 0xFF 0xFF 0xFF 0xFF 0x7E 0x00 0x00,0x678D,NAK
0.191357833333333,134,DATA,0x1AB,0x8,0xFF 0xFF 0xFF 0xFF 0xFF 0x7E 0x00 0x00,0x678D,NAK
0.192728208333333,135,DATA,0x1AB,0x8,0xFF 0xFF 0xFF 0xFF 0xFF 0x7E 0x00 0x00,0x678D,NAK
0.194098583333333,136,DATA,0x1AB,0x8,0xFF 0xFF 0xFF 0xFF 0xFF 0x7E 0x00 0x00,0x678D,NAK
0.195469000000000,137,DATA,0x1AB,0x8,0xFF 0xFF 0xFF 0xFF 0xFF 0x7E 0x00 0x00,0x678D,NAK
0.196839375000000,138,DATA,0x1AB,0x8,0xFF 0xFF 0xFF 0xFF 0xFF 0x7E 0x00 0x00,0x678D,NAK
0.198209750000000,139,DATA,0x1AB,0x8,0xFF 0xFF 0xFF 0xFF 0xFF 0x7E 0x00 0x00,0x678D,NAK
0.199580125000000,140,DATA,0x1AB,0x8,0xFF 0xFF 0xFF 0xFF 0xFF 0x7E 0x00 0x00,0x678D,NAK
0.200950541666667,141,DATA,0x1AB,0x8,0xFF 0xFF 0xFF 0xFF 0xFF 0x7E 0x00 0x00,0x678D,NAK
0.202320916666667,142,DATA,0x1AB,0x8,0xFF 0xFF 0xFF 0xFF 0xFF 0x7E 0x00 0x00,0x678D,NAK
0.203691291666667,143,DATA,0x1AB,0x8,0xFF 0xFF 0xFF 0xFF 0xFF 0x7E 0x00 0x00,0x678D,NAK
0.205061666666667,144,DATA,0x1AB,0x8,0xFF 0xFF 0xFF 0xFF 0xFF 0x7E 0x00 0x00,0x678D,NAK
0.206432083333333,145,DATA,0x1AB,0x8,0xFF 0xFF 0xFF 0xFF 0xFF 0x7E 0x00 0x00,0x678D,NAK
0.207802458333333,146,DATA,0x1AB,0x8,0xFF 0xFF 0xFF 0xFF 0xFF 0x7E 0x00 0x00,0x678D,NAK
0.209172833333333,147,DATA,0x1AB,0x8,0xFF 0xFF 0xFF 0xFF 0xFF 0x7E 0x00 0x00,0x678D,NAK
0.210543208333333,148,DATA,0x1AB,0x8,0xFF 0xFF 0xFF 0xFF 0xFF 0x7E 0x00 0x00,0x678D,NAK
0.211913583333333,149,DATA,0x1AB,0x8,0xFF 0xFF 0xFF 0xFF 0xFF 0x7E 0x00 0x00,0x678D,NAK
0.213284000000000,150,DATA,0x1AB,0x8,0xFF 0xFF 0xFF 0xFF 0xFF 0x7E 0x00 0x00,0x678D,NAK
0.214654375000000,151,DATA,0x1AB,0x8,0xFF 0xFF 0xFF 0xFF 0xFF 0x7E 0x00 0x00,0x678D,NAK
0.216024750000000,152,DATA,0x1AB,0x8,0xFF 0xFF 0xFF 0xFF 0xFF 0x7E 0x00 0x00,0x678D,NAK
0.217395125000000,153,DATA,0x1AB,0x8,0xFF 0xFF 0xFF 0xFF 0xFF 0x7E 0x00 0x00,0x678D,NAK
0.218765541666667,154,DATA,0x1AB,0x8,0xFF 0xFF 0xFF 0xFF 0xFF 0x7E 0x00 0x00,0x678D,NAK
0.220135916666667,155,DATA,0x1AB,0x8,0xFF 0xFF 0xFF 0xFF 0xFF 0x7E 0x00 0x00,0x678D,NAK
0.221506291666667,156,DATA,0x1AB,0x8,0xFF 0xFF 0xFF 0xFF 0xFF 0x7E 0x00 0x00,0x678D,NAK
0.222876666666667,157,DATA,0x1AB,0x8,0xFF 0xFF 0xFF 0xFF 0xFF 0x7E 0x00 0x00,0x678D,NAK
0.224247083333333,158,DATA,0x1AB,0x8,0xFF 0xFF 0xFF 0xFF 0xFF 0x7E 0x00 0x00,0x678D,NAK
0.225617458333333,159,DATA,0x1AB,0x8,0xFF 0xFF 0xFF 0xFF 0xFF 0x7E 0x00 0x00,0x678D,NAK
0.226987833333333,160,DATA,0x1AB,0x8,0xFF 0xFF 0xFF 0xFF 0xFF 0x7E 0x00 0x00,0x678D,NAK
0.228358208333333,161,DATA,0x1AB,0x8,0xFF 0xFF 0xFF 0xFF 0xFF 0x7E 0x00 0x00,0x678D,NAK
0.229919166666667,162,DATA,0x1AB,0x8,0xFF 0xFF 0xFF 0xFF 0xFF 0x7E 0x00 0x00,0x678D,NAK
0.231449583333333,163,DATA,0x157,0x8,0xCF 0xFF 0x00 0x00 0x00 0x00 0x00 0x00,0x01DE,NAK
0.232980041666667,164,DATA,0x15E,0x8,0x00 0x00 0x00 0x00 0x00 0x00 0x0D 0x0F,0x3D85,NAK
0.234500458333333,165,DATA,0x17A,0x8,0x00 0x00 0x00 0x00 0xC0 0x00 0x00 0x00,0x523C,NAK
0.236040875000000,166,DATA,0x17B,0x8,0x00 0x00 0x20 0x00 0x00 0x00 0x00 0x00,0x6554,NAK
0.237581333333333,167,DATA,0x455,0x8,0x55 0x01 0x00 0x00 0x00 0x00 0xFF 0xFF,0x1857,NAK
0.239091750000000,168,DATA,0x55C,0x8,0x00 0x00 0x00 0x00 0x00 0x30 0xC0 0x00,0x6D05,NAK
0.240632166666667,169,DATA,0x55D,0x8,0x00 0x00 0x00 0x00 0x00 0x00 0xFF 0x00,0x7274,NAK
0.242162625000000,170,DATA,0x55E,0x8,0x00 0x00 0x00 0x3F 0xC0 0xFF 0x00 0x00,0x533C,NAK
0.243683041666667,171,DATA,0x16A,0x8,0x03 0x0C 0xF0 0x00 0x00 0x00 0x3C 0x3C,0x2FC4,NAK
0.245203458333333,172,DATA,0x56A,0x8,0x00 0x00 0x00 0x00 0x00 0x00 0x00 0x00,0x4A4E,NAK
0.246743875000000,173,DATA,0x56B,0x8,0x00 0x00 0x00 0x00 0x00 0x00 0x00 0x00,0x4155,NAK
0.248294333333333,174,DATA,0x56C,0x8,0x00 0x00 0x00 0x00 0x00 0x00 0x00 0x00,0x7014,NAK
0.249854750000000,175,DATA,0x56D,0x8,0x00 0x00 0x00 0x00 0x00 0x00 0x00 0x00,0x7B0F,NAK
0.251395208333333,176,DATA,0x56E,0x8,0xFF 0xFF 0xFF 0xFF 0xFF 0xE0 0x00 0x00,0x7E5D,NAK
0.252935625000000,177,DATA,0x56F,0x8,0x00 0x00 0x00 0x00 0x00 0x00 0x00 0x00,0x6D39,NAK
0.254316000000000,178,DATA,0x56F,0x8,0x00 0x00 0x00 0x00 0x00 0x00 0x00 0x00,0x6D39,NAK
0.255696416666667,179,DATA,0x56F,0x8,0x00 0x00 0x00 0x00 0x00 0x00 0x00 0x00,0x6D39,NAK
0.257076791666667,180,DATA,0x56F,0x8,0x00 0x00 0x00 0x00 0x00 0x00 0x00 0x00,0x6D39,NAK
0.258457166666667,181,DATA,0x56F,0x8,0x00 0x00 0x00 0x00 0x00 0x00 0x00 0x00,0x6D39,NAK
0.259837583333333,182,DATA,0x56F,0x8,0x00 0x00 0x00 0x00 0x00 0x00 0x00 0x00,0x6D39,NAK
0.261217958333333,183,DATA,0x56F,0x8,0x00 0x00 0x00 0x00 0x00 0x00 0x00 0x00,0x6D39,NAK
0.262598333333333,184,DATA,0x56F,0x8,0x00 0x00 0x00 0x00 0x00 0x00 0x00 0x00,0x6D39,NAK
0.263978750000000,185,DATA,0x56F,0x8,0x00 0x00 0x00 0x00 0x00 0x00 0x00 0x00,0x6D39,NAK
0.265359125000000,186,DATA,0x56F,0x8,0x00 0x00 0x00 0x00 0x00 0x00 0x00 0x00,0x6D39,NAK
0.266739500000000,187,DATA,0x56F,0x8,0x00 0x00 0x00 0x00 0x00 0x00 0x00 0x00,0x6D39,NAK
0.268119916666667,188,DATA,0x56F,0x8,0x00 0x00 0x00 0x00 0x00 0x00 0x00 0x00,0x6D39,NAK
0.269500291666667,189,DATA,0x56F,0x8,0x00 0x00 0x00 0x00 0x00 0x00 0x00 0x00,0x6D39,NAK
0.270880666666667,190,DATA,0x56F,0x8,0x00 0x00 0x00 0x00 0x00 0x00 0x00 0x00,0x6D39,NAK
0.272261083333333,191,DATA,0x56F,0x8,0x00 0x00 0x00 0x00 0x00 0x00 0x00 0x00,0x6D39,NAK
0.273641458333333,192,DATA,0x56F,0x8,0x00 0x00 0x00 0x00 0x00 0x00 0x00 0x00,0x6D39,NAK
0.275021833333333,193,DATA,0x56F,0x8,0x00 0x00 0x00 0x00 0x00 0x00 0x00 0x00,0x6D39,NAK
0.276402208333333,194,DATA,0x56F,0x8,0x00 0x00 0x00 0x00 0x00 0x00 0x00 0x00,0x6D39,NAK
0.277782625000000,195,DATA,0x56F,0x8,0x00 0x00 0x00 0x00 0x00 0x00 0x00 0x00,0x6D39,NAK
0.279163000000000,196,DATA,0x56F,0x8,0x00 0x00 0x00 0x00 0x00 0x00 0x00 0x00,0x6D39,NAK
0.280543375000000,197,DATA,0x56F,0x8,0x00 0x00 0x00 0x00 0x00 0x00 0x00 0x00,0x6D39,NAK
0.281923791666667,198,DATA,0x56F,0x8,0x00 0x00 0x00 0x00 0x00 0x00 0x00 0x00,0x6D39,NAK
0.283304166666667,199,DATA,0x56F,0x8,0x00 0x00 0x00 0x00 0x00 0x00 0x00 0x00,0x6D39,NAK
0.284684541666667,200,DATA,0x56F,0x8,0x00 0x00 0x00 0x00 0x00 0x00 0x00 0x00,0x6D39,NAK
0.286064958333333,201,DATA,0x56F,0x8,0x00 0x00 0x00 0x00 0x00 0x00 0x00 0x00,0x6D39,NAK
0.287445333333333,202,DATA,0x56F,0x8,0x00 0x00 0x00 0x00 0x00 0x00 0x00 0x00,0x6D39,NAK
0.288825708333333,203,DATA,0x56F,0x8,0x00 0x00 0x00 0x00 0x00 0x00 0x00 0x00,0x6D39,NAK
0.290206125000000,204,DATA,0x56F,0x8,0x00 0x00 0x00 0x00 0x00 0x00 0x00 0x00,0x6D39,NAK
0.291586500000000,205,DATA,0x56F,0x8,0x00 0x00 0x00 0x00 0x00 0x00 0x00 0x00,0x6D39,NAK
0.292966875000000,206,DATA,0x56F,0x8,0x00 0x00 0x00 0x00 0x00 0x00 0x00 0x00,0x6D39,NAK
0.294347291666667,207,DATA,0x56F,0x8,0x00 0x00 0x00 0x00 0x00 0x00 0x00 0x00,0x6D39,NAK
0.295727666666667,208,DATA,0x56F,0x8,0x00 0x00 0x00 0x00 0x00 0x00 0x00 0x00,0x6D39,NAK
0.297108041666667,209,DATA,0x56F,0x8,0x00 0x00 0x00 0x00 0x00 0x00 0x00 0x00,0x6D39,NAK
0.298488416666667,210,DATA,0x56F,0x8,0x00 0x00 0x00 0x00 0x00 0x00 0x00 0x00,0x6D39,NAK
0.299868833333333,211,DATA,0x56F,0x8,0x00 0x00 0x00 0x00 0x00 0x00 0x00 0x00,0x6D39,NAK
0.301249208333333,212,DATA,0x56F,0x8,0x00 0x00 0x00 0x00 0x00 0x00 0x00 0x00,0x6D39,NAK
0.302629583333333,213,DATA,0x56F,0x8,0x00 0x00 0x00 0x00 0x00 0x00 0x00 0x00,0x6D39,NAK
0.304010000000000,214,DATA,0x56F,0x8,0x00 0x00 0x00 0x00 0x00 0x00 0x00 0x00,0x6D39,NAK
0.305390375000000,215,DATA,0x56F,0x8,0x00 0x00 0x00 0x00 0x00 0x00 0x00 0x00,0x6D39,NAK
0.306770750000000,216,DATA,0x56F,0x8,0x00 0x00 0x00 0x00 0x00 0x00 0x00 0x00,0x6D39,NAK
0.308151166666667,217,DATA,0x56F,0x8,0x00 0x00 0x00 0x00 0x00 0x00 0x00 0x00,0x6D39,NAK
0.309531541666667,218,DATA,0x56F,0x8,0x00 0x00 0x00 0x00 0x00 0x00 0x00 0x00,0x6D39,NAK
0.310911916666667,219,DATA,0x56F,0x8,0x00 0x00 0x00 0x00 0x00 0x00 0x00 0x00,0x6D39,NAK
0.312292333333333,220,DATA,0x56F,0x8,0x00 0x00 0x00 0x00 0x00 0x00 0x00 0x00,0x6D39,NAK
0.313672708333333,221,DATA,0x56F,0x8,0x00 0x00 0x00 0x00 0x00 0x00 0x00 0x00,0x6D39,NAK
0.315053083333333,222,DATA,0x56F,0x8,0x00 0x00 0x00 0x00 0x00 0x00 0x00 0x00,0x6D39,NAK
0.316433458333333,223,DATA,0x56F,0x8,0x00 0x00 0x00 0x00 0x00 0x00 0x00 0x00,0x6D39,NAK
0.317813875000000,224,DATA,0x56F,0x8,0x00 0x00 0x00 0x00 0x00 0x00 0x00 0x00,0x6D39,NAK
0.319194250000000,225,DATA,0x56F,0x8,0x00 0x00 0x00 0x00 0x00 0x00 0x00 0x00,0x6D39,NAK
0.320574625000000,226,DATA,0x56F,0x8,0x00 0x00 0x00 0x00 0x00 0x00 0x00 0x00,0x6D39,NAK
0.321955041666667,227,DATA,0x56F,0x8,0x00 0x00 0x00 0x00 0x00 0x00 0x00 0x00,0x6D39,NAK
0.323335416666667,228,DATA,0x56F,0x8,0x00 0x00 0x00 0x00 0x00 0x00 0x00 0x00,0x6D39,NAK
0.324715791666667,229,DATA,0x56F,0x8,0x00 0x00 0x00 0x00 0x00 0x00 0x00 0x00,0x6D39,NAK
0.326096208333333,230,DATA,0x56F,0x8,0x00 0x00 0x00 0x00 0x00 0x00 0x00 0x00,0x6D39,NAK
0.327476583333333,231,DATA,0x56F,0x8,0x00 0x00 0x00 0x00 0x00 0x00 0x00 0x00,0x6D39,NAK
0.328856958333333,232,DATA,0x56F,0x8,0x00 0x00 0x00 0x00 0x00 0x00 0x00 0x00,0x6D39,NAK
0.330237375000000,233,DATA,0x56F,0x8,0x00 0x00 0x00 0x00 0x00 0x00 0x00 0x00,0x6D39,NAK
0.331617750000000,234,DATA,0x56F,0x8,0x00 0x00 0x00 0x00 0x00 0x00 0x00 0x00,0x6D39,NAK
0.332998125000000,235,DATA,0x56F,0x8,0x00 0x00 0x00 0x00 0x00 0x00 0x00 0x00,0x6D39,NAK
0.334378500000000,236,DATA,0x56F,0x8,0x00 0x00 0x00 0x00 0x00 0x00 0x00 0x00,0x6D39,NAK
0.335758916666667,237,DATA,0x56F,0x8,0x00 0x00 0x00 0x00 0x00 0x00 0x00 0x00,0x6D39,NAK
0.337139291666667,238,DATA,0x56F,0x8,0x00 0x00 0x00 0x00 0x00 0x00 0x00 0x00,0x6D39,NAK
0.338519666666667,239,DATA,0x56F,0x8,0x00 0x00 0x00 0x00 0x00 0x00 0x00 0x00,0x6D39,NAK
0.339900083333333,240,DATA,0x56F,0x8,0x00 0x00 0x00 0x00 0x00 0x00 0x00 0x00,0x6D39,NAK
0.341471000000000,241,DATA,0x56F,0x8,0x00 0x00 0x00 0x00 0x00 0x00 0x00 0x00,0x6D39,NAK
0.343011458333333,242,DATA,0x126,0x8,0x0F 0x00 0x00 0x00 0x00 0x00 0xFF 0xFF,0x7941,NAK
0.344561875000000,243,DATA,0x12A,0x8,0x00 0x00 0x00 0x00 0x00 0x00 0x00 0x00,0x578D,NAK
0.346102333333333,244,DATA,0x12B,0x8,0x00 0x00 0x00 0x00 0x00 0x00 0x00 0x00,0x5C96,NAK
0.347642750000000,245,DATA,0x133,0x8,0x03 0xFF 0x00 0x00 0x00 0x00 0x00 0xFF,0x1073,NAK
0.349183166666667,246,DATA,0x135,0x8,0x00 0x00 0x00 0x00 0xFF 0xFF 0xFF 0x00,0x17F0,NAK
0.350743625000000,247,DATA,0x158,0x8,0x00 0x00 0x00 0x00 0x00 0x00 0x00 0x00,0x43CF,NAK
0.352294041666667,248,DATA,0x15D,0x8,0x00 0x00 0x00 0x00 0x00 0x00 0x00 0xF0,0x43D7,NAK
0.353814500000000,249,DATA,0x161,0x8,0x03 0x00 0x00 0x00 0x00 0x00 0x00 0x00,0x7527,NAK
0.355344916666667,250,DATA,0x164,0x8,0x00 0x00 0x00 0x00 0x00 0x00 0x00 0x00,0x6E99,NAK
0.356895333333333,251,DATA,0x166,0x8,0x00 0x00 0x00 0x00 0x00 0x00 0x00 0x00,0x78AF,NAK
0.358435791666667,252,DATA,0x169,0x8,0x0F 0x00 0x00 0x00 0x00 0x00 0x03 0xE8,0x6C4E,NAK
0.359956208333333,253,DATA,0x17D,0x8,0x00 0x00 0x00 0x00 0x00 0x00 0x00 0x00,0x4973,NAK
0.361506666666667,254,DATA,0x17F,0x8,0x00 0x00 0x0C 0x00 0x00 0x03 0x00 0x00,0x46A9,NAK
0.363037083333333,255,DATA,0x19D,0x8,0x00 0x00 0x00 0x00 0x00 0x00 0x00 0x00,0x4D9B,NAK
0.364577500000000,256,DATA,0x19F,0x8,0x00 0xFF 0x00 0x00 0x00 0x00 0x00 0x00,0x07E5,NAK
0.365977916666667,257,DATA,0x19F,0x8,0x00 0xFF 0x00 0x00 0x00 0x00 0x00 0x00,0x07E5,NAK
0.367378291666667,258,DATA,0x19F,0x8,0x00 0xFF 0x00 0x00 0x00 0x00 0x00 0x00,0x07E5,NAK
0.368778708333333,259,DATA,0x19F,0x8,0x00 0xFF 0x00 0x00 0x00 0x00 0x00 0x00,0x07E5,NAK
0.370179083333333,260,DATA,0x19F,0x8,0x00 0xFF 0x00 0x00 0x00 0x00 0x00 0x00,0x07E5,NAK
0.371579458333333,261,DATA,0x19F,0x8,0x00 0xFF 0x00 0x00 0x00 0x00 0x00 0x00,0x07E5,NAK
0.372979875000000,262,DATA,0x19F,0x8,0x00 0xFF 0x00 0x00 0x00 0x00 0x00 0x00,0x07E5,NAK
0.374380250000000,263,DATA,0x19F,0x8,0x00 0xFF 0x00 0x00 0x00 0x00 0x00 0x00,0x07E5,NAK
0.375780666666667,264,DATA,0x19F,0x8,0x00 0xFF 0x00 0x00 0x00 0x00 0x00 0x00,0x07E5,NAK
0.377181041666667,265,DATA,0x19F,0x8,0x00 0xFF 0x00 0x00 0x00 0x00 0x00 0x00,0x07E5,NAK
0.378581458333333,266,DATA,0x19F,0x8,0x00 0xFF 0x00 0x00 0x00 0x00 0x00 0x00,0x07E5,NAK
0.379981833333333,267,DATA,0x19F,0x8,0x00 0xFF 0x00 0x00 0x00 0x00 0x00 0x00,0x07E5,NAK
0.381382250000000,268,DATA,0x19F,0x8,0x00 0xFF 0x00 0x00 0x00 0x00 0x00 0x00,0x07E5,NAK
0.382782625000000,269,DATA,0x19F,0x8,0x00 0xFF 0x00 0x00 0x00 0x00 0x00 0x00,0x07E5,NAK
0.384183000000000,270,DATA,0x19F,0x8,0x00 0xFF 0x00 0x00 0x00 0x00 0x00 0x00,0x07E5,NAK
0.385583416666667,271,DATA,0x19F,0x8,0x00 0xFF 0x00 0x00 0x00 0x00 0x00 0x00,0x07E5,NAK
0.386983791666667,272,DATA,0x19F,0x8,0x00 0xFF 0x00 0x00 0x00 0x00 0x00 0x00,0x07E5,NAK
0.388384208333333,273,DATA,0x19F,0x8,0x00 0xFF 0x00 0x00 0x00 0x00 0x00 0x00,0x07E5,NAK
0.389784583333333,274,DATA,0x19F,0x8,0x00 0xFF 0x00 0x00 0x00 0x00 0x00 0x00,0x07E5,NAK
0.391185000000000,275,DATA,0x19F,0x8,0x00 0xFF 0x00 0x00 0x00 0x00 0x00 0x00,0x07E5,NAK
0.392585375000000,276,DATA,0x19F,0x8,0x00 0xFF 0x00 0x00 0x00 0x00 0x00 0x00,0x07E5,NAK
0.393985791666667,277,DATA,0x19F,0x8,0x00 0xFF 0x00 0x00 0x00 0x00 0x00 0x00,0x07E5,NAK
0.395386166666667,278,DATA,0x19F,0x8,0x00 0xFF 0x00 0x00 0x00 0x00 0x00 0x00,0x07E5,NAK
0.396786541666667,279,DATA,0x19F,0x8,0x00 0xFF 0x00 0x00 0x00 0x00 0x00 0x00,0x07E5,NAK
0.398186958333333,280,DATA,0x19F,0x8,0x00 0xFF 0x00 0x00 0x00 0x00 0x00 0x00,0x07E5,NAK
0.399587333333333,281,DATA,0x19F,0x8,0x00 0xFF 0x00 0x00 0x00 0x00 0x00 0x00,0x07E5,NAK
0.400987750000000,282,DATA,0x19F,0x8,0x00 0xFF 0x00 0x00 0x00 0x00 0x00 0x00,0x07E5,NAK
0.402388125000000,283,DATA,0x19F,0x8,0x00 0xFF 0x00 0x00 0x00 0x00 0x00 0x00,0x07E5,NAK
0.403788541666667,284,DATA,0x19F,0x8,0x00 0xFF 0x00 0x00 0x00 0x00 0x00 0x00,0x07E5,NAK
0.405188916666667,285,DATA,0x19F,0x8,0x00 0xFF 0x00 0x00 0x00 0x00 0x00 0x00,0x07E5,NAK
0.406589333333333,286,DATA,0x19F,0x8,0x00 0xFF 0x00 0x00 0x00 0x00 0x00 0x00,0x07E5,NAK
0.407989708333333,287,DATA,0x19F,0x8,0x00 0xFF 0x00 0x00 0x00 0x00 0x00 0x00,0x07E5,NAK
0.409390083333333,288,DATA,0x19F,0x8,0x00 0xFF 0x00 0x00 0x00 0x00 0x00 0x00,0x07E5,NAK
0.410790500000000,289,DATA,0x19F,0x8,0x00 0xFF 0x00 0x00 0x00 0x00 0x00 0x00,0x07E5,NAK
0.412190875000000,290,DATA,0x19F,0x8,0x00 0xFF 0x00 0x00 0x00 0x00 0x00 0x00,0x07E5,NAK
0.413591291666667,291,DATA,0x19F,0x8,0x00 0xFF 0x00 0x00 0x00 0x00 0x00 0x00,0x07E5,NAK
0.414991666666667,292,DATA,0x19F,0x8,0x00 0xFF 0x00 0x00 0x00 0x00 0x00 0x00,0x07E5,NAK
0.416392083333333,293,DATA,0x19F,0x8,0x00 0xFF 0x00 0x00 0x00 0x00 0x00 0x00,0x07E5,NAK
0.417792458333333,294,DATA,0x19F,0x8,0x00 0xFF 0x00 0x00 0x00 0x00 0x00 0x00,0x07E5,NAK
0.419192875000000,295,DATA,0x19F,0x8,0x00 0xFF 0x00 0x00 0x00 0x00 0x00 0x00,0x07E5,NAK
0.420593250000000,296,DATA,0x19F,0x8,0x00 0xFF 0x00 0x00 0x00 0x00 0x00 0x00,0x07E5,NAK
0.421993625000000,297,DATA,0x19F,0x8,0x00 0xFF 0x00 0x00 0x00 0x00 0x00 0x00,0x07E5,NAK
0.423394041666667,298,DATA,0x19F,0x8,0x00 0xFF 0x00 0x00 0x00 0x00 0x00 0x00,0x07E5,NAK
0.424794416666667,299,DATA,0x19F,0x8,0x00 0xFF 0x00 0x00 0x00 0x00 0x00 0x00,0x07E5,NAK
0.426194833333333,300,DATA,0x19F,0x8,0x00 0xFF 0x00 0x00 0x00 0x00 0x00 0x00,0x07E5,NAK
0.427595208333333,301,DATA,0x19F,0x8,0x00 0xFF 0x00 0x00 0x00 0x00 0x00 0x00,0x07E5,NAK
0.428995625000000,302,DATA,0x19F,0x8,0x00 0xFF 0x00 0x00 0x00 0x00 0x00 0x00,0x07E5,NAK
0.430396000000000,303,DATA,0x19F,0x8,0x00 0xFF 0x00 0x00 0x00 0x00 0x00 0x00,0x07E5,NAK
0.431796416666667,304,DATA,0x19F,0x8,0x00 0xFF 0x00 0x00 0x00 0x00 0x00 0x00,0x07E5,NAK
0.433196791666667,305,DATA,0x19F,0x8,0x00 0xFF 0x00 0x00 0x00 0x00 0x00 0x00,0x07E5,NAK
0.434597166666667,306,DATA,0x19F,0x8,0x00 0xFF 0x00 0x00 0x00 0x00 0x00 0x00,0x07E5,NAK
0.435997583333333,307,DATA,0x19F,0x8,0x00 0xFF 0x00 0x00 0x00 0x00 0x00 0x00,0x07E5,NAK
0.437397958333333,308,DATA,0x19F,0x8,0x00 0xFF 0x00 0x00 0x00 0x00 0x00 0x00,0x07E5,NAK
0.438798375000000,309,DATA,0x19F,0x8,0x00 0xFF 0x00 0x00 0x00 0x00 0x00 0x00,0x07E5,NAK
0.440198750000000,310,DATA,0x19F,0x8,0x00 0xFF 0x00 0x00 0x00 0x00 0x00 0x00,0x07E5,NAK
0.441599166666667,311,DATA,0x19F,0x8,0x00 0xFF 0x00 0x00 0x00 0x00 0x00 0x00,0x07E5,NAK
0.442999541666667,312,DATA,0x19F,0x8,0x00 0xFF 0x00 0x00 0x00 0x00 0x00 0x00,0x07E5,NAK
0.444399958333333,313,DATA,0x19F,0x8,0x00 0xFF 0x00 0x00 0x00 0x00 0x00 0x00,0x07E5,NAK
0.445800333333333,314,DATA,0x19F,0x8,0x00 0xFF 0x00 0x00 0x00 0x00 0x00 0x00,0x07E5,NAK
0.447200750000000,315,DATA,0x19F,0x8,0x00 0xFF 0x00 0x00 0x00 0x00 0x00 0x00,0x07E5,NAK
0.448601125000000,316,DATA,0x19F,0x8,0x00 0xFF 0x00 0x00 0x00 0x00 0x00 0x00,0x07E5,NAK
0.450001500000000,317,DATA,0x19F,0x8,0x00 0xFF 0x00 0x00 0x00 0x00 0x00 0x00,0x07E5,NAK
0.451401916666667,318,DATA,0x19F,0x8,0x00 0xFF 0x00 0x00 0x00 0x00 0x00 0x00,0x07E5,NAK
0.452802291666667,319,DATA,0x19F,0x8,0x00 0xFF 0x00 0x00 0x00 0x00 0x00 0x00,0x07E5,NAK
0.454393250000000,320,DATA,0x19F,0x8,0x00 0xFF 0x00 0x00 0x00 0x00 0x00 0x00,0x07E5,NAK
0.455953708333333,321,DATA,0x157,0x8,0xCF 0xFF 0x00 0x00 0x00 0x00 0x00 0x00,0x01DE,NAK
0.457484125000000,322,DATA,0x15D,0x8,0x00 0x00 0x00 0x00 0x00 0x00 0x00 0xF0,0x43D7,NAK
0.459004541666667,323,DATA,0x15E,0x8,0x00 0x00 0x00 0x00 0x00 0x00 0x0D 0x0F,0x3D85,NAK
0.460524958333333,324,DATA,0x16A,0x8,0x03 0x0C 0xF0 0x00 0x00 0x00 0x3C 0x3C,0x2FC4,NAK
0.462045416666667,325,DATA,0x17A,0x8,0x00 0x00 0x00 0x00 0xC0 0x00 0x00 0x00,0x523C,NAK
0.463585833333333,326,DATA,0x135,0x8,0x00 0x00 0x00 0x00 0xFF 0xFF 0xFF 0x00,0x17F0,NAK
0.465146291666667,327,DATA,0x169,0x8,0x0F 0x00 0x00 0x00 0x00 0x00 0x03 0xE8,0x6C4E,NAK
0.466666708333333,328,DATA,0x17B,0x8,0x00 0x00 0x20 0x00 0x00 0x00 0x00 0x00,0x6554,NAK
0.468207125000000,329,DATA,0x17F,0x8,0x00 0x00 0x0C 0x00 0x00 0x03 0x00 0x00,0x46A9,NAK
0.469737583333333,330,DATA,0x1AB,0x8,0xFF 0xFF 0xFF 0xFF 0xFF 0x7E 0x00 0x00,0x678D,NAK
0.471268000000000,331,DATA,0x531,0x8,0xFF 0x00 0xFF 0x00 0x00 0x00 0x00 0x00,0x2C15,NAK
0.472798416666667,332,DATA,0x55C,0x8,0x00 0x00 0x00 0x00 0x00 0x30 0xC0 0x00,0x6D05,NAK
0.474338875000000,333,DATA,0x12A,0x8,0x00 0x00 0x00 0x00 0x00 0x00 0x00 0x00,0x578D,NAK
0.475879291666667,334,DATA,0x158,0x8,0x00 0x00 0x00 0x00 0x00 0x00 0x00 0x00,0x43CF,NAK
0.477429708333333,335,DATA,0x161,0x8,0x03 0x00 0x00 0x00 0x00 0x00 0x00 0x00,0x7527,NAK
0.478800125000000,336,DATA,0x161,0x8,0x03 0x00 0x00 0x00 0x00 0x00 0x00 0x00,0x7527,NAK
0.480170500000000,337,DATA,0x161,0x8,0x03 0x00 0x00 0x00 0x00 0x00 0x00 0x00,0x7527,NAK
0.481540875000000,338,DATA,0x161,0x8,0x03 0x00 0x00 0x00 0x00 0x00 0x00 0x00,0x7527,NAK
0.482911250000000,339,DATA,0x161,0x8,0x03 0x00 0x00 0x00 0x00 0x00 0x00 0x00,0x7527,NAK
0.484281666666667,340,DATA,0x161,0x8,0x03 0x00 0x00 0x00 0x00 0x00 0x00 0x00,0x7527,NAK
0.485652041666667,341,DATA,0x161,0x8,0x03 0x00 0x00 0x00 0x00 0x00 0x00 0x00,0x7527,NAK
0.487022416666667,342,DATA,0x161,0x8,0x03 0x00 0x00 0x00 0x00 0x00 0x00 0x00,0x7527,NAK
0.488392791666667,343,DATA,0x161,0x8,0x03 0x00 0x00 0x00 0x00 0x00 0x00 0x00,0x7527,NAK
0.489763208333333,344,DATA,0x161,0x8,0x03 0x00 0x00 0x00 0x00 0x00 0x00 0x00,0x7527,NAK
0.491133583333333,345,DATA,0x161,0x8,0x03 0x00 0x00 0x00 0x00 0x00 0x00 0x00,0x7527,NAK
0.492503958333333,346,DATA,0x161,0x8,0x03 0x00 0x00 0x00 0x00 0x00 0x00 0x00,0x7527,NAK
0.493874333333333,347,DATA,0x161,0x8,0x03 0x00 0x00 0x00 0x00 0x00 0x00 0x00,0x7527,NAK
0.495244750000000,348,DATA,0x161,0x8,0x03 0x00 0x00 0x00 0x00 0x00 0x00 0x00,0x7527,NAK
0.496615125000000,349,DATA,0x161,0x8,0x03 0x00 0x00 0x00 0x00 0x00 0x00 0x00,0x7527,NAK
0.497985500000000,350,DATA,0x161,0x8,0x03 0x00 0x00 0x00 0x00 0x00 0x00 0x00,0x7527,NAK
0.499355875000000,351,DATA,0x161,0x8,0x03 0x00 0x00 0x00 0x00 0x00 0x00 0x00,0x7527,NAK
0.500726291666667,352,DATA,0x161,0x8,0x03 0x00 0x00 0x00 0x00 0x00 0x00 0x00,0x7527,NAK
0.502096666666667,353,DATA,0x161,0x8,0x03 0x00 0x00 0x00 0x00 0x00 0x00 0x00,0x7527,NAK
0.503467041666667,354,DATA,0x161,0x8,0x03 0x00 0x00 0x00 0x00 0x00 0x00 0x00,0x7527,NAK
0.504837416666667,355,DATA,0x161,0x8,0x03 0x00 0x00 0x00 0x00 0x00 0x00 0x00,0x7527,NAK
0.506207833333333,356,DATA,0x161,0x8,0x03 0x00 0x00 0x00 0x00 0x00 0x00 0x00,0x7527,NAK
0.507578208333333,357,DATA,0x161,0x8,0x03 0x00 0x00 0x00 0x00 0x00 0x00 0x00,0x7527,NAK
0.508948583333333,358,DATA,0x161,0x8,0x03 0x00 0x00 0x00 0x00 0x00 0x00 0x00,0x7527,NAK
0.510318958333333,359,DATA,0x161,0x8,0x03 0x00 0x00 0x00 0x00 0x00 0x00 0x00,0x7527,NAK
0.511689375000000,360,DATA,0x161,0x8,0x03 0x00 0x00 0x00 0x00 0x00 0x00 0x00,0x7527,NAK
0.513059750000000,361,DATA,0x161,0x8,0x03 0x00 0x00 0x00 0x00 0x00 0x00 0x00,0x7527,NAK
0.514430125000000,362,DATA,0x161,0x8,0x03 0x00 0x00 0x00 0x00 0x00 0x00 0x00,0x7527,NAK
0.515800500000000,363,DATA,0x161,0x8,0x03 0x00 0x00 0x00 0x00 0x00 0x00 0x00,0x7527,NAK
0.517170875000000,364,DATA,0x161,0x8,0x03 0x00 0x00 0x00 0x00 0x00 0x00 0x00,0x7527,NAK
0.518541291666667,365,DATA,0x161,0x8,0x03 0x00 0x00 0x00 0x00 0x00 0x00 0x00,0x7527,NAK
0.519911666666667,366,DATA,0x161,0x8,0x03 0x00 0x00 0x00 0x00 0x00 0x00 0x00,0x7527,NAK
0.521282041666667,367,DATA,0x161,0x8,0x03 0x00 0x00 0x00 0x00 0x00 0x00 0x00,0x7527,NAK
0.522652416666667,368,DATA,0x161,0x8,0x03 0x00 0x00 0x00 0x00 0x00 0x00 0x00,0x7527,NAK
0.524022833333333,369,DATA,0x161,0x8,0x03 0x00 0x00 0x00 0x00 0x00 0x00 0x00,0x7527,NAK
0.525393208333333,370,DATA,0x161,0x8,0x03 0x00 0x00 0x00 0x00 0x00 0x00 0x00,0x7527,NAK
0.526763583333333,371,DATA,0x161,0x8,0x03 0x00 0x00 0x00 0x00 0x00 0x00 0x00,0x7527,NAK
0.528133958333333,372,DATA,0x161,0x8,0x03 0x00 0x00 0x00 0x00 0x00 0x00 0x00,0x7527,NAK
0.529504375000000,373,DATA,0x161,0x8,0x03 0x00 0x00 0x00 0x00 0x00 0x00 0x00,0x7527,NAK
0.530874750000000,374,DATA,0x161,0x8,0x03 0x00 0x00 0x00 0x00 0x00 0x00 0x00,0x7527,NAK
0.532245125000000,375,DATA,0x161,0x8,0x03 0x00 0x00 0x00 0x00 0x00 0x00 0x00,0x7527,NAK
0.533615500000000,376,DATA,0x161,0x8,0x03 0x00 0x00 0x00 0x00 0x00 0x00 0x00,0x7527,NAK
0.534985916666667,377,DATA,0x161,0x8,0x03 0x00 0x00 0x00 0x00 0x00 0x00 0x00,0x7527,NAK
0.536356291666667,378,DATA,0x161,0x8,0x03 0x00 0x00 0x00 0x00 0x00 0x00 0x00,0x7527,NAK
0.537726666666667,379,DATA,0x161,0x8,0x03 0x00 0x00 0x00 0x00 0x00 0x00 0x00,0x7527,NAK
0.539097041666667,380,DATA,0x161,0x8,0x03 0x00 0x00 0x00 0x00 0x00 0x00 0x00,0x7527,NAK
0.540467458333333,381,DATA,0x161,0x8,0x03 0x00 0x00 0x00 0x00 0x00 0x00 0x00,0x7527,NAK
0.541837833333333,382,DATA,0x161,0x8,0x03 0x00 0x00 0x00 0x00 0x00 0x00 0x00,0x7527,NAK
0.543208208333333,383,DATA,0x161,0x8,0x03 0x00 0x00 0x00 0x00 0x00 0x00 0x00,0x7527,NAK
0.544578583333333,384,DATA,0x161,0x8,0x03 0x00 0x00 0x00 0x00 0x00 0x00 0x00,0x7527,NAK
0.545949000000000,385,DATA,0x161,0x8,0x03 0x00 0x00 0x00 0x00 0x00 0x00 0x00,0x7527,NAK
0.547319375000000,386,DATA,0x161,0x8,0x03 0x00 0x00 0x00 0x00 0x00 0x00 0x00,0x7527,NAK
0.548689750000000,387,DATA,0x161,0x8,0x03 0x00 0x00 0x00 0x00 0x00 0x00 0x00,0x7527,NAK
0.550060125000000,388,DATA,0x161,0x8,0x03 0x00 0x00 0x00 0x00 0x00 0x00 0x00,0x7527,NAK
0.551430541666667,389,DATA,0x161,0x8,0x03 0x00 0x00 0x00 0x00 0x00 0x00 0x00,0x7527,NAK
0.552800916666667,390,DATA,0x161,0x8,0x03 0x00 0x00 0x00 0x00 0x00 0x00 0x00,0x7527,NAK
0.554171291666667,391,DATA,0x161,0x8,0x03 0x00 0x00 0x00 0x00 0x00 0x00 0x00,0x7527,NAK
0.555541666666667,392,DATA,0x161,0x8,0x03 0x00 0x00 0x00 0x00 0x00 0x00 0x00,0x7527,NAK
0.556912083333333,393,DATA,0x161,0x8,0x03 0x00 0x00 0x00 0x00 0x00 0x00 0x00,0x7527,NAK
0.558282458333333,394,DATA,0x161,0x8,0x03 0x00 0x00 0x00 0x00 0x00 0x00 0x00,0x7527,NAK
0.559652833333333,395,DATA,0x161,0x8,0x03 0x00 0x00 0x00 0x00 0x00 0x00 0x00,0x7527,NAK
0.561023208333333,396,DATA,0x161,0x8,0x03 0x00 0x00 0x00 0x00 0x00 0x00 0x00,0x7527,NAK
0.562393583333333,397,DATA,0x161,0x8,0x03 0x00 0x00 0x00 0x00 0x00 0x00 0x00,0x7527,NAK
0.563764000000000,398,DATA,0x161,0x8,0x03 0x00 0x00 0x00 0x00 0x00 0x00 0x00,0x7527,NAK
0.565304916666667,399,DATA,0x161,0x8,0x03 0x00 0x00 0x00 0x00 0x00 0x00 0x00,0x7527,NAK
0.566835333333333,400,DATA,0x12B,0x8,0x00 0x00 0x00 0x00 0x00 0x00 0x00 0x00,0x5C96,NAK
0.568375791666667,401,DATA,0x133,0x8,0x03 0xFF 0x00 0x00 0x00 0x00 0x00 0xFF,0x1073,NAK
0.569916208333333,402,DATA,0x164,0x8,0x00 0x00 0x00 0x00 0x00 0x00 0x00 0x00,0x6E99,NAK
0.571466666666667,403,DATA,0x166,0x8,0x00 0x00 0x00 0x00 0x00 0x00 0x00 0x00,0x78AF,NAK
0.573007083333333,404,DATA,0x17D,0x8,0x00 0x00 0x00 0x00 0x00 0x00 0x00 0x00,0x4973,NAK
0.574557541666667,405,DATA,0x19D,0x8,0x00 0x00 0x00 0x00 0x00 0x00 0x00 0x00,0x4D9B,NAK
0.576097958333333,406,DATA,0x1AB,0x8,0xFF 0xFF 0xFF 0xFF 0xFF 0x7E 0x00 0x00,0x678D,NAK
0.577628375000000,407,DATA,0x1BB,0x8,0xFF 0xFF 0xFF 0xFF 0x00 0x00 0x00 0x00,0x6198,NAK
0.579158833333333,408,DATA,0x1BC,0x8,0xFF 0xFF 0xFF 0xFF 0xFF 0x00 0x00 0x00,0x7829,NAK
0.580729250000000,409,DATA,0x55C,0x8,0x00 0x00 0x00 0x00 0x00 0x30 0xC0 0x00,0x6D05,NAK
0.582269708333333,410,DATA,0x55D,0x8,0x00 0x00 0x00 0x00 0x00 0x00 0xFF 0x00,0x7274,NAK
0.583800125000000,411,DATA,0x1BA,0x8,0x00 0x00 0x00 0x00 0x00 0x00 0x00 0x00,0x5111,NAK
0.585340541666667,412,DATA,0x55E,0x8,0x00 0x00 0x00 0x3F 0xC0 0xFF 0x00 0x00,0x533C,NAK
0.586860958333333,413,DATA,0x56A,0x8,0x00 0x00 0x00 0x00 0x00 0x00 0x00 0x00,0x4A4E,NAK
0.588401416666667,414,DATA,0x56B,0x8,0x00 0x00 0x00 0x00 0x00 0x00 0x00 0x00,0x4155,NAK
0.589791791666667,415,DATA,0x56B,0x8,0x00 0x00 0x00 0x00 0x00 0x00 0x00 0x00,0x4155,NAK
0.591182208333333,416,DATA,0x56B,0x8,0x00 0x00 0x00 0x00 0x00 0x00 0x00 0x00,0x4155,NAK
0.592572583333333,417,DATA,0x56B,0x8,0x00 0x00 0x00 0x00 0x00 0x00 0x00 0x00,0x4155,NAK
0.593962958333333,418,DATA,0x56B,0x8,0x00 0x00 0x00 0x00 0x00 0x00 0x00 0x00,0x4155,NAK
0.595353375000000,419,DATA,0x56B,0x8,0x00 0x00 0x00 0x00 0x00 0x00 0x00 0x00,0x4155,NAK
0.596743750000000,420,DATA,0x56B,0x8,0x00 0x00 0x00 0x00 0x00 0x00 0x00 0x00,0x4155,NAK
0.598134166666667,421,DATA,0x56B,0x8,0x00 0x00 0x00 0x00 0x00 0x00 0x00 0x00,0x4155,NAK
0.599524541666667,422,DATA,0x56B,0x8,0x00 0x00 0x00 0x00 0x00 0x00 0x00 0x00,0x4155,NAK
0.600914916666667,423,DATA,0x56B,0x8,0x00 0x00 0x00 0x00 0x00 0x00 0x00 0x00,0x4155,NAK
0.602305333333333,424,DATA,0x56B,0x8,0x00 0x00 0x00 0x00 0x00 0x00 0x00 0x00,0x4155,NAK
0.603695708333333,425,DATA,0x56B,0x8,0x00 0x00 0x00 0x00 0x00 0x00 0x00 0x00,0x4155,NAK
0.605086083333333,426,DATA,0x56B,0x8,0x00 0x00 0x00 0x00 0x00 0x00 0x00 0x00,0x4155,NAK
0.606476500000000,427,DATA,0x56B,0x8,0x00 0x00 0x00 0x00 0x00 0x00 0x00 0x00,0x4155,NAK
0.607866875000000,428,DATA,0x56B,0x8,0x00 0x00 0x00 0x00 0x00 0x00 0x00 0x00,0x4155,NAK
0.609257291666667,429,DATA,0x56B,0x8,0x00 0x00 0x00 0x00 0x00 0x00 0x00 0x00,0x4155,NAK
0.610647666666667,430,DATA,0x56B,0x8,0x00 0x00 0x00 0x00 0x00 0x00 0x00 0x00,0x4155,NAK
0.612038041666667,431,DATA,0x56B,0x8,0x00 0x00 0x00 0x00 0x00 0x00 0x00 0x00,0x4155,NAK
0.613428458333333,432,DATA,0x56B,0x8,0x00 0x00 0x00 0x00 0x00 0x00 0x00 0x00,0x4155,NAK
0.614818833333333,433,DATA,0x56B,0x8,0x00 0x00 0x00 0x00 0x00 0x00 0x00 0x00,0x4155,NAK
0.616209208333333,434,DATA,0x56B,0x8,0x00 0x00 0x00 0x00 0x00 0x00 0x00 0x00,0x4155,NAK
0.617599625000000,435,DATA,0x56B,0x8,0x00 0x00 0x00 0x00 0x00 0x00 0x00 0x00,0x4155,NAK
0.618990000000000,436,DATA,0x56B,0x8,0x00 0x00 0x00 0x00 0x00 0x00 0x00 0x00,0x4155,NAK
0.620380416666667,437,DATA,0x56B,0x8,0x00 0x00 0x00 0x00 0x00 0x00 0x00 0x00,0x4155,NAK
0.621770791666667,438,DATA,0x56B,0x8,0x00 0x00 0x00 0x00 0x00 0x00 0x00 0x00,0x4155,NAK
0.623161166666667,439,DATA,0x56B,0x8,0x00 0x00 0x00 0x00 0x00 0x00 0x00 0x00,0x4155,NAK
0.624551583333333,440,DATA,0x56B,0x8,0x00 0x00 0x00 0x00 0x00 0x00 0x00 0x00,0x4155,NAK
0.625941958333333,441,DATA,0x56B,0x8,0x00 0x00 0x00 0x00 0x00 0x00 0x00 0x00,0x4155,NAK
0.627332333333333,442,DATA,0x56B,0x8,0x00 0x00 0x00 0x00 0x00 0x00 0x00 0x00,0x4155,NAK
0.628722750000000,443,DATA,0x56B,0x8,0x00 0x00 0x00 0x00 0x00 0x00 0x00 0x00,0x4155,NAK
0.630113125000000,444,DATA,0x56B,0x8,0x00 0x00 0x00 0x00 0x00 0x00 0x00 0x00,0x4155,NAK
0.631503541666667,445,DATA,0x56B,0x8,0x00 0x00 0x00 0x00 0x00 0x00 0x00 0x00,0x4155,NAK
0.632893916666667,446,DATA,0x56B,0x8,0x00 0x00 0x00 0x00 0x00 0x00 0x00 0x00,0x4155,NAK
0.634284291666667,447,DATA,0x56B,0x8,0x00 0x00 0x00 0x00 0x00 0x00 0x00 0x00,0x4155,NAK
0.635674708333333,448,DATA,0x56B,0x8,0x00 0x00 0x00 0x00 0x00 0x00 0x00 0x00,0x4155,NAK
0.637065083333333,449,DATA,0x56B,0x8,0x00 0x00 0x00 0x00 0x00 0x00 0x00 0x00,0x4155,NAK
0.638455500000000,450,DATA,0x56B,0x8,0x00 0x00 0x00 0x00 0x00 0x00 0x00 0x00,0x4155,NAK
0.639845875000000,451,DATA,0x56B,0x8,0x00 0x00 0x00 0x00 0x00 0x00 0x00 0x00,0x4155,NAK
0.641236250000000,452,DATA,0x56B,0x8,0x00 0x00 0x00 0x00 0x00 0x00 0x00 0x00,0x4155,NAK
0.642626666666667,453,DATA,0x56B,0x8,0x00 0x00 0x00 0x00 0x00 0x00 0x00 0x00,0x4155,NAK
0.644017041666667,454,DATA,0x56B,0x8,0x00 0x00 0x00 0x00 0x00 0x00 0x00 0x00,0x4155,NAK
0.645407416666667,455,DATA,0x56B,0x8,0x00 0x00 0x00 0x00 0x00 0x00 0x00 0x00,0x4155,NAK
0.646797833333333,456,DATA,0x56B,0x8,0x00 0x00 0x00 0x00 0x00 0x00 0x00 0x00,0x4155,NAK
0.648188208333333,457,DATA,0x56B,0x8,0x00 0x00 0x00 0x00 0x00 0x00 0x00 0x00,0x4155,NAK
0.649578625000000,458,DATA,0x56B,0x8,0x00 0x00 0x00 0x00 0x00 0x00 0x00 0x00,0x4155,NAK
0.650969000000000,459,DATA,0x56B,0x8,0x00 0x00 0x00 0x00 0x00 0x00 0x00 0x00,0x4155,NAK
0.652359375000000,460,DATA,0x56B,0x8,0x00 0x00 0x00 0x00 0x00 0x00 0x00 0x00,0x4155,NAK
0.653749791666667,461,DATA,0x56B,0x8,0x00 0x00 0x00 0x00 0x00 0x00 0x00 0x00,0x4155,NAK
0.655140166666667,462,DATA,0x56B,0x8,0x00 0x00 0x00 0x00 0x00 0x00 0x00 0x00,0x4155,NAK
0.656530541666667,463,DATA,0x56B,0x8,0x00 0x00 0x00 0x00 0x00 0x00 0x00 0x00,0x4155,NAK
0.657920958333333,464,DATA,0x56B,0x8,0x00 0x00 0x00 0x00 0x00 0x00 0x00 0x00,0x4155,NAK
0.659311333333333,465,DATA,0x56B,0x8,0x00 0x00 0x00 0x00 0x00 0x00 0x00 0x00,0x4155,NAK
0.660701750000000,466,DATA,0x56B,0x8,0x00 0x00 0x00 0x00 0x00 0x00 0x00 0x00,0x4155,NAK
0.662092125000000,467,DATA,0x56B,0x8,0x00 0x00 0x00 0x00 0x00 0x00 0x00 0x00,0x4155,NAK
0.663482500000000,468,DATA,0x56B,0x8,0x00 0x00 0x00 0x00 0x00 0x00 0x00 0x00,0x4155,NAK
0.664872916666667,469,DATA,0x56B,0x8,0x00 0x00 0x00 0x00 0x00 0x00 0x00 0x00,0x4155,NAK
0.666263291666667,470,DATA,0x56B,0x8,0x00 0x00 0x00 0x00 0x00 0x00 0x00 0x00,0x4155,NAK
0.667653666666667,471,DATA,0x56B,0x8,0x00 0x00 0x00 0x00 0x00 0x00 0x00 0x00,0x4155,NAK
0.669044083333333,472,DATA,0x56B,0x8,0x00 0x00 0x00 0x00 0x00 0x00 0x00 0x00,0x4155,NAK
0.670434458333333,473,DATA,0x56B,0x8,0x00 0x00 0x00 0x00 0x00 0x00 0x00 0x00,0x4155,NAK
0.671824875000000,474,DATA,0x56B,0x8,0x00 0x00 0x00 0x00 0x00 0x00 0x00 0x00,0x4155,NAK
0.673215250000000,475,DATA,0x56B,0x8,0x00 0x00 0x00 0x00 0x00 0x00 0x00 0x00,0x4155,NAK
0.674605625000000,476,DATA,0x56B,0x8,0x00 0x00 0x00 0x00 0x00 0x00 0x00 0x00,0x4155,NAK
0.675996041666667,477,DATA,0x56B,0x8,0x00 0x00 0x00 0x00 0x00 0x00 0x00 0x00,0x4155,NAK
0.677576958333333,478,DATA,0x56B,0x8,0x00 0x00 0x00 0x00 0x00 0x00 0x00 0x00,0x4155,NAK
0.679127416666667,479,DATA,0x12A,0x8,0x00 0x00 0x00 0x00 0x00 0x00 0x00 0x00,0x578D,NAK
0.680667833333333,480,DATA,0x135,0x8,0x00 0x00 0x00 0x00 0xFF 0xFF 0xFF 0x00,0x17F0,NAK
0.682228291666667,481,DATA,0x157,0x8,0xCF 0xFF 0x00 0x00 0x00 0x00 0x00 0x00,0x01DE,NAK
0.683758708333333,482,DATA,0x158,0x8,0x00 0x00 0x00 0x00 0x00 0x00 0x00 0x00,0x43CF,NAK
0.685309166666667,483,DATA,0x15D,0x8,0x00 0x00 0x00 0x00 0x00 0x00 0x00 0xF0,0x43D7,NAK
0.686829583333333,484,DATA,0x15E,0x8,0x00 0x00 0x00 0x00 0x00 0x00 0x0D 0x0F,0x3D85,NAK
0.688350000000000,485,DATA,0x161,0x8,0x03 0x00 0x00 0x00 0x00 0x00 0x00 0x00,0x7527,NAK
0.689880416666667,486,DATA,0x169,0x8,0x0F 0x00 0x00 0x00 0x00 0x00 0x03 0xE8,0x6C4E,NAK
0.691400875000000,487,DATA,0x16A,0x8,0x03 0x0C 0xF0 0x00 0x00 0x00 0x3C 0x3C,0x2FC4,NAK
0.692921291666667,488,DATA,0x17A,0x8,0x00 0x00 0x00 0x00 0xC0 0x00 0x00 0x00,0x523C,NAK
0.694461708333333,489,DATA,0x164,0x8,0x00 0x00 0x00 0x00 0x00 0x00 0x00 0x00,0x6E99,NAK
0.696012166666667,490,DATA,0x17B,0x8,0x00 0x00 0x20 0x00 0x00 0x00 0x00 0x00,0x6554,NAK
0.697552583333333,491,DATA,0x17F,0x8,0x00 0x00 0x0C 0x00 0x00 0x03 0x00 0x00,0x46A9,NAK
0.699083000000000,492,DATA,0x18A,0x8,0x00 0x00 0x00 0x00 0x00 0x00 0x00 0x00,0x08F3,NAK
0.700633458333333,493,DATA,0x18B,0x8,0x00 0x00 0x00 0x00 0x00 0x00 0x00 0x00,0x03E8,NAK
0.702033833333333,494,DATA,0x18B,0x8,0x00 0x00 0x00 0x00 0x00 0x00 0x00 0x00,0x03E8,NAK
0.703434250000000,495,DATA,0x18B,0x8,0x00 0x00 0x00 0x00 0x00 0x00 0x00 0x00,0x03E8,NAK
0.704834625000000,496,DATA,0x18B,0x8,0x00 0x00 0x00 0x00 0x00 0x00 0x00 0x00,0x03E8,NAK
0.706235041666667,497,DATA,0x18B,0x8,0x00 0x00 0x00 0x00 0x00 0x00 0x00 0x00,0x03E8,NAK
0.707635416666667,498,DATA,0x18B,0x8,0x00 0x00 0x00 0x00 0x00 0x00 0x00 0x00,0x03E8,NAK
0.709035833333333,499,DATA,0x18B,0x8,0x00 0x00 0x00 0x00 0x00 0x00 0x00 0x00,0x03E8,NAK
0.710436208333333,500,DATA,0x18B,0x8,0x00 0x00 0x00 0x00 0x00 0x00 0x00 0x00,0x03E8,NAK
0.711836583333333,501,DATA,0x18B,0x8,0x00 0x00 0x00 0x00 0x00 0x00 0x00 0x00,0x03E8,NAK
0.713237000000000,502,DATA,0x18B,0x8,0x00 0x00 0x00 0x00 0x00 0x00 0x00 0x00,0x03E8,NAK
0.714637375000000,503,DATA,0x18B,0x8,0x00 0x00 0x00 0x00 0x00 0x00 0x00 0x00,0x03E8,NAK
0.716037791666667,504,DATA,0x18B,0x8,0x00 0x00 0x00 0x00 0x00 0x00 0x00 0x00,0x03E8,NAK
0.717438166666667,505,DATA,0x18B,0x8,0x00 0x00 0x00 0x00 0x00 0x00 0x00 0x00,0x03E8,NAK
0.718838583333333,506,DATA,0x18B,0x8,0x00 0x00 0x00 0x00 0x00 0x00 0x00 0x00,0x03E8,NAK
0.720238958333333,507,DATA,0x18B,0x8,0x00 0x00 0x00 0x00 0x00 0x00 0x00 0x00,0x03E8,NAK
0.721639375000000,508,DATA,0x18B,0x8,0x00 0x00 0x00 0x00 0x00 0x00 0x00 0x00,0x03E8,NAK
0.723039750000000,509,DATA,0x18B,0x8,0x00 0x00 0x00 0x00 0x00 0x00 0x00 0x00,0x03E8,NAK
0.724440125000000,510,DATA,0x18B,0x8,0x00 0x00 0x00 0x00 0x00 0x00 0x00 0x00,0x03E8,NAK
0.725840541666667,511,DATA,0x18B,0x8,0x00 0x00 0x00 0x00 0x00 0x00 0x00 0x00,0x03E8,NAK
0.727240916666667,512,DATA,0x18B,0x8,0x00 0x00 0x00 0x00 0x00 0x00 0x00 0x00,0x03E8,NAK
0.728641333333333,513,DATA,0x18B,0x8,0x00 0x00 0x00 0x00 0x00 0x00 0x00 0x00,0x03E8,NAK
0.730041708333333,514,DATA,0x18B,0x8,0x00 0x00 0x00 0x00 0x00 0x00 0x00 0x00,0x03E8,NAK
0.731442125000000,515,DATA,0x18B,0x8,0x00 0x00 0x00 0x00 0x00 0x00 0x00 0x00,0x03E8,NAK
0.732842500000000,516,DATA,0x18B,0x8,0x00 0x00 0x00 0x00 0x00 0x00 0x00 0x00,0x03E8,NAK
0.734242916666667,517,DATA,0x18B,0x8,0x00 0x00 0x00 0x00 0x00 0x00 0x00 0x00,0x03E8,NAK
0.735643291666667,518,DATA,0x18B,0x8,0x00 0x00 0x00 0x00 0x00 0x00 0x00 0x00,0x03E8,NAK
0.737043666666667,519,DATA,0x18B,0x8,0x00 0x00 0x00 0x00 0x00 0x00 0x00 0x00,0x03E8,NAK
0.738444083333333,520,DATA,0x18B,0x8,0x00 0x00 0x00 0x00 0x00 0x00 0x00 0x00,0x03E8,NAK
0.739844458333333,521,DATA,0x18B,0x8,0x00 0x00 0x00 0x00 0x00 0x00 0x00 0x00,0x03E8,NAK
0.741244875000000,522,DATA,0x18B,0x8,0x00 0x00 0x00 0x00 0x00 0x00 0x00 0x00,0x03E8,NAK
0.742645250000000,523,DATA,0x18B,0x8,0x00 0x00 0x00 0x00 0x00 0x00 0x00 0x00,0x03E8,NAK
0.744045666666667,524,DATA,0x18B,0x8,0x00 0x00 0x00 0x00 0x00 0x00 0x00 0x00,0x03E8,NAK
0.745446041666667,525,DATA,0x18B,0x8,0x00 0x00 0x00 0x00 0x00 0x00 0x00 0x00,0x03E8,NAK
0.746846458333333,526,DATA,0x18B,0x8,0x00 0x00 0x00 0x00 0x00 0x00 0x00 0x00,0x03E8,NAK
0.748246833333333,527,DATA,0x18B,0x8,0x00 0x00 0x00 0x00 0x00 0x00 0x00 0x00,0x03E8,NAK
0.749647208333333,528,DATA,0x18B,0x8,0x00 0x00 0x00 0x00 0x00 0x00 0x00 0x00,0x03E8,NAK
0.751047625000000,529,DATA,0x18B,0x8,0x00 0x00 0x00 0x00 0x00 0x00 0x00 0x00,0x03E8,NAK
0.752448000000000,530,DATA,0x18B,0x8,0x00 0x00 0x00 0x00 0x00 0x00 0x00 0x00,0x03E8,NAK
0.753848416666667,531,DATA,0x18B,0x8,0x00 0x00 0x00 0x00 0x00 0x00 0x00 0x00,0x03E8,NAK
0.755248791666667,532,DATA,0x18B,0x8,0x00 0x00 0x00 0x00 0x00 0x00 0x00 0x00,0x03E8,NAK
0.756649208333333,533,DATA,0x18B,0x8,0x00 0x00 0x00 0x00 0x00 0x00 0x00 0x00,0x03E8,NAK
0.758049583333333,534,DATA,0x18B,0x8,0x00 0x00 0x00 0x00 0x00 0x00 0x00 0x00,0x03E8,NAK
0.759450000000000,535,DATA,0x18B,0x8,0x00 0x00 0x00 0x00 0x00 0x00 0x00 0x00,0x03E8,NAK
0.760850375000000,536,DATA,0x18B,0x8,0x00 0x00 0x00 0x00 0x00 0x00 0x00 0x00,0x03E8,NAK
0.762250750000000,537,DATA,0x18B,0x8,0x00 0x00 0x00 0x00 0x00 0x00 0x00 0x00,0x03E8,NAK
0.763651166666667,538,DATA,0x18B,0x8,0x00 0x00 0x00 0x00 0x00 0x00 0x00 0x00,0x03E8,NAK
0.765051541666667,539,DATA,0x18B,0x8,0x00 0x00 0x00 0x00 0x00 0x00 0x00 0x00,0x03E8,NAK
0.766451958333333,540,DATA,0x18B,0x8,0x00 0x00 0x00 0x00 0x00 0x00 0x00 0x00,0x03E8,NAK
0.767852333333333,541,DATA,0x18B,0x8,0x00 0x00 0x00 0x00 0x00 0x00 0x00 0x00,0x03E8,NAK
0.769252750000000,542,DATA,0x18B,0x8,0x00 0x00 0x00 0x00 0x00 0x00 0x00 0x00,0x03E8,NAK
0.770653125000000,543,DATA,0x18B,0x8,0x00 0x00 0x00 0x00 0x00 0x00 0x00 0x00,0x03E8,NAK
0.772053541666667,544,DATA,0x18B,0x8,0x00 0x00 0x00 0x00 0x00 0x00 0x00 0x00,0x03E8,NAK
0.773453916666667,545,DATA,0x18B,0x8,0x00 0x00 0x00 0x00 0x00 0x00 0x00 0x00,0x03E8,NAK
0.774854333333333,546,DATA,0x18B,0x8,0x00 0x00 0x00 0x00 0x00 0x00 0x00 0x00,0x03E8,NAK
0.776254708333333,547,DATA,0x18B,0x8,0x00 0x00 0x00 0x00 0x00 0x00 0x00 0x00,0x03E8,NAK
0.777655083333333,548,DATA,0x18B,0x8,0x00 0x00 0x00 0x00 0x00 0x00 0x00 0x00,0x03E8,NAK
0.779055500000000,549,DATA,0x18B,0x8,0x00 0x00 0x00 0x00 0x00 0x00 0x00 0x00,0x03E8,NAK
0.780455875000000,550,DATA,0x18B,0x8,0x00 0x00 0x00 0x00 0x00 0x00 0x00 0x00,0x03E8,NAK
0.781856291666667,551,DATA,0x18B,0x8,0x00 0x00 0x00 0x00 0x00 0x00 0x00 0x00,0x03E8,NAK
0.783256666666667,552,DATA,0x18B,0x8,0x00 0x00 0x00 0x00 0x00 0x00 0x00 0x00,0x03E8,NAK
0.784657083333333,553,DATA,0x18B,0x8,0x00 0x00 0x00 0x00 0x00 0x00 0x00 0x00,0x03E8,NAK
0.786057458333333,554,DATA,0x18B,0x8,0x00 0x00 0x00 0x00 0x00 0x00 0x00 0x00,0x03E8,NAK
0.787457833333333,555,DATA,0x18B,0x8,0x00 0x00 0x00 0x00 0x00 0x00 0x00 0x00,0x03E8,NAK
0.788858250000000,556,DATA,0x18B,0x8,0x00 0x00 0x00 0x00 0x00 0x00 0x00 0x00,0x03E8,NAK
0.790459208333333,557,DATA,0x18B,0x8,0x00 0x00 0x00 0x00 0x00 0x00 0x00 0x00,0x03E8,NAK
0.792019625000000,558,DATA,0x12B,0x8,0x00 0x00 0x00 0x00 0x00 0x00 0x00 0x00,0x5C96,NAK
0.793560083333333,559,DATA,0x133,0x8,0x03 0xFF 0x00 0x00 0x00 0x00 0x00 0xFF,0x1073,NAK
0.795100500000000,560,DATA,0x166,0x8,0x00 0x00 0x00 0x00 0x00 0x00 0x00 0x00,0x78AF,NAK
0.796640916666667,561,DATA,0x17A,0x8,0x00 0x00 0x00 0x00 0xC0 0x00 0x00 0x00,0x523C,NAK
0.798181375000000,562,DATA,0x17B,0x8,0x00 0x00 0x20 0x00 0x00 0x00 0x00 0x00,0x6554,NAK
0.799721791666667,563,DATA,0x17D,0x8,0x00 0x00 0x00 0x00 0x00 0x00 0x00 0x00,0x4973,NAK
0.801272250000000,564,DATA,0x19D,0x8,0x00 0x00 0x00 0x00 0x00 0x00 0x00 0x00,0x4D9B,NAK
0.802812666666667,565,DATA,0x1AB,0x8,0xFF 0xFF 0xFF 0xFF 0xFF 0x7E 0x00 0x00,0x678D,NAK
0.804343083333333,566,DATA,0x134,0x8,0x00 0x00 0x00 0x00 0x00 0x00 0x30 0x00,0x1B8F,NAK
0.805883541666667,567,DATA,0x55C,0x8,0x00 0x00 0x00 0x00 0x00 0x30 0xC0 0x00,0x6D05,NAK
0.807423958333333,568,DATA,0x55D,0x8,0x00 0x00 0x00 0x00 0x00 0x00 0xFF 0x00,0x7274,NAK
0.808954375000000,569,DATA,0x55E,0x8,0x00 0x00 0x00 0x3F 0xC0 0xFF 0x00 0x00,0x533C,NAK
0.810474833333333,570,DATA,0x56A,0x8,0x00 0x00 0x00 0x00 0x00 0x00 0x00 0x00,0x4A4E,NAK
0.812015250000000,571,DATA,0x56B,0x8,0x00 0x00 0x00 0x00 0x00 0x00 0x00 0x00,0x4155,NAK
0.813565708333333,572,DATA,0x15E,0x8,0x00 0x00 0x00 0x00 0x00 0x00 0x0D 0x0F,0x3D85,NAK
0.814926083333333,573,DATA,0x15E,0x8,0x00 0x00 0x00 0x00 0x00 0x00 0x0D 0x0F,0x3D85,NAK
0.816286458333333,574,DATA,0x15E,0x8,0x00 0x00 0x00 0x00 0x00 0x00 0x0D 0x0F,0x3D85,NAK
0.817646833333333,575,DATA,0x15E,0x8,0x00 0x00 0x00 0x00 0x00 0x00 0x0D 0x0F,0x3D85,NAK
0.819007208333333,576,DATA,0x15E,0x8,0x00 0x00 0x00 0x00 0x00 0x00 0x0D 0x0F,0x3D85,NAK
0.820367583333333,577,DATA,0x15E,0x8,0x00 0x00 0x00 0x00 0x00 0x00 0x0D 0x0F,0x3D85,NAK
0.821728000000000,578,DATA,0x15E,0x8,0x00 0x00 0x00 0x00 0x00 0x00 0x0D 0x0F,0x3D85,NAK
0.823088375000000,579,DATA,0x15E,0x8,0x00 0x00 0x00 0x00 0x00 0x00 0x0D 0x0F,0x3D85,NAK
0.824448750000000,580,DATA,0x15E,0x8,0x00 0x00 0x00 0x00 0x00 0x00 0x0D 0x0F,0x3D85,NAK
0.825809125000000,581,DATA,0x15E,0x8,0x00 0x00 0x00 0x00 0x00 0x00 0x0D 0x0F,0x3D85,NAK
0.827169500000000,582,DATA,0x15E,0x8,0x00 0x00 0x00 0x00 0x00 0x00 0x0D 0x0F,0x3D85,NAK
0.828529916666667,583,DATA,0x15E,0x8,0x00 0x00 0x00 0x00 0x00 0x00 0x0D 0x0F,0x3D85,NAK
0.829890291666667,584,DATA,0x15E,0x8,0x00 0x00 0x00 0x00 0x00 0x00 0x0D 0x0F,0x3D85,NAK
0.831250666666667,585,DATA,0x15E,0x8,0x00 0x00 0x00 0x00 0x00 0x00 0x0D 0x0F,0x3D85,NAK
0.832611041666667,586,DATA,0x15E,0x8,0x00 0x00 0x00 0x00 0x00 0x00 0x0D 0x0F,0x3D85,NAK
0.833971416666667,587,DATA,0x15E,0x8,0x00 0x00 0x00 0x00 0x00 0x00 0x0D 0x0F,0x3D85,NAK
0.835331791666667,588,DATA,0x15E,0x8,0x00 0x00 0x00 0x00 0x00 0x00 0x0D 0x0F,0x3D85,NAK
0.836692208333333,589,DATA,0x15E,0x8,0x00 0x00 0x00 0x00 0x00 0x00 0x0D 0x0F,0x3D85,NAK
0.838052583333333,590,DATA,0x15E,0x8,0x00 0x00 0x00 0x00 0x00 0x00 0x0D 0x0F,0x3D85,NAK
0.839412958333333,591,DATA,0x15E,0x8,0x00 0x00 0x00 0x00 0x00 0x00 0x0D 0x0F,0x3D85,NAK
0.840773333333333,592,DATA,0x15E,0x8,0x00 0x00 0x00 0x00 0x00 0x00 0x0D 0x0F,0x3D85,NAK
0.842133708333333,593,DATA,0x15E,0x8,0x00 0x00 0x00 0x00 0x00 0x00 0x0D 0x0F,0x3D85,NAK
0.843494083333333,594,DATA,0x15E,0x8,0x00 0x00 0x00 0x00 0x00 0x00 0x0D 0x0F,0x3D85,NAK
0.844854500000000,595,DATA,0x15E,0x8,0x00 0x00 0x00 0x00 0x00 0x00 0x0D 0x0F,0x3D85,NAK
0.846214875000000,596,DATA,0x15E,0x8,0x00 0x00 0x00 0x00 0x00 0x00 0x0D 0x0F,0x3D85,NAK
0.847575250000000,597,DATA,0x15E,0x8,0x00 0x00 0x00 0x00 0x00 0x00 0x0D 0x0F,0x3D85,NAK
0.848935625000000,598,DATA,0x15E,0x8,0x00 0x00 0x00 0x00 0x00 0x00 0x0D 0x0F,0x3D85,NAK
0.850296000000000,599,DATA,0x15E,0x8,0x00 0x00 0x00 0x00 0x00 0x00 0x0D 0x0F,0x3D85,NAK
0.851656416666667,600,DATA,0x15E,0x8,0x00 0x00 0x00 0x00 0x00 0x00 0x0D 0x0F,0x3D85,NAK
0.853016791666667,601,DATA,0x15E,0x8,0x00 0x00 0x00 0x00 0x00 0x00 0x0D 0x0F,0x3D85,NAK
0.854377166666667,602,DATA,0x15E,0x8,0x00 0x00 0x00 0x00 0x00 0x00 0x0D 0x0F,0x3D85,NAK
0.855737541666667,603,DATA,0x15E,0x8,0x00 0x00 0x00 0x00 0x00 0x00 0x0D 0x0F,0x3D85,NAK
0.857097916666667,604,DATA,0x15E,0x8,0x00 0x00 0x00 0x00 0x00 0x00 0x0D 0x0F,0x3D85,NAK
0.858458291666667,605,DATA,0x15E,0x8,0x00 0x00 0x00 0x00 0x00 0x00 0x0D 0x0F,0x3D85,NAK
0.859818708333333,606,DATA,0x15E,0x8,0x00 0x00 0x00 0x00 0x00 0x00 0x0D 0x0F,0x3D85,NAK
0.861179083333333,607,DATA,0x15E,0x8,0x00 0x00 0x00 0x00 0x00 0x00 0x0D 0x0F,0x3D85,NAK
0.862539458333333,608,DATA,0x15E,0x8,0x00 0x00 0x00 0x00 0x00 0x00 0x0D 0x0F,0x3D85,NAK
0.863899833333333,609,DATA,0x15E,0x8,0x00 0x00 0x00 0x00 0x00 0x00 0x0D 0x0F,0x3D85,NAK
0.865260208333333,610,DATA,0x15E,0x8,0x00 0x00 0x00 0x00 0x00 0x00 0x0D 0x0F,0x3D85,NAK
0.866620583333333,611,DATA,0x15E,0x8,0x00 0x00 0x00 0x00 0x00 0x00 0x0D 0x0F,0x3D85,NAK
0.867981000000000,612,DATA,0x15E,0x8,0x00 0x00 0x00 0x00 0x00 0x00 0x0D 0x0F,0x3D85,NAK
0.869341375000000,613,DATA,0x15E,0x8,0x00 0x00 0x00 0x00 0x00 0x00 0x0D 0x0F,0x3D85,NAK
0.870701750000000,614,DATA,0x15E,0x8,0x00 0x00 0x00 0x00 0x00 0x00 0x0D 0x0F,0x3D85,NAK
0.872062125000000,615,DATA,0x15E,0x8,0x00 0x00 0x00 0x00 0x00 0x00 0x0D 0x0F,0x3D85,NAK
0.873422500000000,616,DATA,0x15E,0x8,0x00 0x00 0x00 0x00 0x00 0x00 0x0D 0x0F,0x3D85,NAK
0.874782916666667,617,DATA,0x15E,0x8,0x00 0x00 0x00 0x00 0x00 0x00 0x0D 0x0F,0x3D85,NAK
0.876143291666667,618,DATA,0x15E,0x8,0x00 0x00 0x00 0x00 0x00 0x00 0x0D 0x0F,0x3D85,NAK
0.877503666666667,619,DATA,0x15E,0x8,0x00 0x00 0x00 0x00 0x00 0x00 0x0D 0x0F,0x3D85,NAK
0.878864041666667,620,DATA,0x15E,0x8,0x00 0x00 0x00 0x00 0x00 0x00 0x0D 0x0F,0x3D85,NAK
0.880224416666667,621,DATA,0x15E,0x8,0x00 0x00 0x00 0x00 0x00 0x00 0x0D 0x0F,0x3D85,NAK
0.881584791666667,622,DATA,0x15E,0x8,0x00 0x00 0x00 0x00 0x00 0x00 0x0D 0x0F,0x3D85,NAK
0.882945208333333,623,DATA,0x15E,0x8,0x00 0x00 0x00 0x00 0x00 0x00 0x0D 0x0F,0x3D85,NAK
0.884305583333333,624,DATA,0x15E,0x8,0x00 0x00 0x00 0x00 0x00 0x00 0x0D 0x0F,0x3D85,NAK
0.885665958333333,625,DATA,0x15E,0x8,0x00 0x00 0x00 0x00 0x00 0x00 0x0D 0x0F,0x3D85,NAK
0.887026333333333,626,DATA,0x15E,0x8,0x00 0x00 0x00 0x00 0x00 0x00 0x0D 0x0F,0x3D85,NAK
0.888386708333333,627,DATA,0x15E,0x8,0x00 0x00 0x00 0x00 0x00 0x00 0x0D 0x0F,0x3D85,NAK
0.889747083333333,628,DATA,0x15E,0x8,0x00 0x00 0x00 0x00 0x00 0x00 0x0D 0x0F,0x3D85,NAK
0.891107500000000,629,DATA,0x15E,0x8,0x00 0x00 0x00 0x00 0x00 0x00 0x0D 0x0F,0x3D85,NAK
0.892467875000000,630,DATA,0x15E,0x8,0x00 0x00 0x00 0x00 0x00 0x00 0x0D 0x0F,0x3D85,NAK
0.893828250000000,631,DATA,0x15E,0x8,0x00 0x00 0x00 0x00 0x00 0x00 0x0D 0x0F,0x3D85,NAK
0.895188625000000,632,DATA,0x15E,0x8,0x00 0x00 0x00 0x00 0x00 0x00 0x0D 0x0F,0x3D85,NAK
0.896549000000000,633,DATA,0x15E,0x8,0x00 0x00 0x00 0x00 0x00 0x00 0x0D 0x0F,0x3D85,NAK
0.897909375000000,634,DATA,0x15E,0x8,0x00 0x00 0x00 0x00 0x00 0x00 0x0D 0x0F,0x3D85,NAK
0.899269791666667,635,DATA,0x15E,0x8,0x00 0x00 0x00 0x00 0x00 0x00 0x0D 0x0F,0x3D85,NAK
0.900820708333333,636,DATA,0x15E,0x8,0x00 0x00 0x00 0x00 0x00 0x00 0x0D 0x0F,0x3D85,NAK
0.902341125000000,637,DATA,0x126,0x8,0x0F 0x00 0x00 0x00 0x00 0x00 0xFF 0xFF,0x7941,NAK
0.903891583333333,638,DATA,0x12A,0x8,0x00 0x00 0x00 0x00 0x00 0x00 0x00 0x00,0x578D,NAK
0.905432000000000,639,DATA,0x131,0x8,0xFF 0x00 0xFF 0x00 0x00 0x00 0x00 0x00,0x6A40,NAK
0.906962458333333,640,DATA,0x132,0x8,0xFF 0xFF 0x33 0x70 0x0C 0x03 0x30 0x0F,0x47E7,NAK
0.908452875000000,641,DATA,0x135,0x8,0x00 0x00 0x00 0x00 0xFF 0xFF 0xFF 0x00,0x17F0,NAK
0.910013291666667,642,DATA,0x157,0x8,0xCF 0xFF 0x00 0x00 0x00 0x00 0x00 0x00,0x01DE,NAK
0.911543708333333,643,DATA,0x158,0x8,0x00 0x00 0x00 0x00 0x00 0x00 0x00 0x00,0x43CF,NAK
0.913094166666667,644,DATA,0x15D,0x8,0x00 0x00 0x00 0x00 0x00 0x00 0x00 0xF0,0x43D7,NAK
0.914614583333333,645,DATA,0x133,0x8,0x03 0xFF 0x00 0x00 0x00 0x00 0x00 0xFF,0x1073,NAK
0.916155041666667,646,DATA,0x161,0x8,0x03 0x00 0x00 0x00 0x00 0x00 0x00 0x00,0x7527,NAK
0.917685458333333,647,DATA,0x164,0x8,0x00 0x00 0x00 0x00 0x00 0x00 0x00 0x00,0x6E99,NAK
0.919235875000000,648,DATA,0x166,0x8,0x00 0x00 0x00 0x00 0x00 0x00 0x00 0x00,0x78AF,NAK
0.920776333333333,649,DATA,0x167,0x8,0x00 0x00 0x00 0xF0 0x00 0x00 0x00 0x00,0x4868,NAK
0.922306750000000,650,DATA,0x169,0x8,0x0F 0x00 0x00 0x00 0x00 0x00 0x03 0xE8,0x6C4E,NAK
0.923827166666667,651,DATA,0x12B,0x8,0x00 0x00 0x00 0x00 0x00 0x00 0x00 0x00,0x5C96,NAK
0.925207583333333,652,DATA,0x12B,0x8,0x00 0x00 0x00 0x00 0x00 0x00 0x00 0x00,0x5C96,NAK
0.926587958333333,653,DATA,0x12B,0x8,0x00 0x00 0x00 0x00 0x00 0x00 0x00 0x00,0x5C96,NAK
0.927968333333333,654,DATA,0x12B,0x8,0x00 0x00 0x00 0x00 0x00 0x00 0x00 0x00,0x5C96,NAK
0.929348750000000,655,DATA,0x12B,0x8,0x00 0x00 0x00 0x00 0x00 0x00 0x00 0x00,0x5C96,NAK
0.930729125000000,656,DATA,0x12B,0x8,0x00 0x00 0x00 0x00 0x00 0x00 0x00 0x00,0x5C96,NAK
0.932109500000000,657,DATA,0x12B,0x8,0x00 0x00 0x00 0x00 0x00 0x00 0x00 0x00,0x5C96,NAK
0.933489875000000,658,DATA,0x12B,0x8,0x00 0x00 0x00 0x00 0x00 0x00 0x00 0x00,0x5C96,NAK
0.934870291666667,659,DATA,0x12B,0x8,0x00 0x00 0x00 0x00 0x00 0x00 0x00 0x00,0x5C96,NAK
0.936250666666667,660,DATA,0x12B,0x8,0x00 0x00 0x00 0x00 0x00 0x00 0x00 0x00,0x5C96,NAK
0.937631041666667,661,DATA,0x12B,0x8,0x00 0x00 0x00 0x00 0x00 0x00 0x00 0x00,0x5C96,NAK
0.939011458333333,662,DATA,0x12B,0x8,0x00 0x00 0x00 0x00 0x00 0x00 0x00 0x00,0x5C96,NAK
0.940391833333333,663,DATA,0x12B,0x8,0x00 0x00 0x00 0x00 0x00 0x00 0x00 0x00,0x5C96,NAK
0.941772208333333,664,DATA,0x12B,0x8,0x00 0x00 0x00 0x00 0x00 0x00 0x00 0x00,0x5C96,NAK
0.943152625000000,665,DATA,0x12B,0x8,0x00 0x00 0x00 0x00 0x00 0x00 0x00 0x00,0x5C96,NAK
0.944533000000000,666,DATA,0x12B,0x8,0x00 0x00 0x00 0x00 0x00 0x00 0x00 0x00,0x5C96,NAK
0.945913375000000,667,DATA,0x12B,0x8,0x00 0x00 0x00 0x00 0x00 0x00 0x00 0x00,0x5C96,NAK
0.947293791666667,668,DATA,0x12B,0x8,0x00 0x00 0x00 0x00 0x00 0x00 0x00 0x00,0x5C96,NAK
0.948674166666667,669,DATA,0x12B,0x8,0x00 0x00 0x00 0x00 0x00 0x00 0x00 0x00,0x5C96,NAK
0.950054541666667,670,DATA,0x12B,0x8,0x00 0x00 0x00 0x00 0x00 0x00 0x00 0x00,0x5C96,NAK
0.951434958333333,671,DATA,0x12B,0x8,0x00 0x00 0x00 0x00 0x00 0x00 0x00 0x00,0x5C96,NAK
0.952815333333333,672,DATA,0x12B,0x8,0x00 0x00 0x00 0x00 0x00 0x00 0x00 0x00,0x5C96,NAK
0.954195708333333,673,DATA,0x12B,0x8,0x00 0x00 0x00 0x00 0x00 0x00 0x00 0x00,0x5C96,NAK
0.955576083333333,674,DATA,0x12B,0x8,0x00 0x00 0x00 0x00 0x00 0x00 0x00 0x00,0x5C96,NAK
0.956956500000000,675,DATA,0x12B,0x8,0x00 0x00 0x00 0x00 0x00 0x00 0x00 0x00,0x5C96,NAK
0.958336875000000,676,DATA,0x12B,0x8,0x00 0x00 0x00 0x00 0x00 0x00 0x00 0x00,0x5C96,NAK
0.959717250000000,677,DATA,0x12B,0x8,0x00 0x00 0x00 0x00 0x00 0x00 0x00 0x00,0x5C96,NAK
0.961097666666667,678,DATA,0x12B,0x8,0x00 0x00 0x00 0x00 0x00 0x00 0x00 0x00,0x5C96,NAK
0.962478041666667,679,DATA,0x12B,0x8,0x00 0x00 0x00 0x00 0x00 0x00 0x00 0x00,0x5C96,NAK
0.963858416666667,680,DATA,0x12B,0x8,0x00 0x00 0x00 0x00 0x00 0x00 0x00 0x00,0x5C96,NAK
0.965238833333333,681,DATA,0x12B,0x8,0x00 0x00 0x00 0x00 0x00 0x00 0x00 0x00,0x5C96,NAK
0.966619208333333,682,DATA,0x12B,0x8,0x00 0x00 0x00 0x00 0x00 0x00 0x00 0x00,0x5C96,NAK
0.967999583333333,683,DATA,0x12B,0x8,0x00 0x00 0x00 0x00 0x00 0x00 0x00 0x00,0x5C96,NAK
0.969380000000000,684,DATA,0x12B,0x8,0x00 0x00 0x00 0x00 0x00 0x00 0x00 0x00,0x5C96,NAK
0.970760375000000,685,DATA,0x12B,0x8,0x00 0x00 0x00 0x00 0x00 0x00 0x00 0x00,0x5C96,NAK
0.972140750000000,686,DATA,0x12B,0x8,0x00 0x00 0x00 0x00 0x00 0x00 0x00 0x00,0x5C96,NAK
0.973521125000000,687,DATA,0x12B,0x8,0x00 0x00 0x00 0x00 0x00 0x00 0x00 0x00,0x5C96,NAK
0.974901541666667,688,DATA,0x12B,0x8,0x00 0x00 0x00 0x00 0x00 0x00 0x00 0x00,0x5C96,NAK
0.976281916666667,689,DATA,0x12B,0x8,0x00 0x00 0x00 0x00 0x00 0x00 0x00 0x00,0x5C96,NAK
0.977662291666667,690,DATA,0x12B,0x8,0x00 0x00 0x00 0x00 0x00 0x00 0x00 0x00,0x5C96,NAK
0.979042708333333,691,DATA,0x12B,0x8,0x00 0x00 0x00 0x00 0x00 0x00 0x00 0x00,0x5C96,NAK
0.980423083333333,692,DATA,0x12B,0x8,0x00 0x00 0x00 0x00 0x00 0x00 0x00 0x00,0x5C96,NAK
0.981803458333333,693,DATA,0x12B,0x8,0x00 0x00 0x00 0x00 0x00 0x00 0x00 0x00,0x5C96,NAK
0.983183875000000,694,DATA,0x12B,0x8,0x00 0x00 0x00 0x00 0x00 0x00 0x00 0x00,0x5C96,NAK
0.984564250000000,695,DATA,0x12B,0x8,0x00 0x00 0x00 0x00 0x00 0x00 0x00 0x00,0x5C96,NAK
0.985944625000000,696,DATA,0x12B,0x8,0x00 0x00 0x00 0x00 0x00 0x00 0x00 0x00,0x5C96,NAK
0.987325041666667,697,DATA,0x12B,0x8,0x00 0x00 0x00 0x00 0x00 0x00 0x00 0x00,0x5C96,NAK
0.988705416666667,698,DATA,0x12B,0x8,0x00 0x00 0x00 0x00 0x00 0x00 0x00 0x00,0x5C96,NAK
0.990085791666667,699,DATA,0x12B,0x8,0x00 0x00 0x00 0x00 0x00 0x00 0x00 0x00,0x5C96,NAK
0.991466208333333,700,DATA,0x12B,0x8,0x00 0x00 0x00 0x00 0x00 0x00 0x00 0x00,0x5C96,NAK
0.992846583333333,701,DATA,0x12B,0x8,0x00 0x00 0x00 0x00 0x00 0x00 0x00 0x00,0x5C96,NAK
0.994226958333333,702,DATA,0x12B,0x8,0x00 0x00 0x00 0x00 0x00 0x00 0x00 0x00,0x5C96,NAK
0.995607333333333,703,DATA,0x12B,0x8,0x00 0x00 0x00 0x00 0x00 0x00 0x00 0x00,0x5C96,NAK
0.996987750000000,704,DATA,0x12B,0x8,0x00 0x00 0x00 0x00 0x00 0x00 0x00 0x00,0x5C96,NAK
0.998368125000000,705,DATA,0x12B,0x8,0x00 0x00 0x00 0x00 0x00 0x00 0x00 0x00,0x5C96,NAK
0.999748500000000,706,DATA,0x12B,0x8,0x00 0x00 0x00 0x00 0x00 0x00 0x00 0x00,0x5C96,NAK
1.001128916666667,707,DATA,0x12B,0x8,0x00 0x00 0x00 0x00 0x00 0x00 0x00 0x00,0x5C96,NAK
1.002509291666667,708,DATA,0x12B,0x8,0x00 0x00 0x00 0x00 0x00 0x00 0x00 0x00,0x5C96,NAK
1.003889666666667,709,DATA,0x12B,0x8,0x00 0x00 0x00 0x00 0x00 0x00 0x00 0x00,0x5C96,NAK
1.005270083333333,710,DATA,0x12B,0x8,0x00 0x00 0x00 0x00 0x00 0x00 0x00 0x00,0x5C96,NAK
1.006650458333333,711,DATA,0x12B,0x8,0x00 0x00 0x00 0x00 0x00 0x00 0x00 0x00,0x5C96,NAK
1.008030833333333,712,DATA,0x12B,0x8,0x00 0x00 0x00 0x00 0x00 0x00 0x00 0x00,0x5C96,NAK
1.009411250000000,713,DATA,0x12B,0x8,0x00 0x00 0x00 0x00 0x00 0x00 0x00 0x00,0x5C96,NAK
1.010791625000000,714,DATA,0x12B,0x8,0x00 0x00 0x00 0x00 0x00 0x00 0x00 0x00,0x5C96,NAK
1.012372583333333,715,DATA,0x12B,0x8,0x00 0x00 0x00 0x00 0x00 0x00 0x00 0x00,0x5C96,NAK
1.013913000000000,716,DATA,0x15E,0x8,0x00 0x00 0x00 0x00 0x00 0x00 0x0D 0x0F,0x3D85,NAK
1.015433416666667,717,DATA,0x16A,0x8,0x03 0x0C 0xF0 0x00 0x00 0x00 0x3C 0x3C,0x2FC4,NAK
1.016953833333333,718,DATA,0x17A,0x8,0x00 0x00 0x00 0x00 0xC0 0x00 0x00 0x00,0x523C,NAK
1.018494291666667,719,DATA,0x17B,0x8,0x00 0x00 0x20 0x00 0x00 0x00 0x00 0x00,0x6554,NAK
1.020034708333333,720,DATA,0x17D,0x8,0x00 0x00 0x00 0x00 0x00 0x00 0x00 0x00,0x4973,NAK
1.021585166666667,721,DATA,0x17F,0x8,0x00 0x00 0x0C 0x00 0x00 0x03 0x00 0x00,0x46A9,NAK
1.023115583333333,722,DATA,0x19D,0x8,0x00 0x00 0x00 0x00 0x00 0x00 0x00 0x00,0x4D9B,NAK
1.024656000000000,723,DATA,0x157,0x8,0xCF 0xFF 0x00 0x00 0x00 0x00 0x00 0x00,0x01DE,NAK
1.026186458333333,724,DATA,0x1AB,0x8,0xFF 0xFF 0xFF 0xFF 0xFF 0x7E 0x00 0x00,0x678D,NAK
1.027716875000000,725,DATA,0x55C,0x8,0x00 0x00 0x00 0x00 0x00 0x30 0xC0 0x00,0x6D05,NAK
1.029257291666667,726,DATA,0x55D,0x8,0x00 0x00 0x00 0x00 0x00 0x00 0xFF 0x00,0x7274,NAK
1.030787750000000,727,DATA,0x55E,0x8,0x00 0x00 0x00 0x3F 0xC0 0xFF 0x00 0x00,0x533C,NAK
1.032308166666667,728,DATA,0x56A,0x8,0x00 0x00 0x00 0x00 0x00 0x00 0x00 0x00,0x4A4E,NAK
1.033848583333333,729,DATA,0x56B,0x8,0x00 0x00 0x00 0x00 0x00 0x00 0x00 0x00,0x4155,NAK
1.035399041666667,730,DATA,0x56C,0x8,0x00 0x00 0x00 0x00 0x00 0x00 0x00 0x00,0x7014,NAK
1.036799416666667,731,DATA,0x56C,0x8,0x00 0x00 0x00 0x00 0x00 0x00 0x00 0x00,0x7014,NAK
1.038199833333333,732,DATA,0x56C,0x8,0x00 0x00 0x00 0x00 0x00 0x00 0x00 0x00,0x7014,NAK
1.039600208333333,733,DATA,0x56C,0x8,0x00 0x00 0x00 0x00 0x00 0x00 0x00 0x00,0x7014,NAK
1.041000625000000,734,DATA,0x56C,0x8,0x00 0x00 0x00 0x00 0x00 0x00 0x00 0x00,0x7014,NAK
1.042401000000000,735,DATA,0x56C,0x8,0x00 0x00 0x00 0x00 0x00 0x00 0x00 0x00,0x7014,NAK
1.043801375000000,736,DATA,0x56C,0x8,0x00 0x00 0x00 0x00 0x00 0x00 0x00 0x00,0x7014,NAK
1.045201791666667,737,DATA,0x56C,0x8,0x00 0x00 0x00 0x00 0x00 0x00 0x00 0x00,0x7014,NAK
1.046602166666667,738,DATA,0x56C,0x8,0x00 0x00 0x00 0x00 0x00 0x00 0x00 0x00,0x7014,NAK
1.048002583333333,739,DATA,0x56C,0x8,0x00 0x00 0x00 0x00 0x00 0x00 0x00 0x00,0x7014,NAK
1.049402958333333,740,DATA,0x56C,0x8,0x00 0x00 0x00 0x00 0x00 0x00 0x00 0x00,0x7014,NAK
1.050803375000000,741,DATA,0x56C,0x8,0x00 0x00 0x00 0x00 0x00 0x00 0x00 0x00,0x7014,NAK
1.052203750000000,742,DATA,0x56C,0x8,0x00 0x00 0x00 0x00 0x00 0x00 0x00 0x00,0x7014,NAK
1.053604166666667,743,DATA,0x56C,0x8,0x00 0x00 0x00 0x00 0x00 0x00 0x00 0x00,0x7014,NAK
1.055004541666667,744,DATA,0x56C,0x8,0x00 0x00 0x00 0x00 0x00 0x00 0x00 0x00,0x7014,NAK
1.056404958333333,745,DATA,0x56C,0x8,0x00 0x00 0x00 0x00 0x00 0x00 0x00 0x00,0x7014,NAK
1.057805333333333,746,DATA,0x56C,0x8,0x00 0x00 0x00 0x00 0x00 0x00 0x00 0x00,0x7014,NAK
1.059205708333333,747,DATA,0x56C,0x8,0x00 0x00 0x00 0x00 0x00 0x00 0x00 0x00,0x7014,NAK
1.060606125000000,748,DATA,0x56C,0x8,0x00 0x00 0x00 0x00 0x00 0x00 0x00 0x00,0x7014,NAK
1.062006500000000,749,DATA,0x56C,0x8,0x00 0x00 0x00 0x00 0x00 0x00 0x00 0x00,0x7014,NAK
1.063406916666667,750,DATA,0x56C,0x8,0x00 0x00 0x00 0x00 0x00 0x00 0x00 0x00,0x7014,NAK
1.064807291666667,751,DATA,0x56C,0x8,0x00 0x00 0x00 0x00 0x00 0x00 0x00 0x00,0x7014,NAK
1.066207708333333,752,DATA,0x56C,0x8,0x00 0x00 0x00 0x00 0x00 0x00 0x00 0x00,0x7014,NAK
1.067608083333333,753,DATA,0x56C,0x8,0x00 0x00 0x00 0x00 0x00 0x00 0x00 0x00,0x7014,NAK
1.069008500000000,754,DATA,0x56C,0x8,0x00 0x00 0x00 0x00 0x00 0x00 0x00 0x00,0x7014,NAK
1.070408875000000,755,DATA,0x56C,0x8,0x00 0x00 0x00 0x00 0x00 0x00 0x00 0x00,0x7014,NAK
1.071809250000000,756,DATA,0x56C,0x8,0x00 0x00 0x00 0x00 0x00 0x00 0x00 0x00,0x7014,NAK
1.073209666666667,757,DATA,0x56C,0x8,0x00 0x00 0x00 0x00 0x00 0x00 0x00 0x00,0x7014,NAK
1.074610041666667,758,DATA,0x56C,0x8,0x00 0x00 0x00 0x00 0x00 0x00 0x00 0x00,0x7014,NAK
1.076010458333333,759,DATA,0x56C,0x8,0x00 0x00 0x00 0x00 0x00 0x00 0x00 0x00,0x7014,NAK
1.077410833333333,760,DATA,0x56C,0x8,0x00 0x00 0x00 0x00 0x00 0x00 0x00 0x00,0x7014,NAK
1.078811250000000,761,DATA,0x56C,0x8,0x00 0x00 0x00 0x00 0x00 0x00 0x00 0x00,0x7014,NAK
1.080211625000000,762,DATA,0x56C,0x8,0x00 0x00 0x00 0x00 0x00 0x00 0x00 0x00,0x7014,NAK
1.081612041666667,763,DATA,0x56C,0x8,0x00 0x00 0x00 0x00 0x00 0x00 0x00 0x00,0x7014,NAK
1.083012416666667,764,DATA,0x56C,0x8,0x00 0x00 0x00 0x00 0x00 0x00 0x00 0x00,0x7014,NAK
1.084412791666667,765,DATA,0x56C,0x8,0x00 0x00 0x00 0x00 0x00 0x00 0x00 0x00,0x7014,NAK
1.085813208333333,766,DATA,0x56C,0x8,0x00 0x00 0x00 0x00 0x00 0x00 0x00 0x00,0x7014,NAK
1.087213583333333,767,DATA,0x56C,0x8,0x00 0x00 0x00 0x00 0x00 0x00 0x00 0x00,0x7014,NAK
1.088614000000000,768,DATA,0x56C,0x8,0x00 0x00 0x00 0x00 0x00 0x00 0x00 0x00,0x7014,NAK
1.090014375000000,769,DATA,0x56C,0x8,0x00 0x00 0x00 0x00 0x00 0x00 0x00 0x00,0x7014,NAK
1.091414791666667,770,DATA,0x56C,0x8,0x00 0x00 0x00 0x00 0x00 0x00 0x00 0x00,0x7014,NAK
1.092815166666667,771,DATA,0x56C,0x8,0x00 0x00 0x00 0x00 0x00 0x00 0x00 0x00,0x7014,NAK
1.094215583333333,772,DATA,0x56C,0x8,0x00 0x00 0x00 0x00 0x00 0x00 0x00 0x00,0x7014,NAK
1.095615958333333,773,DATA,0x56C,0x8,0x00 0x00 0x00 0x00 0x00 0x00 0x00 0x00,0x7014,NAK
1.097016333333333,774,DATA,0x56C,0x8,0x00 0x00 0x00 0x00 0x00 0x00 0x00 0x00,0x7014,NAK
1.098416750000000,775,DATA,0x56C,0x8,0x00 0x00 0x00 0x00 0x00 0x00 0x00 0x00,0x7014,NAK
1.099817125000000,776,DATA,0x56C,0x8,0x00 0x00 0x00 0x00 0x00 0x00 0x00 0x00,0x7014,NAK
1.101217541666667,777,DATA,0x56C,0x8,0x00 0x00 0x00 0x00 0x00 0x00 0x00 0x00,0x7014,NAK
1.102617916666667,778,DATA,0x56C,0x8,0x00 0x00 0x00 0x00 0x00 0x00 0x00 0x00,0x7014,NAK
1.104018333333333,779,DATA,0x56C,0x8,0x00 0x00 0x00 0x00 0x00 0x00 0x00 0x00,0x7014,NAK
1.105418708333333,780,DATA,0x56C,0x8,0x00 0x00 0x00 0x00 0x00 0x00 0x00 0x00,0x7014,NAK
1.106819125000000,781,DATA,0x56C,0x8,0x00 0x00 0x00 0x00 0x00 0x00 0x00 0x00,0x7014,NAK
1.108219500000000,782,DATA,0x56C,0x8,0x00 0x00 0x00 0x00 0x00 0x00 0x00 0x00,0x7014,NAK
1.109619875000000,783,DATA,0x56C,0x8,0x00 0x00 0x00 0x00 0x00 0x00 0x00 0x00,0x7014,NAK
1.111020291666667,784,DATA,0x56C,0x8,0x00 0x00 0x00 0x00 0x00 0x00 0x00 0x00,0x7014,NAK
1.112420666666667,785,DATA,0x56C,0x8,0x00 0x00 0x00 0x00 0x00 0x00 0x00 0x00,0x7014,NAK
1.113821083333333,786,DATA,0x56C,0x8,0x00 0x00 0x00 0x00 0x00 0x00 0x00 0x00,0x7014,NAK
1.115221458333333,787,DATA,0x56C,0x8,0x00 0x00 0x00 0x00 0x00 0x00 0x00 0x00,0x7014,NAK
1.116621875000000,788,DATA,0x56C,0x8,0x00 0x00 0x00 0x00 0x00 0x00 0x00 0x00,0x7014,NAK
1.118022250000000,789,DATA,0x56C,0x8,0x00 0x00 0x00 0x00 0x00 0x00 0x00 0x00,0x7014,NAK
1.119422666666667,790,DATA,0x56C,0x8,0x00 0x00 0x00 0x00 0x00 0x00 0x00 0x00,0x7014,NAK
1.120823041666667,791,DATA,0x56C,0x8,0x00 0x00 0x00 0x00 0x00 0x00 0x00 0x00,0x7014,NAK
1.122223416666667,792,DATA,0x56C,0x8,0x00 0x00 0x00 0x00 0x00 0x00 0x00 0x00,0x7014,NAK
1.123623833333333,793,DATA,0x56C,0x8,0x00 0x00 0x00 0x00 0x00 0x00 0x00 0x00,0x7014,NAK
1.125224791666667,794,DATA,0x56C,0x8,0x00 0x00 0x00 0x00 0x00 0x00 0x00 0x00,0x7014,NAK
1.126785208333333,795,DATA,0x12A,0x8,0x00 0x00 0x00 0x00 0x00 0x00 0x00 0x00,0x578D,NAK
1.128325666666667,796,DATA,0x12B,0x8,0x00 0x00 0x00 0x00 0x00 0x00 0x00 0x00,0x5C96,NAK
1.129866083333333,797,DATA,0x133,0x8,0x03 0xFF 0x00 0x00 0x00 0x00 0x00 0xFF,0x1073,NAK
1.131406500000000,798,DATA,0x135,0x8,0x00 0x00 0x00 0x00 0xFF 0xFF 0xFF 0x00,0x17F0,NAK
1.132966958333333,799,DATA,0x158,0x8,0x00 0x00 0x00 0x00 0x00 0x00 0x00 0x00,0x43CF,NAK
1.134517375000000,800,DATA,0x15D,0x8,0x00 0x00 0x00 0x00 0x00 0x00 0x00 0xF0,0x43D7,NAK
1.136037833333333,801,DATA,0x161,0x8,0x03 0x00 0x00 0x00 0x00 0x00 0x00 0x00,0x7527,NAK
1.137568250000000,802,DATA,0x164,0x8,0x00 0x00 0x00 0x00 0x00 0x00 0x00 0x00,0x6E99,NAK
1.139118666666667,803,DATA,0x166,0x8,0x00 0x00 0x00 0x00 0x00 0x00 0x00 0x00,0x78AF,NAK
1.140659125000000,804,DATA,0x169,0x8,0x0F 0x00 0x00 0x00 0x00 0x00 0x03 0xE8,0x6C4E,NAK
1.142179541666667,805,DATA,0x16A,0x8,0x03 0x0C 0xF0 0x00 0x00 0x00 0x3C 0x3C,0x2FC4,NAK
1.143699958333333,806,DATA,0x17D,0x8,0x00 0x00 0x00 0x00 0x00 0x00 0x00 0x00,0x4973,NAK
1.145250416666667,807,DATA,0x17F,0x8,0x00 0x00 0x0C 0x00 0x00 0x03 0x00 0x00,0x46A9,NAK
1.146780833333333,808,DATA,0x19D,0x8,0x00 0x00 0x00 0x00 0x00 0x00 0x00 0x00,0x4D9B,NAK
1.148321291666667,809,DATA,0x1AB,0x8,0xFF 0xFF 0xFF 0xFF 0xFF 0x7E 0x00 0x00,0x678D,NAK
1.149691666666667,810,DATA,0x1AB,0x8,0xFF 0xFF 0xFF 0xFF 0xFF 0x7E 0x00 0x00,0x678D,NAK
1.151062041666667,811,DATA,0x1AB,0x8,0xFF 0xFF 0xFF 0xFF 0xFF 0x7E 0x00 0x00,0x678D,NAK
1.152432416666667,812,DATA,0x1AB,0x8,0xFF 0xFF 0xFF 0xFF 0xFF 0x7E 0x00 0x00,0x678D,NAK
1.153802791666667,813,DATA,0x1AB,0x8,0xFF 0xFF 0xFF 0xFF 0xFF 0x7E 0x00 0x00,0x678D,NAK
1.155173208333333,814,DATA,0x1AB,0x8,0xFF 0xFF 0xFF 0xFF 0xFF 0x7E 0x00 0x00,0x678D,NAK
1.156543583333333,815,DATA,0x1AB,0x8,0xFF 0xFF 0xFF 0xFF 0xFF 0x7E 0x00 0x00,0x678D,NAK
1.157913958333333,816,DATA,0x1AB,0x8,0xFF 0xFF 0xFF 0xFF 0xFF 0x7E 0x00 0x00,0x678D,NAK
1.159284333333333,817,DATA,0x1AB,0x8,0xFF 0xFF 0xFF 0xFF 0xFF 0x7E 0x00 0x00,0x678D,NAK
1.160654750000000,818,DATA,0x1AB,0x8,0xFF 0xFF 0xFF 0xFF 0xFF 0x7E 0x00 0x00,0x678D,NAK
1.162025125000000,819,DATA,0x1AB,0x8,0xFF 0xFF 0xFF 0xFF 0xFF 0x7E 0x00 0x00,0x678D,NAK
1.163395500000000,820,DATA,0x1AB,0x8,0xFF 0xFF 0xFF 0xFF 0xFF 0x7E 0x00 0x00,0x678D,NAK
1.164765875000000,821,DATA,0x1AB,0x8,0xFF 0xFF 0xFF 0xFF 0xFF 0x7E 0x00 0x00,0x678D,NAK
1.166136291666667,822,DATA,0x1AB,0x8,0xFF 0xFF 0xFF 0xFF 0xFF 0x7E 0x00 0x00,0x678D,NAK
1.167506666666667,823,DATA,0x1AB,0x8,0xFF 0xFF 0xFF 0xFF 0xFF 0x7E 0x00 0x00,0x678D,NAK
1.168877041666667,824,DATA,0x1AB,0x8,0xFF 0xFF 0xFF 0xFF 0xFF 0x7E 0x00 0x00,0x678D,NAK
1.170247416666667,825,DATA,0x1AB,0x8,0xFF 0xFF 0xFF 0xFF 0xFF 0x7E 0x00 0x00,0x678D,NAK
1.171617833333333,826,DATA,0x1AB,0x8,0xFF 0xFF 0xFF 0xFF 0xFF 0x7E 0x00 0x00,0x678D,NAK
1.172988208333333,827,DATA,0x1AB,0x8,0xFF 0xFF 0xFF 0xFF 0xFF 0x7E 0x00 0x00,0x678D,NAK
1.174358583333333,828,DATA,0x1AB,0x8,0xFF 0xFF 0xFF 0xFF 0xFF 0x7E 0x00 0x00,0x678D,NAK
1.175728958333333,829,DATA,0x1AB,0x8,0xFF 0xFF 0xFF 0xFF 0xFF 0x7E 0x00 0x00,0x678D,NAK
1.177099375000000,830,DATA,0x1AB,0x8,0xFF 0xFF 0xFF 0xFF 0xFF 0x7E 0x00 0x00,0x678D,NAK
1.178469750000000,831,DATA,0x1AB,0x8,0xFF 0xFF 0xFF 0xFF 0xFF 0x7E 0x00 0x00,0x678D,NAK
1.179840125000000,832,DATA,0x1AB,0x8,0xFF 0xFF 0xFF 0xFF 0xFF 0x7E 0x00 0x00,0x678D,NAK
1.181210500000000,833,DATA,0x1AB,0x8,0xFF 0xFF 0xFF 0xFF 0xFF 0x7E 0x00 0x00,0x678D,NAK
1.182580916666667,834,DATA,0x1AB,0x8,0xFF 0xFF 0xFF 0xFF 0xFF 0x7E 0x00 0x00,0x678D,NAK
1.183951291666667,835,DATA,0x1AB,0x8,0xFF 0xFF 0xFF 0xFF 0xFF 0x7E 0x00 0x00,0x678D,NAK
1.185321666666667,836,DATA,0x1AB,0x8,0xFF 0xFF 0xFF 0xFF 0xFF 0x7E 0x00 0x00,0x678D,NAK
1.186692041666667,837,DATA,0x1AB,0x8,0xFF 0xFF 0xFF 0xFF 0xFF 0x7E 0x00 0x00,0x678D,NAK
1.188062458333333,838,DATA,0x1AB,0x8,0xFF 0xFF 0xFF 0xFF 0xFF 0x7E 0x00 0x00,0x678D,NAK
1.189432833333333,839,DATA,0x1AB,0x8,0xFF 0xFF 0xFF 0xFF 0xFF 0x7E 0x00 0x00,0x678D,NAK
1.190803208333333,840,DATA,0x1AB,0x8,0xFF 0xFF 0xFF 0xFF 0xFF 0x7E 0x00 0x00,0x678D,NAK
1.192173583333333,841,DATA,0x1AB,0x8,0xFF 0xFF 0xFF 0xFF 0xFF 0x7E 0x00 0x00,0x678D,NAK
1.193544000000000,842,DATA,0x1AB,0x8,0xFF 0xFF 0xFF 0xFF 0xFF 0x7E 0x00 0x00,0x678D,NAK
1.194914375000000,843,DATA,0x1AB,0x8,0xFF 0xFF 0xFF 0xFF 0xFF 0x7E 0x00 0x00,0x678D,NAK
1.196284750000000,844,DATA,0x1AB,0x8,0xFF 0xFF 0xFF 0xFF 0xFF 0x7E 0x00 0x00,0x678D,NAK
1.197655125000000,845,DATA,0x1AB,0x8,0xFF 0xFF 0xFF 0xFF 0xFF 0x7E 0x00 0x00,0x678D,NAK
1.199025500000000,846,DATA,0x1AB,0x8,0xFF 0xFF 0xFF 0xFF 0xFF 0x7E 0x00 0x00,0x678D,NAK
1.200395916666667,847,DATA,0x1AB,0x8,0xFF 0xFF 0xFF 0xFF 0xFF 0x7E 0x00 0x00,0x678D,NAK
1.201766291666667,848,DATA,0x1AB,0x8,0xFF 0xFF 0xFF 0xFF 0xFF 0x7E 0x00 0x00,0x678D,NAK
1.203136666666667,849,DATA,0x1AB,0x8,0xFF 0xFF 0xFF 0xFF 0xFF 0x7E 0x00 0x00,0x678D,NAK
1.204507041666667,850,DATA,0x1AB,0x8,0xFF 0xFF 0xFF 0xFF 0xFF 0x7E 0x00 0x00,0x678D,NAK
1.205877458333333,851,DATA,0x1AB,0x8,0xFF 0xFF 0xFF 0xFF 0xFF 0x7E 0x00 0x00,0x678D,NAK
1.207247833333333,852,DATA,0x1AB,0x8,0xFF 0xFF 0xFF 0xFF 0xFF 0x7E 0x00 0x00,0x678D,NAK
1.208618208333333,853,DATA,0x1AB,0x8,0xFF 0xFF 0xFF 0xFF 0xFF 0x7E 0x00 0x00,0x678D,NAK
1.209988583333333,854,DATA,0x1AB,0x8,0xFF 0xFF 0xFF 0xFF 0xFF 0x7E 0x00 0x00,0x678D,NAK
1.211359000000000,855,DATA,0x1AB,0x8,0xFF 0xFF 0xFF 0xFF 0xFF 0x7E 0x00 0x00,0x678D,NAK
1.212729375000000,856,DATA,0x1AB,0x8,0xFF 0xFF 0xFF 0xFF 0xFF 0x7E 0x00 0x00,0x678D,NAK
1.214099750000000,857,DATA,0x1AB,0x8,0xFF 0xFF 0xFF 0xFF 0xFF 0x7E 0x00 0x00,0x678D,NAK
1.215470125000000,858,DATA,0x1AB,0x8,0xFF 0xFF 0xFF 0xFF 0xFF 0x7E 0x00 0x00,0x678D,NAK
1.216840541666667,859,DATA,0x1AB,0x8,0xFF 0xFF 0xFF 0xFF 0xFF 0x7E 0x00 0x00,0x678D,NAK
1.218210916666667,860,DATA,0x1AB,0x8,0xFF 0xFF 0xFF 0xFF 0xFF 0x7E 0x00 0x00,0x678D,NAK
1.219581291666667,861,DATA,0x1AB,0x8,0xFF 0xFF 0xFF 0xFF 0xFF 0x7E 0x00 0x00,0x678D,NAK
1.220951666666667,862,DATA,0x1AB,0x8,0xFF 0xFF 0xFF 0xFF 0xFF 0x7E 0x00 0x00,0x678D,NAK
1.222322083333333,863,DATA,0x1AB,0x8,0xFF 0xFF 0xFF 0xFF 0xFF 0x7E 0x00 0x00,0x678D,NAK
1.223692458333333,864,DATA,0x1AB,0x8,0xFF 0xFF 0xFF 0xFF 0xFF 0x7E 0x00 0x00,0x678D,NAK
1.225062833333333,865,DATA,0x1AB,0x8,0xFF 0xFF 0xFF 0xFF 0xFF 0x7E 0x00 0x00,0x678D,NAK
1.226433208333333,866,DATA,0x1AB,0x8,0xFF 0xFF 0xFF 0xFF 0xFF 0x7E 0x00 0x00,0x678D,NAK
1.227803625000000,867,DATA,0x1AB,0x8,0xFF 0xFF 0xFF 0xFF 0xFF 0x7E 0x00 0x00,0x678D,NAK
1.229174000000000,868,DATA,0x1AB,0x8,0xFF 0xFF 0xFF 0xFF 0xFF 0x7E 0x00 0x00,0x678D,NAK
1.230544375000000,869,DATA,0x1AB,0x8,0xFF 0xFF 0xFF 0xFF 0xFF 0x7E 0x00 0x00,0x678D,NAK
1.231914750000000,870,DATA,0x1AB,0x8,0xFF 0xFF 0xFF 0xFF 0xFF 0x7E 0x00 0x00,0x678D,NAK
1.233285166666667,871,DATA,0x1AB,0x8,0xFF 0xFF 0xFF 0xFF 0xFF 0x7E 0x00 0x00,0x678D,NAK
1.234655541666667,872,DATA,0x1AB,0x8,0xFF 0xFF 0xFF 0xFF 0xFF 0x7E 0x00 0x00,0x678D,NAK
1.236216458333333,873,DATA,0x1AB,0x8,0xFF 0xFF 0xFF 0xFF 0xFF 0x7E 0x00 0x00,0x678D,NAK
1.237746916666667,874,DATA,0x157,0x8,0xCF 0xFF 0x00 0x00 0x00 0x00 0x00 0x00,0x01DE,NAK
1.239277333333333,875,DATA,0x15E,0x8,0x00 0x00 0x00 0x00 0x00 0x00 0x0D 0x0F,0x3D85,NAK
1.240797750000000,876,DATA,0x17A,0x8,0x00 0x00 0x00 0x00 0xC0 0x00 0x00 0x00,0x523C,NAK
1.242338208333333,877,DATA,0x17B,0x8,0x00 0x00 0x20 0x00 0x00 0x00 0x00 0x00,0x6554,NAK
1.243878625000000,878,DATA,0x16A,0x8,0x03 0x0C 0xF0 0x00 0x00 0x00 0x3C 0x3C,0x2FC4,NAK
1.245399041666667,879,DATA,0x455,0x8,0x55 0x04 0x00 0x00 0x00 0x00 0xFF 0xFF,0x3CD0,NAK
1.246909458333333,880,DATA,0x55C,0x8,0x00 0x00 0x00 0x00 0x00 0x30 0xC0 0x00,0x6D05,NAK
1.248449916666667,881,DATA,0x55D,0x8,0x00 0x00 0x00 0x00 0x00 0x00 0xFF 0x00,0x7274,NAK
1.249980333333333,882,DATA,0x55E,0x8,0x00 0x00 0x00 0x3F 0xC0 0xFF 0x00 0x00,0x533C,NAK
1.251500750000000,883,DATA,0x56A,0x8,0x00 0x00 0x00 0x00 0x00 0x00 0x00 0x00,0x4A4E,NAK
1.253041208333333,884,DATA,0x56B,0x8,0x00 0x00 0x00 0x00 0x00 0x00 0x00 0x00,0x4155,NAK
1.254591625000000,885,DATA,0x15D,0x8,0x00 0x00 0x00 0x00 0x00 0x00 0x00 0xF0,0x43D7,NAK
1.256112083333333,886,DATA,0x17F,0x8,0x00 0x00 0x0C 0x00 0x00 0x03 0x00 0x00,0x46A9,NAK
1.257642500000000,887,DATA,0x56C,0x8,0x00 0x00 0x00 0x00 0x00 0x00 0x00 0x00,0x7014,NAK
1.259202916666667,888,DATA,0x56D,0x8,0x00 0x00 0x00 0x00 0x00 0x00 0x00 0x00,0x7B0F,NAK
1.260583333333333,889,DATA,0x56D,0x8,0x00 0x00 0x00 0x00 0x00 0x00 0x00 0x00,0x7B0F,NAK
1.261963708333333,890,DATA,0x56D,0x8,0x00 0x00 0x00 0x00 0x00 0x00 0x00 0x00,0x7B0F,NAK
1.263344083333333,891,DATA,0x56D,0x8,0x00 0x00 0x00 0x00 0x00 0x00 0x00 0x00,0x7B0F,NAK
1.264724500000000,892,DATA,0x56D,0x8,0x00 0x00 0x00 0x00 0x00 0x00 0x00 0x00,0x7B0F,NAK
1.266104875000000,893,DATA,0x56D,0x8,0x00 0x00 0x00 0x00 0x00 0x00 0x00 0x00,0x7B0F,NAK
1.267485250000000,894,DATA,0x56D,0x8,0x00 0x00 0x00 0x00 0x00 0x00 0x00 0x00,0x7B0F,NAK
1.268865666666667,895,DATA,0x56D,0x8,0x00 0x00 0x00 0x00 0x00 0x00 0x00 0x00,0x7B0F,NAK
1.270246041666667,896,DATA,0x56D,0x8,0x00 0x00 0x00 0x00 0x00 0x00 0x00 0x00,0x7B0F,NAK
1.271626416666667,897,DATA,0x56D,0x8,0x00 0x00 0x00 0x00 0x00 0x00 0x00 0x00,0x7B0F,NAK
1.273006791666667,898,DATA,0x56D,0x8,0x00 0x00 0x00 0x00 0x00 0x00 0x00 0x00,0x7B0F,NAK
1.274387208333333,899,DATA,0x56D,0x8,0x00 0x00 0x00 0x00 0x00 0x00 0x00 0x00,0x7B0F,NAK
1.275767583333333,900,DATA,0x56D,0x8,0x00 0x00 0x00 0x00 0x00 0x00 0x00 0x00,0x7B0F,NAK
1.277147958333333,901,DATA,0x56D,0x8,0x00 0x00 0x00 0x00 0x00 0x00 0x00 0x00,0x7B0F,NAK
1.278528375000000,902,DATA,0x56D,0x8,0x00 0x00 0x00 0x00 0x00 0x00 0x00 0x00,0x7B0F,NAK
1.279908750000000,903,DATA,0x56D,0x8,0x00 0x00 0x00 0x00 0x00 0x00 0x00 0x00,0x7B0F,NAK
1.281289125000000,904,DATA,0x56D,0x8,0x00 0x00 0x00 0x00 0x00 0x00 0x00 0x00,0x7B0F,NAK
1.282669541666667,905,DATA,0x56D,0x8,0x00 0x00 0x00 0x00 0x00 0x00 0x00 0x00,0x7B0F,NAK
1.284049916666667,906,DATA,0x56D,0x8,0x00 0x00 0x00 0x00 0x00 0x00 0x00 0x00,0x7B0F,NAK
1.285430291666667,907,DATA,0x56D,0x8,0x00 0x00 0x00 0x00 0x00 0x00 0x00 0x00,0x7B0F,NAK
1.286810708333333,908,DATA,0x56D,0x8,0x00 0x00 0x00 0x00 0x00 0x00 0x00 0x00,0x7B0F,NAK
1.288191083333333,909,DATA,0x56D,0x8,0x00 0x00 0x00 0x00 0x00 0x00 0x00 0x00,0x7B0F,NAK
1.289571458333333,910,DATA,0x56D,0x8,0x00 0x00 0x00 0x00 0x00 0x00 0x00 0x00,0x7B0F,NAK
1.290951875000000,911,DATA,0x56D,0x8,0x00 0x00 0x00 0x00 0x00 0x00 0x00 0x00,0x7B0F,NAK
1.292332250000000,912,DATA,0x56D,0x8,0x00 0x00 0x00 0x00 0x00 0x00 0x00 0x00,0x7B0F,NAK
1.293712625000000,913,DATA,0x56D,0x8,0x00 0x00 0x00 0x00 0x00 0x00 0x00 0x00,0x7B0F,NAK
1.295093000000000,914,DATA,0x56D,0x8,0x00 0x00 0x00 0x00 0x00 0x00 0x00 0x00,0x7B0F,NAK
1.296473416666667,915,DATA,0x56D,0x8,0x00 0x00 0x00 0x00 0x00 0x00 0x00 0x00,0x7B0F,NAK
1.297853791666667,916,DATA,0x56D,0x8,0x00 0x00 0x00 0x00 0x00 0x00 0x00 0x00,0x7B0F,NAK
1.299234166666667,917,DATA,0x56D,0x8,0x00 0x00 0x00 0x00 0x00 0x00 0x00 0x00,0x7B0F,NAK
1.300614583333333,918,DATA,0x56D,0x8,0x00 0x00 0x00 0x00 0x00 0x00 0x00 0x00,0x7B0F,NAK
1.301994958333333,919,DATA,0x56D,0x8,0x00 0x00 0x00 0x00 0x00 0x00 0x00 0x00,0x7B0F,NAK
1.303375333333333,920,DATA,0x56D,0x8,0x00 0x00 0x00 0x00 0x00 0x00 0x00 0x00,0x7B0F,NAK
1.304755750000000,921,DATA,0x56D,0x8,0x00 0x00 0x00 0x00 0x00 0x00 0x00 0x00,0x7B0F,NAK
1.306136125000000,922,DATA,0x56D,0x8,0x00 0x00 0x00 0x00 0x00 0x00 0x00 0x00,0x7B0F,NAK
1.307516500000000,923,DATA,0x56D,0x8,0x00 0x00 0x00 0x00 0x00 0x00 0x00 0x00,0x7B0F,NAK
1.308896916666667,924,DATA,0x56D,0x8,0x00 0x00 0x00 0x00 0x00 0x00 0x00 0x00,0x7B0F,NAK
1.310277291666667,925,DATA,0x56D,0x8,0x00 0x00 0x00 0x00 0x00 0x00 0x00 0x00,0x7B0F,NAK
1.311657666666667,926,DATA,0x56D,0x8,0x00 0x00 0x00 0x00 0x00 0x00 0x00 0x00,0x7B0F,NAK
1.313038041666667,927,DATA,0x56D,0x8,0x00 0x00 0x00 0x00 0x00 0x00 0x00 0x00,0x7B0F,NAK
1.314418458333333,928,DATA,0x56D,0x8,0x00 0x00 0x00 0x00 0x00 0x00 0x00 0x00,0x7B0F,NAK
1.315798833333333,929,DATA,0x56D,0x8,0x00 0x00 0x00 0x00 0x00 0x00 0x00 0x00,0x7B0F,NAK
1.317179208333333,930,DATA,0x56D,0x8,0x00 0x00 0x00 0x00 0x00 0x00 0x00 0x00,0x7B0F,NAK
1.318559625000000,931,DATA,0x56D,0x8,0x00 0x00 0x00 0x00 0x00 0x00 0x00 0x00,0x7B0F,NAK
1.319940000000000,932,DATA,0x56D,0x8,0x00 0x00 0x00 0x00 0x00 0x00 0x00 0x00,0x7B0F,NAK
1.321320375000000,933,DATA,0x56D,0x8,0x00 0x00 0x00 0x00 0x00 0x00 0x00 0x00,0x7B0F,NAK
1.322700791666667,934,DATA,0x56D,0x8,0x00 0x00 0x00 0x00 0x00 0x00 0x00 0x00,0x7B0F,NAK
1.324081166666667,935,DATA,0x56D,0x8,0x00 0x00 0x00 0x00 0x00 0x00 0x00 0x00,0x7B0F,NAK
1.325461541666667,936,DATA,0x56D,0x8,0x00 0x00 0x00 0x00 0x00 0x00 0x00 0x00,0x7B0F,NAK
1.326841958333333,937,DATA,0x56D,0x8,0x00 0x00 0x00 0x00 0x00 0x00 0x00 0x00,0x7B0F,NAK
1.328222333333333,938,DATA,0x56D,0x8,0x00 0x00 0x00 0x00 0x00 0x00 0x00 0x00,0x7B0F,NAK
1.329602708333333,939,DATA,0x56D,0x8,0x00 0x00 0x00 0x00 0x00 0x00 0x00 0x00,0x7B0F,NAK
1.330983125000000,940,DATA,0x56D,0x8,0x00 0x00 0x00 0x00 0x00 0x00 0x00 0x00,0x7B0F,NAK
1.332363500000000,941,DATA,0x56D,0x8,0x00 0x00 0x00 0x00 0x00 0x00 0x00 0x00,0x7B0F,NAK
1.333743875000000,942,DATA,0x56D,0x8,0x00 0x00 0x00 0x00 0x00 0x00 0x00 0x00,0x7B0F,NAK
1.335124250000000,943,DATA,0x56D,0x8,0x00 0x00 0x00 0x00 0x00 0x00 0x00 0x00,0x7B0F,NAK
1.336504666666667,944,DATA,0x56D,0x8,0x00 0x00 0x00 0x00 0x00 0x00 0x00 0x00,0x7B0F,NAK
1.337885041666667,945,DATA,0x56D,0x8,0x00 0x00 0x00 0x00 0x00 0x00 0x00 0x00,0x7B0F,NAK
1.339265416666667,946,DATA,0x56D,0x8,0x00 0x00 0x00 0x00 0x00 0x00 0x00 0x00,0x7B0F,NAK
1.340645833333333,947,DATA,0x56D,0x8,0x00 0x00 0x00 0x00 0x00 0x00 0x00 0x00,0x7B0F,NAK
1.342026208333333,948,DATA,0x56D,0x8,0x00 0x00 0x00 0x00 0x00 0x00 0x00 0x00,0x7B0F,NAK
1.343406583333333,949,DATA,0x56D,0x8,0x00 0x00 0x00 0x00 0x00 0x00 0x00 0x00,0x7B0F,NAK
1.344787000000000,950,DATA,0x56D,0x8,0x00 0x00 0x00 0x00 0x00 0x00 0x00 0x00,0x7B0F,NAK
1.346167375000000,951,DATA,0x56D,0x8,0x00 0x00 0x00 0x00 0x00 0x00 0x00 0x00,0x7B0F,NAK
1.347708291666667,952,DATA,0x56D,0x8,0x00 0x00 0x00 0x00 0x00 0x00 0x00 0x00,0x7B0F,NAK
1.349248750000000,953,DATA,0x12A,0x8,0x00 0x00 0x00 0x00 0x00 0x00 0x00 0x00,0x578D,NAK
1.350789166666667,954,DATA,0x12B,0x8,0x00 0x00 0x00 0x00 0x00 0x00 0x00 0x00,0x5C96,NAK
1.352329625000000,955,DATA,0x133,0x8,0x03 0xFF 0x00 0x00 0x00 0x00 0x00 0xFF,0x1073,NAK
1.353870041666667,956,DATA,0x135,0x8,0x00 0x00 0x00 0x00 0xFF 0xFF 0xFF 0x00,0x17F0,NAK
1.355430458333333,957,DATA,0x158,0x8,0x00 0x00 0x00 0x00 0x00 0x00 0x00 0x00,0x43CF,NAK
1.356980916666667,958,DATA,0x161,0x8,0x03 0x00 0x00 0x00 0x00 0x00 0x00 0x00,0x7527,NAK
1.358511333333333,959,DATA,0x164,0x8,0x00 0x00 0x00 0x00 0x00 0x00 0x00 0x00,0x6E99,NAK
1.360061791666667,960,DATA,0x166,0x8,0x00 0x00 0x00 0x00 0x00 0x00 0x00 0x00,0x78AF,NAK
1.361602208333333,961,DATA,0x169,0x8,0x0F 0x00 0x00 0x00 0x00 0x00 0x03 0xE8,0x6C4E,NAK
1.363122625000000,962,DATA,0x17D,0x8,0x00 0x00 0x00 0x00 0x00 0x00 0x00 0x00,0x4973,NAK
1.364673083333333,963,DATA,0x19D,0x8,0x00 0x00 0x00 0x00 0x00 0x00 0x00 0x00,0x4D9B,NAK
1.366213500000000,964,DATA,0x19F,0x8,0x00 0xFF 0x00 0x00 0x00 0x00 0x00 0x00,0x07E5,NAK
1.367773958333333,965,DATA,0x1AB,0x8,0xFF 0xFF 0xFF 0xFF 0xFF 0x7E 0x00 0x00,0x678D,NAK
1.369304375000000,966,DATA,0x531,0x8,0xFF 0x00 0xFF 0x00 0x00 0x00 0x00 0x00,0x2C15,NAK
1.370834791666667,967,DATA,0x55C,0x8,0x00 0x00 0x00 0x00 0x00 0x30 0xC0 0x00,0x6D05,NAK
1.372215208333333,968,DATA,0x55C,0x8,0x00 0x00 0x00 0x00 0x00 0x30 0xC0 0x00,0x6D05,NAK
1.373595583333333,969,DATA,0x55C,0x8,0x00 0x00 0x00 0x00 0x00 0x30 0xC0 0x00,0x6D05,NAK
1.374975958333333,970,DATA,0x55C,0x8,0x00 0x00 0x00 0x00 0x00 0x30 0xC0 0x00,0x6D05,NAK
1.376356375000000,971,DATA,0x55C,0x8,0x00 0x00 0x00 0x00 0x00 0x30 0xC0 0x00,0x6D05,NAK
1.377736750000000,972,DATA,0x55C,0x8,0x00 0x00 0x00 0x00 0x00 0x30 0xC0 0x00,0x6D05,NAK
1.379117125000000,973,DATA,0x55C,0x8,0x00 0x00 0x00 0x00 0x00 0x30 0xC0 0x00,0x6D05,NAK
1.380497500000000,974,DATA,0x55C,0x8,0x00 0x00 0x00 0x00 0x00 0x30 0xC0 0x00,0x6D05,NAK
1.381877916666667,975,DATA,0x55C,0x8,0x00 0x00 0x00 0x00 0x00 0x30 0xC0 0x00,0x6D05,NAK
1.383258291666667,976,DATA,0x55C,0x8,0x00 0x00 0x00 0x00 0x00 0x30 0xC0 0x00,0x6D05,NAK
1.384638666666667,977,DATA,0x55C,0x8,0x00 0x00 0x00 0x00 0x00 0x30 0xC0 0x00,0x6D05,NAK
1.386019083333333,978,DATA,0x55C,0x8,0x00 0x00 0x00 0x00 0x00 0x30 0xC0 0x00,0x6D05,NAK
1.387399458333333,979,DATA,0x55C,0x8,0x00 0x00 0x00 0x00 0x00 0x30 0xC0 0x00,0x6D05,NAK
1.388779833333333,980,DATA,0x55C,0x8,0x00 0x00 0x00 0x00 0x00 0x30 0xC0 0x00,0x6D05,NAK
1.390160250000000,981,DATA,0x55C,0x8,0x00 0x00 0x00 0x00 0x00 0x30 0xC0 0x00,0x6D05,NAK
1.391540625000000,982,DATA,0x55C,0x8,0x00 0x00 0x00 0x00 0x00 0x30 0xC0 0x00,0x6D05,NAK
1.392921000000000,983,DATA,0x55C,0x8,0x00 0x00 0x00 0x00 0x00 0x30 0xC0 0x00,0x6D05,NAK
1.394301416666667,984,DATA,0x55C,0x8,0x00 0x00 0x00 0x00 0x00 0x30 0xC0 0x00,0x6D05,NAK
1.395681791666667,985,DATA,0x55C,0x8,0x00 0x00 0x00 0x00 0x00 0x30 0xC0 0x00,0x6D05,NAK
1.397062166666667,986,DATA,0x55C,0x8,0x00 0x00 0x00 0x00 0x00 0x30 0xC0 0x00,0x6D05,NAK
1.398442583333333,987,DATA,0x55C,0x8,0x00 0x00 0x00 0x00 0x00 0x30 0xC0 0x00,0x6D05,NAK
1.399822958333333,988,DATA,0x55C,0x8,0x00 0x00 0x00 0x00 0x00 0x30 0xC0 0x00,0x6D05,NAK
1.401203333333333,989,DATA,0x55C,0x8,0x00 0x00 0x00 0x00 0x00 0x30 0xC0 0x00,0x6D05,NAK
1.402583708333333,990,DATA,0x55C,0x8,0x00 0x00 0x00 0x00 0x00 0x30 0xC0 0x00,0x6D05,NAK
1.403964125000000,991,DATA,0x55C,0x8,0x00 0x00 0x00 0x00 0x00 0x30 0xC0 0x00,0x6D05,NAK
1.405344500000000,992,DATA,0x55C,0x8,0x00 0x00 0x00 0x00 0x00 0x30 0xC0 0x00,0x6D05,NAK
1.406724875000000,993,DATA,0x55C,0x8,0x00 0x00 0x00 0x00 0x00 0x30 0xC0 0x00,0x6D05,NAK
1.408105291666667,994,DATA,0x55C,0x8,0x00 0x00 0x00 0x00 0x00 0x30 0xC0 0x00,0x6D05,NAK
1.409485666666667,995,DATA,0x55C,0x8,0x00 0x00 0x00 0x00 0x00 0x30 0xC0 0x00,0x6D05,NAK
1.410866041666667,996,DATA,0x55C,0x8,0x00 0x00 0x00 0x00 0x00 0x30 0xC0 0x00,0x6D05,NAK
1.412246458333333,997,DATA,0x55C,0x8,0x00 0x00 0x00 0x00 0x00 0x30 0xC0 0x00,0x6D05,NAK
1.413626833333333,998,DATA,0x55C,0x8,0x00 0x00 0x00 0x00 0x00 0x30 0xC0 0x00,0x6D05,NAK
1.415007208333333,999,DATA,0x55C,0x8,0x00 0x00 0x00 0x00 0x00 0x30 0xC0 0x00,0x6D05,NAK
1.416387625000000,1000,DATA,0x55C,0x8,0x00 0x00 0x00 0x00 0x00 0x30 0xC0 0x00,0x6D05,NAK
1.417768000000000,1001,DATA,0x55C,0x8,0x00 0x00 0x00 0x00 0x00 0x30 0xC0 0x00,0x6D05,NAK
1.419148375000000,1002,DATA,0x55C,0x8,0x00 0x00 0x00 0x00 0x00 0x30 0xC0 0x00,0x6D05,NAK
1.420528791666667,1003,DATA,0x55C,0x8,0x00 0x00 0x00 0x00 0x00 0x30 0xC0 0x00,0x6D05,NAK
1.421909166666667,1004,DATA,0x55C,0x8,0x00 0x00 0x00 0x00 0x00 0x30 0xC0 0x00,0x6D05,NAK
1.423289541666667,1005,DATA,0x55C,0x8,0x00 0x00 0x00 0x00 0x00 0x30 0xC0 0x00,0x6D05,NAK
1.424669916666667,1006,DATA,0x55C,0x8,0x00 0x00 0x00 0x00 0x00 0x30 0xC0 0x00,0x6D05,NAK
1.426050333333333,1007,DATA,0x55C,0x8,0x00 0x00 0x00 0x00 0x00 0x30 0xC0 0x00,0x6D05,NAK
1.427430708333333,1008,DATA,0x55C,0x8,0x00 0x00 0x00 0x00 0x00 0x30 0xC0 0x00,0x6D05,NAK
1.428811083333333,1009,DATA,0x55C,0x8,0x00 0x00 0x00 0x00 0x00 0x30 0xC0 0x00,0x6D05,NAK
1.430191500000000,1010,DATA,0x55C,0x8,0x00 0x00 0x00 0x00 0x00 0x30 0xC0 0x00,0x6D05,NAK
1.431571875000000,1011,DATA,0x55C,0x8,0x00 0x00 0x00 0x00 0x00 0x30 0xC0 0x00,0x6D05,NAK
1.432952250000000,1012,DATA,0x55C,0x8,0x00 0x00 0x00 0x00 0x00 0x30 0xC0 0x00,0x6D05,NAK
1.434332666666667,1013,DATA,0x55C,0x8,0x00 0x00 0x00 0x00 0x00 0x30 0xC0 0x00,0x6D05,NAK
1.435713041666667,1014,DATA,0x55C,0x8,0x00 0x00 0x00 0x00 0x00 0x30 0xC0 0x00,0x6D05,NAK
1.437093416666667,1015,DATA,0x55C,0x8,0x00 0x00 0x00 0x00 0x00 0x30 0xC0 0x00,0x6D05,NAK
1.438473833333333,1016,DATA,0x55C,0x8,0x00 0x00 0x00 0x00 0x00 0x30 0xC0 0x00,0x6D05,NAK
1.439854208333333,1017,DATA,0x55C,0x8,0x00 0x00 0x00 0x00 0x00 0x30 0xC0 0x00,0x6D05,NAK
1.441234583333333,1018,DATA,0x55C,0x8,0x00 0x00 0x00 0x00 0x00 0x30 0xC0 0x00,0x6D05,NAK
1.442615000000000,1019,DATA,0x55C,0x8,0x00 0x00 0x00 0x00 0x00 0x30 0xC0 0x00,0x6D05,NAK
1.443995375000000,1020,DATA,0x55C,0x8,0x00 0x00 0x00 0x00 0x00 0x30 0xC0 0x00,0x6D05,NAK
1.445375750000000,1021,DATA,0x55C,0x8,0x00 0x00 0x00 0x00 0x00 0x30 0xC0 0x00,0x6D05,NAK
1.446756125000000,1022,DATA,0x55C,0x8,0x00 0x00 0x00 0x00 0x00 0x30 0xC0 0x00,0x6D05,NAK
1.448136541666667,1023,DATA,0x55C,0x8,0x00 0x00 0x00 0x00 0x00 0x30 0xC0 0x00,0x6D05,NAK
1.449516916666667,1024,DATA,0x55C,0x8,0x00 0x00 0x00 0x00 0x00 0x30 0xC0 0x00,0x6D05,NAK
1.450897291666667,1025,DATA,0x55C,0x8,0x00 0x00 0x00 0x00 0x00 0x30 0xC0 0x00,0x6D05,NAK
1.452277708333333,1026,DATA,0x55C,0x8,0x00 0x00 0x00 0x00 0x00 0x30 0xC0 0x00,0x6D05,NAK
1.453658083333333,1027,DATA,0x55C,0x8,0x00 0x00 0x00 0x00 0x00 0x30 0xC0 0x00,0x6D05,NAK
1.455038458333333,1028,DATA,0x55C,0x8,0x00 0x00 0x00 0x00 0x00 0x30 0xC0 0x00,0x6D05,NAK
1.456418875000000,1029,DATA,0x55C,0x8,0x00 0x00 0x00 0x00 0x00 0x30 0xC0 0x00,0x6D05,NAK
1.457799250000000,1030,DATA,0x55C,0x8,0x00 0x00 0x00 0x00 0x00 0x30 0xC0 0x00,0x6D05,NAK
1.459370166666667,1031,DATA,0x55C,0x8,0x00 0x00 0x00 0x00 0x00 0x30 0xC0 0x00,0x6D05,NAK
1.460910625000000,1032,DATA,0x126,0x8,0x0F 0x00 0x00 0x00 0x00 0x00 0xFF 0xFF,0x7941,NAK
1.462461041666667,1033,DATA,0x157,0x8,0xCF 0xFF 0x00 0x00 0x00 0x00 0x00 0x00,0x01DE,NAK
1.463991500000000,1034,DATA,0x135,0x8,0x00 0x00 0x00 0x00 0xFF 0xFF 0xFF 0x00,0x17F0,NAK
1.465551916666667,1035,DATA,0x15D,0x8,0x00 0x00 0x00 0x00 0x00 0x00 0x00 0xF0,0x43D7,NAK
1.467072333333333,1036,DATA,0x15E,0x8,0x00 0x00 0x00 0x00 0x00 0x00 0x0D 0x0F,0x3D85,NAK
1.468592791666667,1037,DATA,0x169,0x8,0x0F 0x00 0x00 0x00 0x00 0x00 0x03 0xE8,0x6C4E,NAK
1.470113208333333,1038,DATA,0x16A,0x8,0x03 0x0C 0xF0 0x00 0x00 0x00 0x3C 0x3C,0x2FC4,NAK
1.471633625000000,1039,DATA,0x17A,0x8,0x00 0x00 0x00 0x00 0xC0 0x00 0x00 0x00,0x523C,NAK
1.473174083333333,1040,DATA,0x17B,0x8,0x00 0x00 0x20 0x00 0x00 0x00 0x00 0x00,0x6554,NAK
1.474714500000000,1041,DATA,0x12A,0x8,0x00 0x00 0x00 0x00 0x00 0x00 0x00 0x00,0x578D,NAK
1.476254916666667,1042,DATA,0x158,0x8,0x00 0x00 0x00 0x00 0x00 0x00 0x00 0x00,0x43CF,NAK
1.477805375000000,1043,DATA,0x161,0x8,0x03 0x00 0x00 0x00 0x00 0x00 0x00 0x00,0x7527,NAK
1.479335791666667,1044,DATA,0x17F,0x8,0x00 0x00 0x0C 0x00 0x00 0x03 0x00 0x00,0x46A9,NAK
1.480866208333333,1045,DATA,0x55D,0x8,0x00 0x00 0x00 0x00 0x00 0x00 0xFF 0x00,0x7274,NAK
1.482396666666667,1046,DATA,0x55E,0x8,0x00 0x00 0x00 0x3F 0xC0 0xFF 0x00 0x00,0x533C,NAK
1.483757041666667,1047,DATA,0x55E,0x8,0x00 0x00 0x00 0x3F 0xC0 0xFF 0x00 0x00,0x533C,NAK
1.485117416666667,1048,DATA,0x55E,0x8,0x00 0x00 0x00 0x3F 0xC0 0xFF 0x00 0x00,0x533C,NAK
1.486477791666667,1049,DATA,0x55E,0x8,0x00 0x00 0x00 0x3F 0xC0 0xFF 0x00 0x00,0x533C,NAK
1.487838166666667,1050,DATA,0x55E,0x8,0x00 0x00 0x00 0x3F 0xC0 0xFF 0x00 0x00,0x533C,NAK
1.489198583333333,1051,DATA,0x55E,0x8,0x00 0x00 0x00 0x3F 0xC0 0xFF 0x00 0x00,0x533C,NAK
1.490558958333333,1052,DATA,0x55E,0x8,0x00 0x00 0x00 0x3F 0xC0 0xFF 0x00 0x00,0x533C,NAK
1.491919333333333,1053,DATA,0x55E,0x8,0x00 0x00 0x00 0x3F 0xC0 0xFF 0x00 0x00,0x533C,NAK
1.493279708333333,1054,DATA,0x55E,0x8,0x00 0x00 0x00 0x3F 0xC0 0xFF 0x00 0x00,0x533C,NAK
1.494640083333333,1055,DATA,0x55E,0x8,0x00 0x00 0x00 0x3F 0xC0 0xFF 0x00 0x00,0x533C,NAK
1.496000500000000,1056,DATA,0x55E,0x8,0x00 0x00 0x00 0x3F 0xC0 0xFF 0x00 0x00,0x533C,NAK
1.497360875000000,1057,DATA,0x55E,0x8,0x00 0x00 0x00 0x3F 0xC0 0xFF 0x00 0x00,0x533C,NAK
1.498721250000000,1058,DATA,0x55E,0x8,0x00 0x00 0x00 0x3F 0xC0 0xFF 0x00 0x00,0x533C,NAK
1.500081625000000,1059,DATA,0x55E,0x8,0x00 0x00 0x00 0x3F 0xC0 0xFF 0x00 0x00,0x533C,NAK
1.501442000000000,1060,DATA,0x55E,0x8,0x00 0x00 0x00 0x3F 0xC0 0xFF 0x00 0x00,0x533C,NAK
1.502802375000000,1061,DATA,0x55E,0x8,0x00 0x00 0x00 0x3F 0xC0 0xFF 0x00 0x00,0x533C,NAK
1.504162791666667,1062,DATA,0x55E,0x8,0x00 0x00 0x00 0x3F 0xC0 0xFF 0x00 0x00,0x533C,NAK
1.505523166666667,1063,DATA,0x55E,0x8,0x00 0x00 0x00 0x3F 0xC0 0xFF 0x00 0x00,0x533C,NAK
1.506883541666667,1064,DATA,0x55E,0x8,0x00 0x00 0x00 0x3F 0xC0 0xFF 0x00 0x00,0x533C,NAK
1.508243916666667,1065,DATA,0x55E,0x8,0x00 0x00 0x00 0x3F 0xC0 0xFF 0x00 0x00,0x533C,NAK
1.509604291666667,1066,DATA,0x55E,0x8,0x00 0x00 0x00 0x3F 0xC0 0xFF 0x00 0x00,0x533C,NAK
1.510964666666667,1067,DATA,0x55E,0x8,0x00 0x00 0x00 0x3F 0xC0 0xFF 0x00 0x00,0x533C,NAK
1.512325083333333,1068,DATA,0x55E,0x8,0x00 0x00 0x00 0x3F 0xC0 0xFF 0x00 0x00,0x533C,NAK
1.513685458333333,1069,DATA,0x55E,0x8,0x00 0x00 0x00 0x3F 0xC0 0xFF 0x00 0x00,0x533C,NAK
1.515045833333333,1070,DATA,0x55E,0x8,0x00 0x00 0x00 0x3F 0xC0 0xFF 0x00 0x00,0x533C,NAK
1.516406208333333,1071,DATA,0x55E,0x8,0x00 0x00 0x00 0x3F 0xC0 0xFF 0x00 0x00,0x533C,NAK
1.517766583333333,1072,DATA,0x55E,0x8,0x00 0x00 0x00 0x3F 0xC0 0xFF 0x00 0x00,0x533C,NAK
1.519126958333333,1073,DATA,0x55E,0x8,0x00 0x00 0x00 0x3F 0xC0 0xFF 0x00 0x00,0x533C,NAK
1.520487375000000,1074,DATA,0x55E,0x8,0x00 0x00 0x00 0x3F 0xC0 0xFF 0x00 0x00,0x533C,NAK
1.521847750000000,1075,DATA,0x55E,0x8,0x00 0x00 0x00 0x3F 0xC0 0xFF 0x00 0x00,0x533C,NAK
1.523208125000000,1076,DATA,0x55E,0x8,0x00 0x00 0x00 0x3F 0xC0 0xFF 0x00 0x00,0x533C,NAK
1.524568500000000,1077,DATA,0x55E,0x8,0x00 0x00 0x00 0x3F 0xC0 0xFF 0x00 0x00,0x533C,NAK
1.525928875000000,1078,DATA,0x55E,0x8,0x00 0x00 0x00 0x3F 0xC0 0xFF 0x00 0x00,0x533C,NAK
1.527289291666667,1079,DATA,0x55E,0x8,0x00 0x00 0x00 0x3F 0xC0 0xFF 0x00 0x00,0x533C,NAK
1.528649666666667,1080,DATA,0x55E,0x8,0x00 0x00 0x00 0x3F 0xC0 0xFF 0x00 0x00,0x533C,NAK
1.530010041666667,1081,DATA,0x55E,0x8,0x00 0x00 0x00 0x3F 0xC0 0xFF 0x00 0x00,0x533C,NAK
1.531370416666667,1082,DATA,0x55E,0x8,0x00 0x00 0x00 0x3F 0xC0 0xFF 0x00 0x00,0x533C,NAK
1.532730791666667,1083,DATA,0x55E,0x8,0x00 0x00 0x00 0x3F 0xC0 0xFF 0x00 0x00,0x533C,NAK
1.534091166666667,1084,DATA,0x55E,0x8,0x00 0x00 0x00 0x3F 0xC0 0xFF 0x00 0x00,0x533C,NAK
1.535451583333333,1085,DATA,0x55E,0x8,0x00 0x00 0x00 0x3F 0xC0 0xFF 0x00 0x00,0x533C,NAK
1.536811958333333,1086,DATA,0x55E,0x8,0x00 0x00 0x00 0x3F 0xC0 0xFF 0x00 0x00,0x533C,NAK
1.538172333333333,1087,DATA,0x55E,0x8,0x00 0x00 0x00 0x3F 0xC0 0xFF 0x00 0x00,0x533C,NAK
1.539532708333333,1088,DATA,0x55E,0x8,0x00 0x00 0x00 0x3F 0xC0 0xFF 0x00 0x00,0x533C,NAK
1.540893083333333,1089,DATA,0x55E,0x8,0x00 0x00 0x00 0x3F 0xC0 0xFF 0x00 0x00,0x533C,NAK
1.542253500000000,1090,DATA,0x55E,0x8,0x00 0x00 0x00 0x3F 0xC0 0xFF 0x00 0x00,0x533C,NAK
1.543613875000000,1091,DATA,0x55E,0x8,0x00 0x00 0x00 0x3F 0xC0 0xFF 0x00 0x00,0x533C,NAK
1.544974250000000,1092,DATA,0x55E,0x8,0x00 0x00 0x00 0x3F 0xC0 0xFF 0x00 0x00,0x533C,NAK
1.546334625000000,1093,DATA,0x55E,0x8,0x00 0x00 0x00 0x3F 0xC0 0xFF 0x00 0x00,0x533C,NAK
1.547695000000000,1094,DATA,0x55E,0x8,0x00 0x00 0x00 0x3F 0xC0 0xFF 0x00 0x00,0x533C,NAK
1.549055375000000,1095,DATA,0x55E,0x8,0x00 0x00 0x00 0x3F 0xC0 0xFF 0x00 0x00,0x533C,NAK
1.550415791666667,1096,DATA,0x55E,0x8,0x00 0x00 0x00 0x3F 0xC0 0xFF 0x00 0x00,0x533C,NAK
1.551776166666667,1097,DATA,0x55E,0x8,0x00 0x00 0x00 0x3F 0xC0 0xFF 0x00 0x00,0x533C,NAK
1.553136541666667,1098,DATA,0x55E,0x8,0x00 0x00 0x00 0x3F 0xC0 0xFF 0x00 0x00,0x533C,NAK
1.554496916666667,1099,DATA,0x55E,0x8,0x00 0x00 0x00 0x3F 0xC0 0xFF 0x00 0x00,0x533C,NAK
1.555857291666667,1100,DATA,0x55E,0x8,0x00 0x00 0x00 0x3F 0xC0 0xFF 0x00 0x00,0x533C,NAK
1.557217666666667,1101,DATA,0x55E,0x8,0x00 0x00 0x00 0x3F 0xC0 0xFF 0x00 0x00,0x533C,NAK
1.558578083333333,1102,DATA,0x55E,0x8,0x00 0x00 0x00 0x3F 0xC0 0xFF 0x00 0x00,0x533C,NAK
1.559938458333333,1103,DATA,0x55E,0x8,0x00 0x00 0x00 0x3F 0xC0 0xFF 0x00 0x00,0x533C,NAK
1.561298833333333,1104,DATA,0x55E,0x8,0x00 0x00 0x00 0x3F 0xC0 0xFF 0x00 0x00,0x533C,NAK
1.562659208333333,1105,DATA,0x55E,0x8,0x00 0x00 0x00 0x3F 0xC0 0xFF 0x00 0x00,0x533C,NAK
1.564019583333333,1106,DATA,0x55E,0x8,0x00 0x00 0x00 0x3F 0xC0 0xFF 0x00 0x00,0x533C,NAK
1.565380000000000,1107,DATA,0x55E,0x8,0x00 0x00 0x00 0x3F 0xC0 0xFF 0x00 0x00,0x533C,NAK
1.566740375000000,1108,DATA,0x55E,0x8,0x00 0x00 0x00 0x3F 0xC0 0xFF 0x00 0x00,0x533C,NAK
1.568100750000000,1109,DATA,0x55E,0x8,0x00 0x00 0x00 0x3F 0xC0 0xFF 0x00 0x00,0x533C,NAK
1.569661666666667,1110,DATA,0x55E,0x8,0x00 0x00 0x00 0x3F 0xC0 0xFF 0x00 0x00,0x533C,NAK
1.571182125000000,1111,DATA,0x12B,0x8,0x00 0x00 0x00 0x00 0x00 0x00 0x00 0x00,0x5C96,NAK
1.572722541666667,1112,DATA,0x133,0x8,0x03 0xFF 0x00 0x00 0x00 0x00 0x00 0xFF,0x1073,NAK
1.574262958333333,1113,DATA,0x164,0x8,0x00 0x00 0x00 0x00 0x00 0x00 0x00 0x00,0x6E99,NAK
1.575813416666667,1114,DATA,0x166,0x8,0x00 0x00 0x00 0x00 0x00 0x00 0x00 0x00,0x78AF,NAK
1.577353833333333,1115,DATA,0x17D,0x8,0x00 0x00 0x00 0x00 0x00 0x00 0x00 0x00,0x4973,NAK
1.578904291666667,1116,DATA,0x19D,0x8,0x00 0x00 0x00 0x00 0x00 0x00 0x00 0x00,0x4D9B,NAK
1.580444708333333,1117,DATA,0x1AB,0x8,0xFF 0xFF 0xFF 0xFF 0xFF 0x7E 0x00 0x00,0x678D,NAK
1.581975125000000,1118,DATA,0x1BB,0x8,0xFF 0xFF 0xFF 0xFF 0x00 0x00 0x00 0x00,0x6198,NAK
1.583505583333333,1119,DATA,0x1BC,0x8,0xFF 0xFF 0xFF 0xFF 0xFF 0x00 0x00 0x00,0x7829,NAK
1.585076000000000,1120,DATA,0x1BA,0x8,0x00 0x00 0x00 0x00 0x00 0x00 0x00 0x00,0x5111,NAK
1.586616458333333,1121,DATA,0x55C,0x8,0x00 0x00 0x00 0x00 0x00 0x30 0xC0 0x00,0x6D05,NAK
