Time Stamp,ID,Extended,Dir,Bus,LEN,D1,D2,D3,D4,D5,D6,D7,D8
208200347,000001D4,false,Rx,0,8,00,00,04,00,00,00,00,00,
208201519,000001D5,false,Rx,0,8,14,30,75,30,03,A4,1F,3C,
208202702,000005D8,false,Rx,0,8,31,30,35,30,30,30,30,00,
208204442,00000166,false,Rx,0,8,00,00,00,00,00,00,00,00,
208205681,000001AB,false,Rx,0,8,FF,FF,FF,FF,FF,7E,00,00,
208206937,0000057E,false,Rx,0,8,00,00,00,00,00,00,00,00,
208214346,00000133,false,Rx,0,8,03,FF,00,00,00,00,00,FF,
208215602,0000019D,false,Rx,0,8,00,00,00,00,00,00,00,00,
208224142,0000012B,false,Rx,0,8,00,00,00,00,00,00,00,00,
208225387,0000017D,false,Rx,0,8,00,00,00,00,00,00,00,00,
208244345,0000054E,false,Rx,0,8,00,00,00,00,00,00,00,00,
208245662,00000558,false,Rx,0,8,FF,FF,FF,FF,FF,00,00,00,
208249469,00000440,false,Rx,0,8,4D,02,00,00,00,00,FF,FF,
208254349,0000054D,false,Rx,0,8,00,00,00,00,00,00,00,00,
208255583,00000531,false,Rx,0,8,FF,00,FF,00,00,00,00,00,
208256828,00000557,false,Rx,0,8,FF,FF,FF,FF,FF,FF,FF,F0,
208258066,0000056D,false,Rx,0,8,00,00,00,00,00,00,00,00,
208264292,0000019F,false,Rx,0,8,00,FF,00,00,00,02,00,00,
208265506,000001CB,false,Rx,0,8,FF,C0,30,FC,00,00,00,00,
208266781,000001E7,false,Rx,0,8,FF,FF,FF,FF,FF,FF,FF,00,
208268071,0000054F,false,Rx,0,8,00,00,00,00,00,00,00,00,
208274339,00000123,false,Rx,0,8,00,00,00,C0,00,00,00,FF,
208275635,0000057B,false,Rx,0,8,00,00,00,00,00,00,00,00,
208284313,0000057A,false,Rx,0,8,00,00,00,00,00,00,00,00,
208294185,0000010E,false,Rx,0,8,00,00,00,00,00,00,00,00,
208295421,0000017A,false,Rx,0,8,00,00,00,00,C0,00,00,00,
208296613,0000017B,false,Rx,0,8,40,08,28,82,23,00,00,00,
208297852,000001AA,false,Rx,0,8,FF,FF,FF,FF,03,00,00,00,
208314231,0000015E,false,Rx,0,8,00,01,00,00,00,00,01,00,
208315477,00000171,false,Rx,0,8,02,00,00,00,00,00,00,00,
208316690,0000057D,false,Rx,0,8,FF,3F,FF,3F,00,00,06,00,
208317959,00000504,false,Rx,0,8,00,01,00,00,00,00,00,00,
208324225,000001E1,false,Rx,0,8,FF,FF,FF,DF,7F,FF,00,00,
208325461,00000157,false,Rx,0,8,CF,FF,00,00,00,00,00,00,
208326684,000001E2,false,Rx,0,8,FF,FF,FF,00,00,00,00,00,
208327922,0000055C,false,Rx,0,8,00,00,00,00,00,30,C0,00,
208329179,0000055E,false,Rx,0,8,00,00,00,3F,C0,FF,00,00,
208330413,000001D1,false,Rx,0,8,00,00,00,00,00,00,01,00,
208334213,00000173,false,Rx,0,8,C0,38,00,00,0C,F0,00,30,
208335449,0000055D,false,Rx,0,8,00,00,00,00,00,00,FF,00,
208336682,000001E5,false,Rx,0,8,00,0F,FF,FF,F0,00,FF,00,
208337921,0000056A,false,Rx,0,8,00,00,00,00,00,00,00,00,
208339167,0000056B,false,Rx,0,8,00,00,00,00,00,00,00,00,
208340443,000001D0,false,Rx,0,8,00,00,00,00,00,00,00,00,
208341671,000001DA,false,Rx,0,8,01,00,00,10,00,00,00,00,
208342896,000001DF,false,Rx,0,8,FF,FF,00,00,00,80,A0,01,
208344104,000005D2,false,Rx,0,8,00,01,86,A0,00,00,00,00,
208345321,0000016A,false,Rx,0,8,02,04,00,00,00,00,3C,3C,
208346575,0000056C,false,Rx,0,8,00,00,00,00,00,00,00,00,
208350055,000001D2,false,Rx,0,8,1F,E0,FF,1C,1F,3F,00,00,
208351269,0000044D,false,Rx,0,8,55,12,00,00,00,00,FF,FF,
208354349,0000015D,false,Rx,0,8,00,00,00,00,00,00,00,F0,
208355625,0000017F,false,Rx,0,8,00,00,40,00,00,00,00,00,
208364198,00000115,false,Rx,0,8,FF,FF,FF,FF,FF,FF,FF,0F,
208365464,00000135,false,Rx,0,8,00,00,00,00,FF,FF,FF,00,
208366688,00000169,false,Rx,0,8,0F,00,00,00,00,00,03,E8,
208367896,0000056E,false,Rx,0,8,00,05,BB,97,FF,E0,00,00,
208374172,00000122,false,Rx,0,8,0A,41,FF,FF,FF,FF,FF,FF,
208375408,0000012A,false,Rx,0,8,00,00,00,0E,00,00,00,00,
208376661,00000158,false,Rx,0,8,00,00,00,00,00,00,00,00,
208377890,00000161,false,Rx,0,8,03,00,00,00,00,00,00,00,
208379147,00000196,false,Rx,0,8,00,00,00,03,FF,00,00,00,
208384257,0000011E,false,Rx,0,8,FF,FF,FF,00,00,FF,FF,FF,
208394357,00000164,false,Rx,0,8,00,00,00,00,00,00,00,00,
208400219,000001D4,false,Rx,0,8,00,00,04,00,00,00,00,00,
208401393,000001D5,false,Rx,0,8,14,30,75,30,03,A4,1F,3C,
208404474,00000166,false,Rx,0,8,00,00,00,00,00,00,00,00,
208405707,000001AB,false,Rx,0,8,FF,FF,FF,FF,FF,7E,00,00,
208406962,0000057E,false,Rx,0,8,00,00,00,00,00,00,00,00,
208414349,00000133,false,Rx,0,8,03,FF,00,00,00,00,00,FF,
208415594,0000019D,false,Rx,0,8,00,00,00,00,00,00,00,00,
208424136,0000012B,false,Rx,0,8,00,00,00,00,00,00,00,00,
208425382,0000017D,false,Rx,0,8,00,00,00,00,00,00,00,00,
208443687,00000455,false,Rx,0,8,40,02,00,00,00,00,FF,FF,
208444940,0000054E,false,Rx,0,8,00,00,00,00,00,00,00,00,
208446205,000001BC,false,Rx,0,8,FF,FF,FF,FF,FF,00,00,00,
208447466,00000558,false,Rx,0,8,FF,FF,FF,FF,FF,00,00,00,
208454470,0000054D,false,Rx,0,8,00,00,00,00,00,00,00,00,
208455713,0000056D,false,Rx,0,8,00,00,00,00,00,00,00,00,
208456948,00000557,false,Rx,0,8,FF,FF,FF,FF,FF,FF,FF,F0,
208464209,000001CB,false,Rx,0,8,FF,C0,30,FC,00,00,00,00,
208465445,000001BB,false,Rx,0,8,FF,FF,FF,FF,00,00,00,00,
208466669,000001E7,false,Rx,0,8,FF,FF,FF,FF,FF,FF,FF,00,
208467958,0000054F,false,Rx,0,8,00,00,00,00,00,00,00,00,
208474443,00000123,false,Rx,0,8,00,00,00,C0,00,00,00,FF,
208475738,0000057B,false,Rx,0,8,00,00,00,00,00,00,00,00,
208484417,0000057A,false,Rx,0,8,00,00,00,00,00,00,00,00,
208485661,000001BA,false,Rx,0,8,00,00,00,00,00,00,00,00,
208494203,0000010E,false,Rx,0,8,00,00,00,00,00,00,00,00,
208495449,0000017A,false,Rx,0,8,00,00,00,00,C0,00,00,00,
208496642,0000017B,false,Rx,0,8,40,08,28,82,23,00,00,00,
208497879,000001AA,false,Rx,0,8,FF,FF,FF,FF,03,00,00,00,
208504293,0000018A,false,Rx,0,8,00,00,00,00,00,00,00,00,
208514225,0000015E,false,Rx,0,8,00,01,00,00,00,00,01,00,
208515473,00000171,false,Rx,0,8,02,00,00,00,00,00,00,00,
208516686,0000057D,false,Rx,0,8,FF,3F,FF,3F,00,00,06,00,
208517955,00000504,false,Rx,0,8,00,01,00,00,00,00,00,00,
208524242,000001E1,false,Rx,0,8,FF,FF,FF,DF,7F,FF,00,00,
208525467,00000157,false,Rx,0,8,CF,FF,00,00,00,00,00,00,
208526733,0000018B,false,Rx,0,8,00,00,00,00,00,00,00,00,
208527960,000001E2,false,Rx,0,8,FF,FF,FF,00,00,00,00,00,
208529207,0000055C,false,Rx,0,8,00,00,00,00,00,30,C0,00,
208530442,000001D1,false,Rx,0,8,00,00,00,00,00,00,01,00,
208531669,00000440,false,Rx,0,8,4D,02,00,00,00,00,FF,FF,
208532896,0000055E,false,Rx,0,8,00,00,00,3F,C0,FF,00,00,
208534460,00000173,false,Rx,0,8,C0,38,00,00,0C,F0,00,30,
208535698,0000055D,false,Rx,0,8,00,00,00,00,00,00,FF,00,
208536925,000001E5,false,Rx,0,8,00,0F,FF,FF,F0,00,FF,00,
208538163,0000056A,false,Rx,0,8,00,00,00,00,00,00,00,00,
208539410,0000050F,false,Rx,0,8,FF,FF,FF,FF,7F,00,00,00,
208540655,000001D0,false,Rx,0,8,00,00,00,00,00,00,00,00,
208541882,000001DA,false,Rx,0,8,01,00,00,10,00,00,00,00,
208543119,000001DF,false,Rx,0,8,FF,FF,00,00,00,80,A0,01,
208544360,0000051E,false,Rx,0,8,37,FF,FF,FF,FF,FF,00,00,
208545606,0000056B,false,Rx,0,8,00,00,00,00,00,00,00,00,
208546820,0000016A,false,Rx,0,8,02,04,00,00,00,00,3C,3C,
208548078,0000056C,false,Rx,0,8,00,00,00,00,00,00,00,00,
208549284,000005D2,false,Rx,0,8,00,01,86,A0,00,00,00,00,
208550508,000001D2,false,Rx,0,8,1F,E0,FF,1C,1F,3F,00,00,
208554360,00000126,false,Rx,0,8,0F,00,00,00,00,00,FF,FF,
208555583,0000051D,false,Rx,0,8,7F,FF,FF,FF,FF,FF,FF,FF,
208556808,0000015D,false,Rx,0,8,00,00,00,00,00,00,00,F0,
208558067,0000017F,false,Rx,0,8,00,00,40,00,00,00,00,00,
208559315,000005DC,false,Rx,0,8,00,00,03,FF,FF,E0,00,00,
208564323,00000115,false,Rx,0,8,FF,FF,FF,FF,FF,FF,FF,0F,
208565577,00000135,false,Rx,0,8,00,00,00,00,FF,FF,FF,00,
208566801,00000169,false,Rx,0,8,0F,00,00,00,00,00,03,E8,
208568050,0000051C,false,Rx,0,8,07,FF,FF,FF,FF,FF,FF,FF,
208569256,0000056E,false,Rx,0,8,00,05,BB,97,FF,E0,00,00,
208574188,00000122,false,Rx,0,8,0A,41,FF,FF,FF,FF,FF,FF,
208575433,0000012A,false,Rx,0,8,00,00,00,0E,00,00,00,00,
208576689,00000158,false,Rx,0,8,00,00,00,00,00,00,00,00,
208577916,00000161,false,Rx,0,8,03,00,00,00,00,00,00,00,
208579163,00000196,false,Rx,0,8,00,00,00,03,FF,00,00,00,
208580430,0000051B,false,Rx,0,8,F7,FF,CF,00,7F,FF,FF,FF,
208584262,0000011E,false,Rx,0,8,FF,FF,FF,00,00,FF,FF,FF,
208585547,0000051A,false,Rx,0,8,FF,FF,FF,FF,FF,F8,0F,FF,
208594246,000001C0,false,Rx,0,8,00,00,00,00,0F,00,00,00,
208595501,00000164,false,Rx,0,8,00,00,00,00,00,00,00,00,
208596714,000001CA,false,Rx,0,8,FF,FF,00,FF,FF,7F,FF,FF,
208600101,000001D4,false,Rx,0,8,00,00,04,00,00,00,00,00,
208601265,000001D5,false,Rx,0,8,14,30,75,30,03,A4,1F,3C,
208604447,00000166,false,Rx,0,8,00,00,00,00,00,00,00,00,
208605681,000001AB,false,Rx,0,8,FF,FF,FF,FF,FF,7E,00,00,
208606935,0000057E,false,Rx,0,8,00,00,00,00,00,00,00,00,
208614387,00000133,false,Rx,0,8,03,FF,00,00,00,00,00,FF,
208615642,0000019D,false,Rx,0,8,00,00,00,00,00,00,00,00,
208624131,0000012B,false,Rx,0,8,00,00,00,00,00,00,00,00,
208625386,0000017D,false,Rx,0,8,00,00,00,00,00,00,00,00,
208629857,0000044D,false,Rx,0,8,55,12,00,00,00,00,FF,FF,
208644362,0000054E,false,Rx,0,8,00,00,00,00,00,00,00,00,
208645669,00000558,false,Rx,0,8,FF,FF,FF,FF,FF,00,00,00,
208654345,0000054D,false,Rx,0,8,00,00,00,00,00,00,00,00,
208655579,0000056D,false,Rx,0,8,00,00,00,00,00,00,00,00,
208656823,00000557,false,Rx,0,8,FF,FF,FF,FF,FF,FF,FF,F0,
208658062,0000056F,false,Rx,0,8,00,00,00,00,00,00,00,00,
208664204,000001CB,false,Rx,0,8,FF,C0,30,FC,00,00,00,00,
208665479,000001E7,false,Rx,0,8,FF,FF,FF,FF,FF,FF,FF,00,
208666745,0000054F,false,Rx,0,8,00,00,00,00,00,00,00,00,
208674320,00000123,false,Rx,0,8,00,00,00,C0,00,00,00,FF,
208675626,0000057B,false,Rx,0,8,00,00,00,00,00,00,00,00,
208684365,0000057A,false,Rx,0,8,00,00,00,00,00,00,00,00,
208694216,0000010E,false,Rx,0,8,00,00,00,00,00,00,00,00,
208695452,0000017A,false,Rx,0,8,00,00,00,00,C0,00,00,00,
208696645,0000017B,false,Rx,0,8,40,08,28,82,23,00,00,00,
208697883,000001AA,false,Rx,0,8,FF,FF,FF,FF,03,00,00,00,
208704139,00000134,false,Rx,0,8,00,00,00,00,00,00,30,00,
208714230,0000015E,false,Rx,0,8,00,01,00,00,00,00,01,00,
208715466,00000171,false,Rx,0,8,02,00,00,00,00,00,00,00,
208716689,0000057D,false,Rx,0,8,FF,3F,FF,3F,00,00,06,00,
208717948,00000504,false,Rx,0,8,00,01,00,00,00,00,00,00,
208723675,00000455,false,Rx,0,8,40,02,00,00,00,00,FF,FF,
208724930,000001E1,false,Rx,0,8,FF,FF,FF,DF,7F,FF,00,00,
208726123,00000132,false,Rx,0,8,FF,FF,33,70,0C,03,30,0F,
208727352,00000157,false,Rx,0,8,CF,FF,00,00,00,00,00,00,
208728579,000001E2,false,Rx,0,8,FF,FF,FF,00,00,00,00,00,
208729822,0000055C,false,Rx,0,8,00,00,00,00,00,30,C0,00,
208731061,000001D1,false,Rx,0,8,00,00,00,00,00,00,01,00,
208732277,0000055E,false,Rx,0,8,00,00,00,3F,C0,FF,00,00,
208734315,00000173,false,Rx,0,8,C0,38,00,00,0C,F0,00,30,
208735543,00000131,false,Rx,0,8,FF,00,FF,00,00,00,00,00,
208736768,000001E5,false,Rx,0,8,00,0F,FF,FF,F0,00,FF,00,
208738004,0000055D,false,Rx,0,8,00,00,00,00,00,00,FF,00,
208739241,0000056A,false,Rx,0,8,00,00,00,00,00,00,00,00,
208740499,000001D0,false,Rx,0,8,00,00,00,00,00,00,00,00,
208741728,000001DA,false,Rx,0,8,01,00,00,10,00,00,00,00,
208742953,000001DF,false,Rx,0,8,FF,FF,00,00,00,80,A0,01,
208744208,0000056B,false,Rx,0,8,00,00,00,00,00,00,00,00,
208745417,000005D2,false,Rx,0,8,00,01,86,A0,00,00,00,00,
208746621,0000016A,false,Rx,0,8,02,04,00,00,00,00,3C,3C,
208747917,0000056C,false,Rx,0,8,00,00,00,00,00,00,00,00,
208749742,000001D2,false,Rx,0,8,1F,E0,FF,1C,1F,3F,00,00,
208754384,0000015D,false,Rx,0,8,00,00,00,00,00,00,00,F0,
208755597,000001C1,false,Rx,0,8,06,05,00,00,7F,0C,00,01,
208756862,0000017F,false,Rx,0,8,00,00,40,00,00,00,00,00,
208764228,00000115,false,Rx,0,8,FF,FF,FF,FF,FF,FF,FF,0F,
208765484,00000135,false,Rx,0,8,00,00,00,00,FF,FF,FF,00,
208766717,00000167,false,Rx,0,8,00,00,00,F0,00,00,00,00,
208767936,00000169,false,Rx,0,8,0F,00,00,00,00,00,03,E8,
208769140,0000056E,false,Rx,0,8,00,05,BB,97,FF,E0,00,00,
208774262,00000122,false,Rx,0,8,0A,41,FF,FF,FF,FF,FF,FF,
208775496,0000012A,false,Rx,0,8,00,00,00,0E,00,00,00,00,
208776750,00000158,false,Rx,0,8,00,00,00,00,00,00,00,00,
208777999,00000196,false,Rx,0,8,00,00,00,03,FF,00,00,00,
208779235,00000161,false,Rx,0,8,03,00,00,00,00,00,00,00,
208784366,0000011E,false,Rx,0,8,FF,FF,FF,00,00,FF,FF,FF,
208794354,00000164,false,Rx,0,8,00,00,00,00,00,00,00,00,
208795599,00000571,false,Rx,0,8,1F,00,00,00,00,00,00,00,
208799965,000001D4,false,Rx,0,8,00,00,04,00,00,00,00,00,
208801136,000001D5,false,Rx,0,8,14,30,75,30,03,A4,1F,3C,
208804445,00000166,false,Rx,0,8,00,00,00,00,00,00,00,00,
208805679,000001AB,false,Rx,0,8,FF,FF,FF,FF,FF,7E,00,00,
208806944,0000057E,false,Rx,0,8,00,00,00,00,00,00,00,00,
208809366,00000440,false,Rx,0,8,4D,02,00,00,00,00,FF,FF,
208814340,00000133,false,Rx,0,8,03,FF,00,00,00,00,00,FF,
208815595,0000019D,false,Rx,0,8,00,00,00,00,00,00,00,00,
208824137,0000012B,false,Rx,0,8,00,00,00,00,00,00,00,00,
208825383,0000017D,false,Rx,0,8,00,00,00,00,00,00,00,00,
208844442,0000054E,false,Rx,0,8,00,00,00,00,00,00,00,00,
208845748,00000558,false,Rx,0,8,FF,FF,FF,FF,FF,00,00,00,
208854272,0000054D,false,Rx,0,8,00,00,00,00,00,00,00,00,
208855506,0000056D,false,Rx,0,8,00,00,00,00,00,00,00,00,
208856750,00000557,false,Rx,0,8,FF,FF,FF,FF,FF,FF,FF,F0,
208864211,000001CB,false,Rx,0,8,FF,C0,30,FC,00,00,00,00,
208865487,000001E7,false,Rx,0,8,FF,FF,FF,FF,FF,FF,FF,00,
208866763,0000054F,false,Rx,0,8,00,00,00,00,00,00,00,00,
208874418,00000123,false,Rx,0,8,00,00,00,C0,00,00,00,FF,
208875725,0000057B,false,Rx,0,8,00,00,00,00,00,00,00,00,
208884423,0000057A,false,Rx,0,8,00,00,00,00,00,00,00,00,
208894285,0000010E,false,Rx,0,8,00,00,00,00,00,00,00,00,
208895530,0000017A,false,Rx,0,8,00,00,00,00,C0,00,00,00,
208896723,0000017B,false,Rx,0,8,40,08,28,82,23,00,00,00,
208897961,000001AA,false,Rx,0,8,FF,FF,FF,FF,03,00,00,00,
208909660,0000044D,false,Rx,0,8,55,12,00,00,00,00,FF,FF,
208914226,0000015E,false,Rx,0,8,00,01,00,00,00,00,01,00,
208915472,00000171,false,Rx,0,8,02,00,00,00,00,00,00,00,
208916697,0000057D,false,Rx,0,8,FF,3F,FF,3F,00,00,06,00,
208917954,00000504,false,Rx,0,8,00,01,00,00,00,00,00,00,
208924230,000001E1,false,Rx,0,8,FF,FF,FF,DF,7F,FF,00,00,
208925467,00000157,false,Rx,0,8,CF,FF,00,00,00,00,00,00,
208926692,000001E2,false,Rx,0,8,FF,FF,FF,00,00,00,00,00,
208927939,0000055C,false,Rx,0,8,00,00,00,00,00,30,C0,00,
208929166,0000055E,false,Rx,0,8,00,00,00,3F,C0,FF,00,00,
208930401,000001D1,false,Rx,0,8,00,00,00,00,00,00,01,00,
208934179,00000173,false,Rx,0,8,C0,38,00,00,0C,F0,00,30,
208935405,0000055D,false,Rx,0,8,00,00,00,00,00,00,FF,00,
208936638,000001E5,false,Rx,0,8,00,0F,FF,FF,F0,00,FF,00,
208937876,0000056A,false,Rx,0,8,00,00,00,00,00,00,00,00,
208939123,0000056B,false,Rx,0,8,00,00,00,00,00,00,00,00,
208940378,000001D0,false,Rx,0,8,00,00,00,00,00,00,00,00,
208941607,000001DA,false,Rx,0,8,01,00,00,10,00,00,00,00,
208942833,000001DF,false,Rx,0,8,FF,FF,00,00,00,80,A0,01,
208944050,000005D2,false,Rx,0,8,00,01,86,A0,00,00,00,00,
208945257,0000016A,false,Rx,0,8,02,04,00,00,00,00,3C,3C,
208946521,0000056C,false,Rx,0,8,00,00,00,00,00,00,00,00,
208949662,000001D2,false,Rx,0,8,1F,E0,FF,1C,1F,3F,00,00,
208954371,0000015D,false,Rx,0,8,00,00,00,00,00,00,00,F0,
208955624,0000017F,false,Rx,0,8,00,00,40,00,00,00,00,00,
208964345,00000115,false,Rx,0,8,FF,FF,FF,FF,FF,FF,FF,0F,
208965609,00000135,false,Rx,0,8,00,00,00,00,FF,FF,FF,00,
208966834,00000169,false,Rx,0,8,0F,00,00,00,00,00,03,E8,
208968040,0000056E,false,Rx,0,8,00,05,BB,97,FF,E0,00,00,
208974234,00000122,false,Rx,0,8,0A,41,FF,FF,FF,FF,FF,FF,
208975480,0000012A,false,Rx,0,8,00,00,00,0E,00,00,00,00,
208976735,00000158,false,Rx,0,8,00,00,00,00,00,00,00,00,
208977962,00000161,false,Rx,0,8,03,00,00,00,00,00,00,00,
208979209,00000196,false,Rx,0,8,00,00,00,03,FF,00,00,00,
208984279,0000011E,false,Rx,0,8,FF,FF,FF,00,00,FF,FF,FF,
208994358,00000164,false,Rx,0,8,00,00,00,00,00,00,00,00,
208999857,000001D4,false,Rx,0,8,00,00,04,00,00,00,00,00,
209001029,000001D5,false,Rx,0,8,14,30,75,30,03,A4,1F,3C,
209003676,00000455,false,Rx,0,8,40,02,00,00,00,00,FF,FF,
209004929,00000166,false,Rx,0,8,00,00,00,00,00,00,00,00,
209006164,000001AB,false,Rx,0,8,FF,FF,FF,FF,FF,7E,00,00,
209007434,0000057E,false,Rx,0,8,00,00,00,00,00,00,00,00,
209014394,00000133,false,Rx,0,8,03,FF,00,00,00,00,00,FF,
209015648,0000019D,false,Rx,0,8,00,00,00,00,00,00,00,00,
209024137,0000012B,false,Rx,0,8,00,00,00,00,00,00,00,00,
209025383,0000017D,false,Rx,0,8,00,00,00,00,00,00,00,00,
209044372,0000054E,false,Rx,0,8,00,00,00,00,00,00,00,00,
209045698,00000558,false,Rx,0,8,FF,FF,FF,FF,FF,00,00,00,
209054314,0000054D,false,Rx,0,8,00,00,00,00,00,00,00,00,
209055557,0000056D,false,Rx,0,8,00,00,00,00,00,00,00,00,
209056802,00000557,false,Rx,0,8,FF,FF,FF,FF,FF,FF,FF,F0,
209064219,000001CB,false,Rx,0,8,FF,C0,30,FC,00,00,00,00,
209065495,000001E7,false,Rx,0,8,FF,FF,FF,FF,FF,FF,FF,00,
209066761,0000054F,false,Rx,0,8,00,00,00,00,00,00,00,00,
209074304,00000123,false,Rx,0,8,00,00,00,C0,00,00,00,FF,
209075609,0000057B,false,Rx,0,8,00,00,00,00,00,00,00,00,
209084319,0000057A,false,Rx,0,8,00,00,00,00,00,00,00,00,
209089465,00000440,false,Rx,0,8,4D,02,00,00,00,00,FF,FF,
209094261,0000010E,false,Rx,0,8,00,00,00,00,00,00,00,00,
209095504,0000017A,false,Rx,0,8,00,00,00,00,C0,00,00,00,
209096697,0000017B,false,Rx,0,8,40,08,28,82,23,00,00,00,
209097936,000001AA,false,Rx,0,8,FF,FF,FF,FF,03,00,00,00,
209114223,0000015E,false,Rx,0,8,00,01,00,00,00,00,01,00,
209115467,00000171,false,Rx,0,8,02,00,00,00,00,00,00,00,
209116691,0000057D,false,Rx,0,8,FF,3F,FF,3F,00,00,06,00,
209117950,00000504,false,Rx,0,8,00,01,00,00,00,00,00,00,
209124247,000001E1,false,Rx,0,8,FF,FF,FF,DF,7F,FF,00,00,
209125482,00000157,false,Rx,0,8,CF,FF,00,00,00,00,00,00,
209126706,000001E2,false,Rx,0,8,FF,FF,FF,00,00,00,00,00,
209127945,0000055C,false,Rx,0,8,00,00,00,00,00,30,C0,00,
209129170,0000055E,false,Rx,0,8,00,00,00,3F,C0,FF,00,00,
209130407,000001D1,false,Rx,0,8,00,00,00,00,00,00,01,00,
209134237,00000173,false,Rx,0,8,C0,38,00,00,0C,F0,00,30,
209135472,0000055D,false,Rx,0,8,00,00,00,00,00,00,FF,00,
209136696,000001E5,false,Rx,0,8,00,0F,FF,FF,F0,00,FF,00,
209137945,0000056A,false,Rx,0,8,00,00,00,00,00,00,00,00,
209139191,0000056B,false,Rx,0,8,00,00,00,00,00,00,00,00,
209140438,000001D0,false,Rx,0,8,00,00,00,00,00,00,00,00,
209141675,000001DA,false,Rx,0,8,01,00,00,10,00,00,00,00,
209142901,000001DF,false,Rx,0,8,FF,FF,00,00,00,80,A0,01,
209144109,000005D2,false,Rx,0,8,00,01,86,A0,00,00,00,00,
209145336,0000012F,false,Rx,0,8,FF,FF,FF,FF,3F,FF,FF,CF,
209146539,0000016A,false,Rx,0,8,02,04,00,00,00,00,3C,3C,
209147808,0000056C,false,Rx,0,8,00,00,00,00,00,00,00,00,
209149570,000001D2,false,Rx,0,8,1F,E0,FF,1C,1F,3F,00,00,
209154298,00000197,false,Rx,0,8,1D,FC,03,00,FF,C0,00,00,
209155543,00000126,false,Rx,0,8,0F,00,00,00,00,00,FF,FF,
209156766,0000015D,false,Rx,0,8,00,00,00,00,00,00,00,F0,
209158025,0000017F,false,Rx,0,8,00,00,40,00,00,00,00,00,
209164344,00000115,false,Rx,0,8,FF,FF,FF,FF,FF,FF,FF,0F,
209165609,00000135,false,Rx,0,8,00,00,00,00,FF,FF,FF,00,
209166832,00000169,false,Rx,0,8,0F,00,00,00,00,00,03,E8,
209168030,0000056E,false,Rx,0,8,00,05,BB,97,FF,E0,00,00,
209174235,00000122,false,Rx,0,8,0A,41,FF,FF,FF,FF,FF,FF,
209175479,0000012A,false,Rx,0,8,00,00,00,0E,00,00,00,00,
209176734,00000158,false,Rx,0,8,00,00,00,00,00,00,00,00,
209177963,00000161,false,Rx,0,8,03,00,00,00,00,00,00,00,
209179208,00000196,false,Rx,0,8,00,00,00,03,FF,00,00,00,
209184309,0000011E,false,Rx,0,8,FF,FF,FF,00,00,FF,FF,FF,
209189683,0000044D,false,Rx,0,8,55,12,00,00,00,00,FF,FF,
209194417,00000164,false,Rx,0,8,00,00,00,00,00,00,00,00,
209199760,000001D4,false,Rx,0,8,00,00,04,00,00,00,00,00,
209200923,000001D5,false,Rx,0,8,14,30,75,30,03,A4,1F,3C,
209202115,000005D8,false,Rx,0,8,31,30,35,30,30,30,30,00,
209204422,00000100,false,Rx,0,8,67,00,00,08,00,10,00,00,
209205660,00000166,false,Rx,0,8,00,00,00,00,00,00,00,00,
209206885,000001AB,false,Rx,0,8,FF,FF,FF,FF,FF,7E,00,00,
209208151,0000057E,false,Rx,0,8,00,00,00,00,00,00,00,00,
209214347,00000133,false,Rx,0,8,03,FF,00,00,00,00,00,FF,
209215591,0000019D,false,Rx,0,8,00,00,00,00,00,00,00,00,
209224142,0000012B,false,Rx,0,8,00,00,00,00,00,00,00,00,
209225398,0000017D,false,Rx,0,8,00,00,00,00,00,00,00,00,
209244428,0000054E,false,Rx,0,8,00,00,00,00,00,00,00,00,
209245744,00000558,false,Rx,0,8,FF,FF,FF,FF,FF,00,00,00,
209254340,0000054D,false,Rx,0,8,00,00,00,00,00,00,00,00,
209255564,00000531,false,Rx,0,8,FF,00,FF,00,00,00,00,00,
209256807,00000557,false,Rx,0,8,FF,FF,FF,FF,FF,FF,FF,F0,
209258046,0000056D,false,Rx,0,8,00,00,00,00,00,00,00,00,
209264303,0000019F,false,Rx,0,8,00,FF,00,00,00,02,00,00,
209265507,000001CB,false,Rx,0,8,FF,C0,30,FC,00,00,00,00,
209266771,000001E7,false,Rx,0,8,FF,FF,FF,FF,FF,FF,FF,00,
209268030,0000054F,false,Rx,0,8,00,00,00,00,00,00,00,00,
209274370,00000123,false,Rx,0,8,00,00,00,C0,00,00,00,FF,
209275677,0000057B,false,Rx,0,8,00,00,00,00,00,00,00,00,
209283680,00000455,false,Rx,0,8,40,02,00,00,00,00,FF,FF,
209284935,0000057A,false,Rx,0,8,00,00,00,00,00,00,00,00,
209294277,0000010E,false,Rx,0,8,00,00,00,00,00,00,00,00,
209295512,0000017A,false,Rx,0,8,00,00,00,00,C0,00,00,00,
209296704,0000017B,false,Rx,0,8,40,08,28,82,23,00,00,00,
209297943,000001AA,false,Rx,0,8,FF,FF,FF,FF,03,00,00,00,
209314230,0000015E,false,Rx,0,8,00,01,00,00,00,00,01,00,
209315465,00000171,false,Rx,0,8,02,00,00,00,00,00,00,00,
209316688,0000057D,false,Rx,0,8,FF,3F,FF,3F,00,00,06,00,
209317947,00000504,false,Rx,0,8,00,01,00,00,00,00,00,00,
209324277,000001E1,false,Rx,0,8,FF,FF,FF,DF,7F,FF,00,00,
209325511,00000157,false,Rx,0,8,CF,FF,00,00,00,00,00,00,
209326744,000001E2,false,Rx,0,8,FF,FF,FF,00,00,00,00,00,
209327983,0000055C,false,Rx,0,8,00,00,00,00,00,30,C0,00,
209329199,0000055E,false,Rx,0,8,00,00,00,3F,C0,FF,00,00,
209330443,000001D1,false,Rx,0,8,00,00,00,00,00,00,01,00,
209334398,00000173,false,Rx,0,8,C0,38,00,00,0C,F0,00,30,
209335632,0000055D,false,Rx,0,8,00,00,00,00,00,00,FF,00,
209336856,000001E5,false,Rx,0,8,00,0F,FF,FF,F0,00,FF,00,
209338104,0000056A,false,Rx,0,8,00,00,00,00,00,00,00,00,
209339352,0000056B,false,Rx,0,8,00,00,00,00,00,00,00,00,
209340606,000001D0,false,Rx,0,8,00,00,00,00,00,00,00,00,
209341835,000001DA,false,Rx,0,8,01,00,00,10,00,00,00,00,
209343061,000001DF,false,Rx,0,8,FF,FF,00,00,00,80,A0,01,
209344279,0000016A,false,Rx,0,8,02,04,00,00,00,00,3C,3C,
209345536,0000056C,false,Rx,0,8,00,00,00,00,00,00,00,00,
209346738,000005D2,false,Rx,0,8,00,01,86,A0,00,00,00,00,
209349437,000001D2,false,Rx,0,8,1F,E0,FF,1C,1F,3F,00,00,
209354380,0000015D,false,Rx,0,8,00,00,00,00,00,00,00,F0,
209355882,0000017F,false,Rx,0,8,00,00,40,00,00,00,00,00,
209364354,00000115,false,Rx,0,8,FF,FF,FF,FF,FF,FF,FF,0F,
209365611,00000135,false,Rx,0,8,00,00,00,00,FF,FF,FF,00,
209366845,00000169,false,Rx,0,8,0F,00,00,00,00,00,03,E8,
209368051,0000056E,false,Rx,0,8,00,05,BB,97,FF,E0,00,00,
209369464,00000440,false,Rx,0,8,4D,02,00,00,00,00,FF,FF,
209374263,00000122,false,Rx,0,8,0A,41,FF,FF,FF,FF,FF,FF,
209375498,0000012A,false,Rx,0,8,00,00,00,0E,00,00,00,00,
209376753,00000158,false,Rx,0,8,00,00,00,00,00,00,00,00,
209378000,00000196,false,Rx,0,8,00,00,00,03,FF,00,00,00,
209379227,00000161,false,Rx,0,8,03,00,00,00,00,00,00,00,
209384392,0000011E,false,Rx,0,8,FF,FF,FF,00,00,FF,FF,FF,
209394357,00000164,false,Rx,0,8,00,00,00,00,00,00,00,00,
209399629,000001D4,false,Rx,0,8,00,00,04,00,00,00,00,00,
209400802,000001D5,false,Rx,0,8,14,30,75,30,03,A4,1F,3C,
209404452,00000166,false,Rx,0,8,00,00,00,00,00,00,00,00,
209405686,000001AB,false,Rx,0,8,FF,FF,FF,FF,FF,7E,00,00,
209406940,0000057E,false,Rx,0,8,00,00,00,00,00,00,00,00,
209414350,00000133,false,Rx,0,8,03,FF,00,00,00,00,00,FF,
209415594,0000019D,false,Rx,0,8,00,00,00,00,00,00,00,00,
209424134,0000012B,false,Rx,0,8,00,00,00,00,00,00,00,00,
209425380,0000017D,false,Rx,0,8,00,00,00,00,00,00,00,00,
209444461,000001BC,false,Rx,0,8,FF,FF,FF,FF,FF,00,00,00,
209445715,0000054E,false,Rx,0,8,00,00,00,00,00,00,00,00,
209447031,00000558,false,Rx,0,8,FF,FF,FF,FF,FF,00,00,00,
209454484,0000054D,false,Rx,0,8,00,00,00,00,00,00,00,00,
209455728,0000056D,false,Rx,0,8,00,00,00,00,00,00,00,00,
209456973,00000557,false,Rx,0,8,FF,FF,FF,FF,FF,FF,FF,F0,
209464244,000001CB,false,Rx,0,8,FF,C0,30,FC,00,00,00,00,
209465470,000001BB,false,Rx,0,8,FF,FF,FF,FF,00,00,00,00,
209466704,000001E7,false,Rx,0,8,FF,FF,FF,FF,FF,FF,FF,00,
209467972,0000054F,false,Rx,0,8,00,00,00,00,00,00,00,00,
209469354,0000044D,false,Rx,0,8,55,12,00,00,00,00,FF,FF,
209474278,00000123,false,Rx,0,8,00,00,00,C0,00,00,00,FF,
209475594,0000057B,false,Rx,0,8,00,00,00,00,00,00,00,00,
209484345,0000057A,false,Rx,0,8,00,00,00,00,00,00,00,00,
209485588,000001BA,false,Rx,0,8,00,00,00,00,00,00,00,00,
209494257,0000010E,false,Rx,0,8,00,00,00,00,00,00,00,00,
209495491,0000017A,false,Rx,0,8,00,00,00,00,C0,00,00,00,
209496685,0000017B,false,Rx,0,8,40,08,28,82,23,00,00,00,
209497922,000001AA,false,Rx,0,8,FF,FF,FF,FF,03,00,00,00,
209504284,0000018A,false,Rx,0,8,00,00,00,00,00,00,00,00,
209514273,00000171,false,Rx,0,8,02,00,00,00,00,00,00,00,
209515496,0000015E,false,Rx,0,8,00,01,00,00,00,00,01,00,
209516762,00000504,false,Rx,0,8,00,01,00,00,00,00,00,00,
209517978,0000057D,false,Rx,0,8,FF,3F,FF,3F,00,00,06,00,
209524371,000001E1,false,Rx,0,8,FF,FF,FF,DF,7F,FF,00,00,
209525594,00000157,false,Rx,0,8,CF,FF,00,00,00,00,00,00,
209526829,000001E2,false,Rx,0,8,FF,FF,FF,00,00,00,00,00,
209528088,0000018B,false,Rx,0,8,00,00,00,00,00,00,00,00,
209529326,0000055C,false,Rx,0,8,00,00,00,00,00,30,C0,00,
209530570,000001D1,false,Rx,0,8,00,00,00,00,00,00,01,00,
209531787,0000055E,false,Rx,0,8,00,00,00,3F,C0,FF,00,00,
209534272,00000173,false,Rx,0,8,C0,38,00,00,0C,F0,00,30,
209535505,0000055D,false,Rx,0,8,00,00,00,00,00,00,FF,00,
209536729,000001E5,false,Rx,0,8,00,0F,FF,FF,F0,00,FF,00,
209537976,0000056A,false,Rx,0,8,00,00,00,00,00,00,00,00,
209539213,0000050F,false,Rx,0,8,FF,FF,FF,FF,7F,00,00,00,
209540463,000001D0,false,Rx,0,8,00,00,00,00,00,00,00,00,
209541698,000001DA,false,Rx,0,8,01,00,00,10,00,00,00,00,
209542922,000001DF,false,Rx,0,8,FF,FF,00,00,00,80,A0,01,
209544171,0000056B,false,Rx,0,8,00,00,00,00,00,00,00,00,
209545387,0000016A,false,Rx,0,8,02,04,00,00,00,00,3C,3C,
209546622,0000051E,false,Rx,0,8,37,FF,FF,FF,FF,FF,00,00,
209547880,0000056C,false,Rx,0,8,00,00,00,00,00,00,00,00,
209549096,000005D2,false,Rx,0,8,00,01,86,A0,00,00,00,00,
209550315,000001D2,false,Rx,0,8,1F,E0,FF,1C,1F,3F,00,00,
209554354,0000015D,false,Rx,0,8,00,00,00,00,00,00,00,F0,
209555587,0000051D,false,Rx,0,8,7F,FF,FF,FF,FF,FF,FF,FF,
209556842,0000017F,false,Rx,0,8,00,00,40,00,00,00,00,00,
209558101,000005DC,false,Rx,0,8,00,00,03,FF,FF,E0,00,00,
209563686,00000455,false,Rx,0,8,40,02,00,00,00,00,FF,FF,
209564910,00000115,false,Rx,0,8,FF,FF,FF,FF,FF,FF,FF,0F,
209566163,00000135,false,Rx,0,8,00,00,00,00,FF,FF,FF,00,
209567413,0000051C,false,Rx,0,8,07,FF,FF,FF,FF,FF,FF,FF,
209568638,00000169,false,Rx,0,8,0F,00,00,00,00,00,03,E8,
209569842,0000056E,false,Rx,0,8,00,05,BB,97,FF,E0,00,00,
209574326,0000012A,false,Rx,0,8,00,00,00,0E,00,00,00,00,
209575559,00000122,false,Rx,0,8,0A,41,FF,FF,FF,FF,FF,FF,
209576814,00000158,false,Rx,0,8,00,00,00,00,00,00,00,00,
209578063,00000196,false,Rx,0,8,00,00,00,03,FF,00,00,00,
209579289,00000161,false,Rx,0,8,03,00,00,00,00,00,00,00,
209580493,0000051B,false,Rx,0,8,F7,FF,CF,00,7F,FF,FF,FF,
209584469,0000011E,false,Rx,0,8,FF,FF,FF,00,00,FF,FF,FF,
209585816,0000051A,false,Rx,0,8,FF,FF,FF,FF,FF,F8,0F,FF,
209594350,00000164,false,Rx,0,8,00,00,00,00,00,00,00,00,
209595583,000001C0,false,Rx,0,8,00,00,00,00,0F,00,00,00,
209596860,000001CA,false,Rx,0,8,FF,FF,00,FF,FF,7F,FF,FF,
209599496,000001D4,false,Rx,0,8,00,00,04,00,00,00,00,00,
209600668,000001D5,false,Rx,0,8,14,30,75,30,03,A4,1F,3C,
209604478,00000166,false,Rx,0,8,00,00,00,00,00,00,00,00,
209605702,000001AB,false,Rx,0,8,FF,FF,FF,FF,FF,7E,00,00,
209606967,0000057E,false,Rx,0,8,00,00,00,00,00,00,00,00,
209614345,00000133,false,Rx,0,8,03,FF,00,00,00,00,00,FF,
209615887,0000019D,false,Rx,0,8,00,00,00,00,00,00,00,00,
209624142,0000012B,false,Rx,0,8,00,00,00,00,00,00,00,00,
209625386,0000017D,false,Rx,0,8,00,00,00,00,00,00,00,00,
209644551,0000054E,false,Rx,0,8,00,00,00,00,00,00,00,00,
209645879,00000558,false,Rx,0,8,FF,FF,FF,FF,FF,00,00,00,
209649438,00000440,false,Rx,0,8,4D,02,00,00,00,00,FF,FF,
209654504,0000054D,false,Rx,0,8,00,00,00,00,00,00,00,00,
209655739,0000056D,false,Rx,0,8,00,00,00,00,00,00,00,00,
209656983,00000557,false,Rx,0,8,FF,FF,FF,FF,FF,FF,FF,F0,
209658221,0000056F,false,Rx,0,8,00,00,00,00,00,00,00,00,
209664355,000001CB,false,Rx,0,8,FF,C0,30,FC,00,00,00,00,
209665630,000001E7,false,Rx,0,8,FF,FF,FF,FF,FF,FF,FF,00,
209666904,0000054F,false,Rx,0,8,00,00,00,00,00,00,00,00,
209674407,00000123,false,Rx,0,8,00,00,00,C0,00,00,00,FF,
209675713,0000057B,false,Rx,0,8,00,00,00,00,00,00,00,00,
209684659,0000057A,false,Rx,0,8,00,00,00,00,00,00,00,00,
209694461,0000010E,false,Rx,0,8,00,00,00,00,00,00,00,00,
209695695,0000017A,false,Rx,0,8,00,00,00,00,C0,00,00,00,
209696887,0000017B,false,Rx,0,8,40,08,28,82,23,00,00,00,
209698125,000001AA,false,Rx,0,8,FF,FF,FF,FF,03,00,00,00,
209704143,00000134,false,Rx,0,8,00,00,00,00,00,00,30,00,
209714233,0000015E,false,Rx,0,8,00,01,00,00,00,00,01,00,
209715469,00000171,false,Rx,0,8,02,00,00,00,00,00,00,00,
209716692,0000057D,false,Rx,0,8,FF,3F,FF,3F,00,00,06,00,
209717951,00000504,false,Rx,0,8,00,01,00,00,00,00,00,00,
209724260,000001E1,false,Rx,0,8,FF,FF,FF,DF,7F,FF,00,00,
209725453,00000132,false,Rx,0,8,FF,FF,33,70,0C,03,30,0F,
209726686,000001E2,false,Rx,0,8,FF,FF,FF,00,00,00,00,00,
209727915,00000157,false,Rx,0,8,CF,FF,00,00,00,00,00,00,
209729161,0000055C,false,Rx,0,8,00,00,00,00,00,30,C0,00,
209730407,000001D1,false,Rx,0,8,00,00,00,00,00,00,01,00,
209731625,0000055E,false,Rx,0,8,00,00,00,3F,C0,FF,00,00,
209734199,00000173,false,Rx,0,8,C0,38,00,00,0C,F0,00,30,
209735435,00000131,false,Rx,0,8,FF,00,FF,00,00,00,00,00,
209736668,000001E5,false,Rx,0,8,00,0F,FF,FF,F0,00,FF,00,
209737896,0000055D,false,Rx,0,8,00,00,00,00,00,00,FF,00,
209739142,0000056A,false,Rx,0,8,00,00,00,00,00,00,00,00,
209740388,000001D0,false,Rx,0,8,00,00,00,00,00,00,00,00,
209741616,000001DA,false,Rx,0,8,01,00,00,10,00,00,00,00,
209742841,000001DF,false,Rx,0,8,FF,FF,00,00,00,80,A0,01,
209744100,0000056B,false,Rx,0,8,00,00,00,00,00,00,00,00,
209745306,0000016A,false,Rx,0,8,02,04,00,00,00,00,3C,3C,
209746571,0000056C,false,Rx,0,8,00,00,00,00,00,00,00,00,
209747778,000005D2,false,Rx,0,8,00,01,86,A0,00,00,00,00,
209749106,000001D2,false,Rx,0,8,1F,E0,FF,1C,1F,3F,00,00,
209750315,0000044D,false,Rx,0,8,55,12,00,00,00,00,FF,FF,
209754219,000001C1,false,Rx,0,8,06,05,00,00,7F,0C,00,01,
209755465,00000126,false,Rx,0,8,0F,00,00,00,00,00,FF,FF,
209756718,0000015D,false,Rx,0,8,00,00,00,00,00,00,00,F0,
209757977,0000017F,false,Rx,0,8,00,00,40,00,00,00,00,00,
209764329,00000115,false,Rx,0,8,FF,FF,FF,FF,FF,FF,FF,0F,
209765594,00000135,false,Rx,0,8,00,00,00,00,FF,FF,FF,00,
209766848,00000167,false,Rx,0,8,00,00,00,F0,00,00,00,00,
209768076,00000169,false,Rx,0,8,0F,00,00,00,00,00,03,E8,
209769273,0000056E,false,Rx,0,8,00,05,BB,97,FF,E0,00,00,
209774205,00000122,false,Rx,0,8,0A,41,FF,FF,FF,FF,FF,FF,
209775440,0000012A,false,Rx,0,8,00,00,00,0E,00,00,00,00,
209776694,00000158,false,Rx,0,8,00,00,00,00,00,00,00,00,
209777922,00000161,false,Rx,0,8,03,00,00,00,00,00,00,00,
209779179,00000196,false,Rx,0,8,00,00,00,03,FF,00,00,00,
209784247,0000011E,false,Rx,0,8,FF,FF,FF,00,00,FF,FF,FF,
209794359,00000164,false,Rx,0,8,00,00,00,00,00,00,00,00,
209795604,00000571,false,Rx,0,8,1F,00,00,00,00,00,00,00,
209799318,000001D4,false,Rx,0,8,00,00,04,00,00,00,00,00,
209800490,000001D5,false,Rx,0,8,14,30,75,30,03,A4,1F,3C,
209804450,00000166,false,Rx,0,8,00,00,00,00,00,00,00,00,
209805685,000001AB,false,Rx,0,8,FF,FF,FF,FF,FF,7E,00,00,
209806950,0000057E,false,Rx,0,8,00,00,00,00,00,00,00,00,
209814348,00000133,false,Rx,0,8,03,FF,00,00,00,00,00,FF,
209815603,0000019D,false,Rx,0,8,00,00,00,00,00,00,00,00,
209824143,0000012B,false,Rx,0,8,00,00,00,00,00,00,00,00,
209825390,0000017D,false,Rx,0,8,00,00,00,00,00,00,00,00,
209843683,00000455,false,Rx,0,8,40,02,00,00,00,00,FF,FF,
209844937,0000054E,false,Rx,0,8,00,00,00,00,00,00,00,00,
209846255,00000558,false,Rx,0,8,FF,FF,FF,FF,FF,00,00,00,
209854242,0000054D,false,Rx,0,8,00,00,00,00,00,00,00,00,
209855489,0000056D,false,Rx,0,8,00,00,00,00,00,00,00,00,
209856723,00000557,false,Rx,0,8,FF,FF,FF,FF,FF,FF,FF,F0,
209864172,000001CB,false,Rx,0,8,FF,C0,30,FC,00,00,00,00,
209865448,000001E7,false,Rx,0,8,FF,FF,FF,FF,FF,FF,FF,00,
209866704,0000054F,false,Rx,0,8,00,00,00,00,00,00,00,00,
209874224,00000123,false,Rx,0,8,00,00,00,C0,00,00,00,FF,
209875521,0000057B,false,Rx,0,8,00,00,00,00,00,00,00,00,
209884272,0000057A,false,Rx,0,8,00,00,00,00,00,00,00,00,
209894215,0000010E,false,Rx,0,8,00,00,00,00,00,00,00,00,
209895452,0000017A,false,Rx,0,8,00,00,00,00,C0,00,00,00,
209896645,0000017B,false,Rx,0,8,40,08,28,82,23,00,00,00,
209897882,000001AA,false,Rx,0,8,FF,FF,FF,FF,03,00,00,00,
209914242,00000171,false,Rx,0,8,02,00,00,00,00,00,00,00,
209915458,0000015E,false,Rx,0,8,00,01,00,00,00,00,01,00,
209916723,00000504,false,Rx,0,8,00,01,00,00,00,00,00,00,
209917940,0000057D,false,Rx,0,8,FF,3F,FF,3F,00,00,06,00,
209924237,000001E1,false,Rx,0,8,FF,FF,FF,DF,7F,FF,00,00,
209925462,00000157,false,Rx,0,8,CF,FF,00,00,00,00,00,00,
209926697,000001E2,false,Rx,0,8,FF,FF,FF,00,00,00,00,00,
209927934,0000055C,false,Rx,0,8,00,00,00,00,00,30,C0,00,
209929170,0000055E,false,Rx,0,8,00,00,00,3F,C0,FF,00,00,
209930406,000001D1,false,Rx,0,8,00,00,00,00,00,00,01,00,
209931635,00000440,false,Rx,0,8,4D,02,00,00,00,00,FF,FF,
209934220,00000173,false,Rx,0,8,C0,38,00,00,0C,F0,00,30,
209935445,0000055D,false,Rx,0,8,00,00,00,00,00,00,FF,00,
209936679,000001E5,false,Rx,0,8,00,0F,FF,FF,F0,00,FF,00,
209937917,0000056A,false,Rx,0,8,00,00,00,00,00,00,00,00,
209939175,0000056B,false,Rx,0,8,00,00,00,00,00,00,00,00,
209940423,000001D0,false,Rx,0,8,00,00,00,00,00,00,00,00,
209941649,000001DA,false,Rx,0,8,01,00,00,10,00,00,00,00,
209942876,000001DF,false,Rx,0,8,FF,FF,00,00,00,80,A0,01,
209944092,000005D2,false,Rx,0,8,00,01,86,A0,00,00,00,00,
209945300,0000016A,false,Rx,0,8,02,04,00,00,00,00,3C,3C,
209946565,0000056C,false,Rx,0,8,00,00,00,00,00,00,00,00,
209948973,000001D2,false,Rx,0,8,1F,E0,FF,1C,1F,3F,00,00,
209954351,0000015D,false,Rx,0,8,00,00,00,00,00,00,00,F0,
209955625,0000017F,false,Rx,0,8,00,00,40,00,00,00,00,00,
209964314,00000115,false,Rx,0,8,FF,FF,FF,FF,FF,FF,FF,0F,
209965568,00000135,false,Rx,0,8,00,00,00,00,FF,FF,FF,00,
209966844,00000169,false,Rx,0,8,0F,00,00,00,00,00,03,E8,
209968040,0000056E,false,Rx,0,8,00,05,BB,97,FF,E0,00,00,
209974182,00000122,false,Rx,0,8,0A,41,FF,FF,FF,FF,FF,FF,
209975428,0000012A,false,Rx,0,8,00,00,00,0E,00,00,00,00,
209976673,00000158,false,Rx,0,8,00,00,00,00,00,00,00,00,
209977900,00000161,false,Rx,0,8,03,00,00,00,00,00,00,00,
209979158,00000196,false,Rx,0,8,00,00,00,03,FF,00,00,00,
209984310,0000011E,false,Rx,0,8,FF,FF,FF,00,00,FF,FF,FF,
209994360,00000164,false,Rx,0,8,00,00,00,00,00,00,00,00,
209999164,000001D4,false,Rx,0,8,00,00,04,00,00,00,00,00,
210000338,000001D5,false,Rx,0,8,14,30,75,30,03,A4,1F,3C,
210004443,00000166,false,Rx,0,8,00,00,00,00,00,00,00,00,
210005686,000001AB,false,Rx,0,8,FF,FF,FF,FF,FF,7E,00,00,
210006942,0000057E,false,Rx,0,8,00,00,00,00,00,00,00,00,
210014351,00000133,false,Rx,0,8,03,FF,00,00,00,00,00,FF,
210015594,0000019D,false,Rx,0,8,00,00,00,00,00,00,00,00,
210024137,0000012B,false,Rx,0,8,00,00,00,00,00,00,00,00,
210025392,0000017D,false,Rx,0,8,00,00,00,00,00,00,00,00,
210028979,0000044D,false,Rx,0,8,55,12,00,00,00,00,FF,FF,
210044388,0000054E,false,Rx,0,8,00,00,00,00,00,00,00,00,
210045704,00000558,false,Rx,0,8,FF,FF,FF,FF,FF,00,00,00,
210054340,0000054D,false,Rx,0,8,00,00,00,00,00,00,00,00,
210055583,0000056D,false,Rx,0,8,00,00,00,00,00,00,00,00,
210056819,00000557,false,Rx,0,8,FF,FF,FF,FF,FF,FF,FF,F0,
210064206,000001CB,false,Rx,0,8,FF,C0,30,FC,00,00,00,00,
210065492,000001E7,false,Rx,0,8,FF,FF,FF,FF,FF,FF,FF,00,
210066767,0000054F,false,Rx,0,8,00,00,00,00,00,00,00,00,
210074216,00000123,false,Rx,0,8,00,00,00,C0,00,00,00,FF,
210075503,0000057B,false,Rx,0,8,00,00,00,00,00,00,00,00,
210084346,0000057A,false,Rx,0,8,00,00,00,00,00,00,00,00,
210094239,0000010E,false,Rx,0,8,00,00,00,00,00,00,00,00,
210095473,0000017A,false,Rx,0,8,00,00,00,00,C0,00,00,00,
210096667,0000017B,false,Rx,0,8,40,08,28,82,23,00,00,00,
210097905,000001AA,false,Rx,0,8,FF,FF,FF,FF,03,00,00,00,
210114183,00000171,false,Rx,0,8,02,00,00,00,00,00,00,00,
210115407,0000015E,false,Rx,0,8,00,01,00,00,00,00,01,00,
210116663,00000504,false,Rx,0,8,00,01,00,00,00,00,00,00,
210117891,0000057D,false,Rx,0,8,FF,3F,FF,3F,00,00,06,00,
210123691,00000455,false,Rx,0,8,40,02,00,00,00,00,FF,FF,
210124936,000001E1,false,Rx,0,8,FF,FF,FF,DF,7F,FF,00,00,
210126169,00000157,false,Rx,0,8,CF,FF,00,00,00,00,00,00,
210127398,000001E2,false,Rx,0,8,FF,FF,FF,00,00,00,00,00,
210128645,0000055C,false,Rx,0,8,00,00,00,00,00,30,C0,00,
210129878,000001D1,false,Rx,0,8,00,00,00,00,00,00,01,00,
210131096,0000055E,false,Rx,0,8,00,00,00,3F,C0,FF,00,00,
210134231,00000173,false,Rx,0,8,C0,38,00,00,0C,F0,00,30,
210135465,0000055D,false,Rx,0,8,00,00,00,00,00,00,FF,00,
210136689,000001E5,false,Rx,0,8,00,0F,FF,FF,F0,00,FF,00,
210137928,0000056A,false,Rx,0,8,00,00,00,00,00,00,00,00,
210139184,0000056B,false,Rx,0,8,00,00,00,00,00,00,00,00,
210140430,000001D0,false,Rx,0,8,00,00,00,00,00,00,00,00,
210141658,000001DA,false,Rx,0,8,01,00,00,10,00,00,00,00,
210142893,000001DF,false,Rx,0,8,FF,FF,00,00,00,80,A0,01,
210144101,000005D2,false,Rx,0,8,00,01,86,A0,00,00,00,00,
210145328,0000012F,false,Rx,0,8,FF,FF,FF,FF,3F,FF,FF,CF,
210146532,0000016A,false,Rx,0,8,02,04,00,00,00,00,3C,3C,
210147791,0000056C,false,Rx,0,8,00,00,00,00,00,00,00,00,
210149036,000001D2,false,Rx,0,8,1F,E0,FF,1C,1F,3F,00,00,
210154261,00000197,false,Rx,0,8,1D,FC,03,00,FF,C0,00,00,
210155474,0000015D,false,Rx,0,8,00,00,00,00,00,00,00,F0,
210156759,0000017F,false,Rx,0,8,00,00,40,00,00,00,00,00,
210164365,00000115,false,Rx,0,8,FF,FF,FF,FF,FF,FF,FF,0F,
210165630,00000135,false,Rx,0,8,00,00,00,00,FF,FF,FF,00,
210166843,00000169,false,Rx,0,8,0F,00,00,00,00,00,03,E8,
210168051,0000056E,false,Rx,0,8,00,05,BB,97,FF,E0,00,00,
210174216,00000122,false,Rx,0,8,0A,41,FF,FF,FF,FF,FF,FF,
210175463,0000012A,false,Rx,0,8,00,00,00,0E,00,00,00,00,
210176707,00000158,false,Rx,0,8,00,00,00,00,00,00,00,00,
210177946,00000161,false,Rx,0,8,03,00,00,00,00,00,00,00,
210179192,00000196,false,Rx,0,8,00,00,00,03,FF,00,00,00,
210184407,0000011E,false,Rx,0,8,FF,FF,FF,00,00,FF,FF,FF,
210194362,00000164,false,Rx,0,8,00,00,00,00,00,00,00,00,
210199021,000001D4,false,Rx,0,8,00,00,04,00,00,00,00,00,
210200194,000001D5,false,Rx,0,8,14,30,75,30,03,A4,1F,3C,
210201377,000005D8,false,Rx,0,8,31,30,35,30,30,30,30,00,
210204446,00000166,false,Rx,0,8,00,00,00,00,00,00,00,00,
210205681,000001AB,false,Rx,0,8,FF,FF,FF,FF,FF,7E,00,00,
210206941,0000057E,false,Rx,0,8,00,00,00,00,00,00,00,00,
210209655,00000440,false,Rx,0,8,4D,02,00,00,00,00,FF,FF,
210214388,00000133,false,Rx,0,8,03,FF,00,00,00,00,00,FF,
210215643,0000019D,false,Rx,0,8,00,00,00,00,00,00,00,00,
210224142,0000012B,false,Rx,0,8,00,00,00,00,00,00,00,00,
210225398,0000017D,false,Rx,0,8,00,00,00,00,00,00,00,00,
210244468,0000054E,false,Rx,0,8,00,00,00,00,00,00,00,00,
210245795,00000558,false,Rx,0,8,FF,FF,FF,FF,FF,00,00,00,
210254453,0000054D,false,Rx,0,8,00,00,00,00,00,00,00,00,
210255687,00000531,false,Rx,0,8,FF,00,FF,00,00,00,00,00,
210256932,00000557,false,Rx,0,8,FF,FF,FF,FF,FF,FF,FF,F0,
210258169,0000056D,false,Rx,0,8,00,00,00,00,00,00,00,00,
210264230,000001CB,false,Rx,0,8,FF,C0,30,FC,00,00,00,00,
210265465,0000019F,false,Rx,0,8,00,FF,00,00,00,02,00,00,
210266698,000001E7,false,Rx,0,8,FF,FF,FF,FF,FF,FF,FF,00,
210267968,0000054F,false,Rx,0,8,00,00,00,00,00,00,00,00,
210274172,00000123,false,Rx,0,8,00,00,00,C0,00,00,00,FF,
210275459,0000057B,false,Rx,0,8,00,00,00,00,00,00,00,00,
210284312,0000057A,false,Rx,0,8,00,00,00,00,00,00,00,00,
210294214,0000010E,false,Rx,0,8,00,00,00,00,00,00,00,00,
210295450,0000017A,false,Rx,0,8,00,00,00,00,C0,00,00,00,
210296642,0000017B,false,Rx,0,8,40,08,28,82,23,00,00,00,
210297881,000001AA,false,Rx,0,8,FF,FF,FF,FF,03,00,00,00,
210308676,0000044D,false,Rx,0,8,55,12,00,00,00,00,FF,FF,
210314226,00000171,false,Rx,0,8,02,00,00,00,00,00,00,00,
210315452,0000015E,false,Rx,0,8,00,01,00,00,00,00,01,00,
210316705,00000504,false,Rx,0,8,00,01,00,00,00,00,00,00,
210317923,0000057D,false,Rx,0,8,FF,3F,FF,3F,00,00,06,00,
210324252,000001E1,false,Rx,0,8,FF,FF,FF,DF,7F,FF,00,00,
210325477,00000157,false,Rx,0,8,CF,FF,00,00,00,00,00,00,
210326710,000001E2,false,Rx,0,8,FF,FF,FF,00,00,00,00,00,
210327948,0000055C,false,Rx,0,8,00,00,00,00,00,30,C0,00,
210329185,000001D1,false,Rx,0,8,00,00,00,00,00,00,01,00,
210330409,0000055E,false,Rx,0,8,00,00,00,3F,C0,FF,00,00,
210334239,00000173,false,Rx,0,8,C0,38,00,00,0C,F0,00,30,
210335475,0000055D,false,Rx,0,8,00,00,00,00,00,00,FF,00,
210336697,000001E5,false,Rx,0,8,00,0F,FF,FF,F0,00,FF,00,
210337936,0000056A,false,Rx,0,8,00,00,00,00,00,00,00,00,
210339193,000001D0,false,Rx,0,8,00,00,00,00,00,00,00,00,
210340417,000001DA,false,Rx,0,8,01,00,00,10,00,00,00,00,
210341656,000001DF,false,Rx,0,8,FF,FF,00,00,00,80,A0,01,
210342903,0000056B,false,Rx,0,8,00,00,00,00,00,00,00,00,
210344109,000005D2,false,Rx,0,8,00,01,86,A0,00,00,00,00,
210345316,0000016A,false,Rx,0,8,02,04,00,00,00,00,3C,3C,
210346581,0000056C,false,Rx,0,8,00,00,00,00,00,00,00,00,
210348681,000001D2,false,Rx,0,8,1F,E0,FF,1C,1F,3F,00,00,
210354389,00000126,false,Rx,0,8,0F,00,00,00,00,00,FF,FF,
210355612,0000015D,false,Rx,0,8,00,00,00,00,00,00,00,F0,
210356868,0000017F,false,Rx,0,8,00,00,40,00,00,00,00,00,
210364347,00000115,false,Rx,0,8,FF,FF,FF,FF,FF,FF,FF,0F,
210365612,00000135,false,Rx,0,8,00,00,00,00,FF,FF,FF,00,
210366847,00000169,false,Rx,0,8,0F,00,00,00,00,00,03,E8,
210368043,0000056E,false,Rx,0,8,00,05,BB,97,FF,E0,00,00,
210374206,00000122,false,Rx,0,8,0A,41,FF,FF,FF,FF,FF,FF,
210375441,0000012A,false,Rx,0,8,00,00,00,0E,00,00,00,00,
210376696,00000158,false,Rx,0,8,00,00,00,00,00,00,00,00,
210377923,00000161,false,Rx,0,8,03,00,00,00,00,00,00,00,
210379180,00000196,false,Rx,0,8,00,00,00,03,FF,00,00,00,
210384282,0000011E,false,Rx,0,8,FF,FF,FF,00,00,FF,FF,FF,
210394362,00000164,false,Rx,0,8,00,00,00,00,00,00,00,00,
210398887,000001D4,false,Rx,0,8,00,00,04,00,00,00,00,00,
210400060,000001D5,false,Rx,0,8,14,30,75,30,03,A4,1F,3C,
210403690,00000455,false,Rx,0,8,40,02,00,00,00,00,FF,FF,
210404933,00000166,false,Rx,0,8,00,00,00,00,00,00,00,00,
210406168,000001AB,false,Rx,0,8,FF,FF,FF,FF,FF,7E,00,00,
210407438,0000057E,false,Rx,0,8,00,00,00,00,00,00,00,00,
210414347,00000133,false,Rx,0,8,03,FF,00,00,00,00,00,FF,
210415601,0000019D,false,Rx,0,8,00,00,00,00,00,00,00,00,
210424143,0000012B,false,Rx,0,8,00,00,00,00,00,00,00,00,
210425399,0000017D,false,Rx,0,8,00,00,00,00,00,00,00,00,
210444418,0000054E,false,Rx,0,8,00,00,00,00,00,00,00,00,
210445682,000001BC,false,Rx,0,8,FF,FF,FF,FF,FF,00,00,00,
210446948,00000558,false,Rx,0,8,FF,FF,FF,FF,FF,00,00,00,
210454315,0000054D,false,Rx,0,8,00,00,00,00,00,00,00,00,
210455559,0000056D,false,Rx,0,8,00,00,00,00,00,00,00,00,
210456793,00000557,false,Rx,0,8,FF,FF,FF,FF,FF,FF,FF,F0,
210464232,000001CB,false,Rx,0,8,FF,C0,30,FC,00,00,00,00,
210465466,000001BB,false,Rx,0,8,FF,FF,FF,FF,00,00,00,00,
210466701,000001E7,false,Rx,0,8,FF,FF,FF,FF,FF,FF,FF,00,
210467969,0000054F,false,Rx,0,8,00,00,00,00,00,00,00,00,
210474205,00000123,false,Rx,0,8,00,00,00,C0,00,00,00,FF,
210475503,0000057B,false,Rx,0,8,00,00,00,00,00,00,00,00,
210484470,000001BA,false,Rx,0,8,00,00,00,00,00,00,00,00,
210485725,0000057A,false,Rx,0,8,00,00,00,00,00,00,00,00,
210489468,00000440,false,Rx,0,8,4D,02,00,00,00,00,FF,FF,
210494305,0000010E,false,Rx,0,8,00,00,00,00,00,00,00,00,
210495539,0000017A,false,Rx,0,8,00,00,00,00,C0,00,00,00,
210496732,0000017B,false,Rx,0,8,40,08,28,82,23,00,00,00,
210497979,000001AA,false,Rx,0,8,FF,FF,FF,FF,03,00,00,00,
210504289,0000018A,false,Rx,0,8,00,00,00,00,00,00,00,00,
210514232,0000015E,false,Rx,0,8,00,01,00,00,00,00,01,00,
210515477,00000171,false,Rx,0,8,02,00,00,00,00,00,00,00,
210516701,0000057D,false,Rx,0,8,FF,3F,FF,3F,00,00,06,00,
210517961,00000504,false,Rx,0,8,00,01,00,00,00,00,00,00,
210524393,00000157,false,Rx,0,8,CF,FF,00,00,00,00,00,00,
210525648,0000018B,false,Rx,0,8,00,00,00,00,00,00,00,00,
210526902,000001E1,false,Rx,0,8,FF,FF,FF,DF,7F,FF,00,00,
210528140,0000055C,false,Rx,0,8,00,00,00,00,00,30,C0,00,
210529377,000001D1,false,Rx,0,8,00,00,00,00,00,00,01,00,
210530612,000001E2,false,Rx,0,8,FF,FF,FF,00,00,00,00,00,
210531830,0000055E,false,Rx,0,8,00,00,00,3F,C0,FF,00,00,
210534313,00000173,false,Rx,0,8,C0,38,00,00,0C,F0,00,30,
210535536,0000055D,false,Rx,0,8,00,00,00,00,00,00,FF,00,
210536771,000001E5,false,Rx,0,8,00,0F,FF,FF,F0,00,FF,00,
210538009,0000056A,false,Rx,0,8,00,00,00,00,00,00,00,00,
210539266,000001D0,false,Rx,0,8,00,00,00,00,00,00,00,00,
210540501,000001DA,false,Rx,0,8,01,00,00,10,00,00,00,00,
210541718,000001DF,false,Rx,0,8,FF,FF,00,00,00,80,A0,01,
210542964,0000050F,false,Rx,0,8,FF,FF,FF,FF,7F,00,00,00,
210544213,0000056B,false,Rx,0,8,00,00,00,00,00,00,00,00,
210545450,0000051E,false,Rx,0,8,37,FF,FF,FF,FF,FF,00,00,
210546665,0000016A,false,Rx,0,8,02,04,00,00,00,00,3C,3C,
210547871,000005D2,false,Rx,0,8,00,01,86,A0,00,00,00,00,
210549088,000001D2,false,Rx,0,8,1F,E0,FF,1C,1F,3F,00,00,
210550349,0000056C,false,Rx,0,8,00,00,00,00,00,00,00,00,
210554286,0000051D,false,Rx,0,8,7F,FF,FF,FF,FF,FF,FF,FF,
210555509,0000015D,false,Rx,0,8,00,00,00,00,00,00,00,F0,
210556774,0000017F,false,Rx,0,8,00,00,40,00,00,00,00,00,
210558023,000005DC,false,Rx,0,8,00,00,03,FF,FF,E0,00,00,
210564290,00000115,false,Rx,0,8,FF,FF,FF,FF,FF,FF,FF,0F,
210565544,00000135,false,Rx,0,8,00,00,00,00,FF,FF,FF,00,
210566768,00000169,false,Rx,0,8,0F,00,00,00,00,00,03,E8,
210568017,0000051C,false,Rx,0,8,07,FF,FF,FF,FF,FF,FF,FF,
210569221,0000056E,false,Rx,0,8,00,05,BB,97,FF,E0,00,00,
210574239,00000122,false,Rx,0,8,0A,41,FF,FF,FF,FF,FF,FF,
210575484,0000012A,false,Rx,0,8,00,00,00,0E,00,00,00,00,
210576729,00000158,false,Rx,0,8,00,00,00,00,00,00,00,00,
210577957,00000161,false,Rx,0,8,03,00,00,00,00,00,00,00,
210579213,00000196,false,Rx,0,8,00,00,00,03,FF,00,00,00,
210580438,0000051B,false,Rx,0,8,F7,FF,CF,00,7F,FF,FF,FF,
210584206,0000011E,false,Rx,0,8,FF,FF,FF,00,00,FF,FF,FF,
210585482,0000051A,false,Rx,0,8,FF,FF,FF,FF,FF,F8,0F,FF,
210588739,0000044D,false,Rx,0,8,55,12,00,00,00,00,FF,FF,
210594290,000001C0,false,Rx,0,8,00,00,00,00,0F,00,00,00,
210595546,00000164,false,Rx,0,8,00,00,00,00,00,00,00,00,
210596758,000001CA,false,Rx,0,8,FF,FF,00,FF,FF,7F,FF,FF,
210598747,000001D4,false,Rx,0,8,00,00,04,00,00,00,00,00,
210599923,000001D5,false,Rx,0,8,14,30,75,30,03,A4,1F,3C,
210604449,00000166,false,Rx,0,8,00,00,00,00,00,00,00,00,
210605683,000001AB,false,Rx,0,8,FF,FF,FF,FF,FF,7E,00,00,
210606947,0000057E,false,Rx,0,8,00,00,00,00,00,00,00,00,
210614346,00000133,false,Rx,0,8,03,FF,00,00,00,00,00,FF,
210615591,0000019D,false,Rx,0,8,00,00,00,00,00,00,00,00,
210624278,0000012B,false,Rx,0,8,00,00,00,00,00,00,00,00,
210625523,0000017D,false,Rx,0,8,00,00,00,00,00,00,00,00,
210644324,0000054E,false,Rx,0,8,00,00,00,00,00,00,00,00,
210645651,00000558,false,Rx,0,8,FF,FF,FF,FF,FF,00,00,00,
210654329,0000054D,false,Rx,0,8,00,00,00,00,00,00,00,00,
210655574,0000056D,false,Rx,0,8,00,00,00,00,00,00,00,00,
210656807,00000557,false,Rx,0,8,FF,FF,FF,FF,FF,FF,FF,F0,
210658045,0000056F,false,Rx,0,8,00,00,00,00,00,00,00,00,
210664313,000001CB,false,Rx,0,8,FF,C0,30,FC,00,00,00,00,
210665589,000001E7,false,Rx,0,8,FF,FF,FF,FF,FF,FF,FF,00,
210666853,0000054F,false,Rx,0,8,00,00,00,00,00,00,00,00,
210674177,00000123,false,Rx,0,8,00,00,00,C0,00,00,00,FF,
210675485,0000057B,false,Rx,0,8,00,00,00,00,00,00,00,00,
210683696,00000455,false,Rx,0,8,40,02,00,00,00,00,FF,FF,
210684941,0000057A,false,Rx,0,8,00,00,00,00,00,00,00,00,
210694314,0000010E,false,Rx,0,8,00,00,00,00,00,00,00,00,
210695559,0000017A,false,Rx,0,8,00,00,00,00,C0,00,00,00,
210696741,0000017B,false,Rx,0,8,40,08,28,82,23,00,00,00,
210697990,000001AA,false,Rx,0,8,FF,FF,FF,FF,03,00,00,00,
210704277,00000134,false,Rx,0,8,00,00,00,00,00,00,30,00,
210714241,0000015E,false,Rx,0,8,00,01,00,00,00,00,01,00,
210715477,00000171,false,Rx,0,8,02,00,00,00,00,00,00,00,
210716700,0000057D,false,Rx,0,8,FF,3F,FF,3F,00,00,06,00,
210717959,00000504,false,Rx,0,8,00,01,00,00,00,00,00,00,
210724371,000001E1,false,Rx,0,8,FF,FF,FF,DF,7F,FF,00,00,
210725564,00000132,false,Rx,0,8,FF,FF,33,70,0C,03,30,0F,
210726787,00000157,false,Rx,0,8,CF,FF,00,00,00,00,00,00,
210728016,000001E2,false,Rx,0,8,FF,FF,FF,00,00,00,00,00,
210729264,000001D1,false,Rx,0,8,00,00,00,00,00,00,01,00,
210730497,0000055C,false,Rx,0,8,00,00,00,00,00,30,C0,00,
210731725,0000055E,false,Rx,0,8,00,00,00,3F,C0,FF,00,00,
210734166,00000173,false,Rx,0,8,C0,38,00,00,0C,F0,00,30,
210735392,00000131,false,Rx,0,8,FF,00,FF,00,00,00,00,00,
210736625,000001E5,false,Rx,0,8,00,0F,FF,FF,F0,00,FF,00,
210737853,0000055D,false,Rx,0,8,00,00,00,00,00,00,FF,00,
210739099,000001D0,false,Rx,0,8,00,00,00,00,00,00,00,00,
210740328,000001DA,false,Rx,0,8,01,00,00,10,00,00,00,00,
210741566,000001DF,false,Rx,0,8,FF,FF,00,00,00,80,A0,01,
210742799,0000056A,false,Rx,0,8,00,00,00,00,00,00,00,00,
210744049,0000056B,false,Rx,0,8,00,00,00,00,00,00,00,00,
210745264,0000016A,false,Rx,0,8,02,04,00,00,00,00,3C,3C,
210746530,0000056C,false,Rx,0,8,00,00,00,00,00,00,00,00,
210747737,000005D2,false,Rx,0,8,00,01,86,A0,00,00,00,00,
210748952,000001D2,false,Rx,0,8,1F,E0,FF,1C,1F,3F,00,00,
210754214,000001C1,false,Rx,0,8,06,05,00,00,7F,0C,00,01,
210755440,0000015D,false,Rx,0,8,00,00,00,00,00,00,00,F0,
210756694,0000017F,false,Rx,0,8,00,00,40,00,00,00,00,00,
210764413,00000135,false,Rx,0,8,00,00,00,00,FF,FF,FF,00,
210765628,00000115,false,Rx,0,8,FF,FF,FF,FF,FF,FF,FF,0F,
210766862,00000167,false,Rx,0,8,00,00,00,F0,00,00,00,00,
210768080,00000169,false,Rx,0,8,0F,00,00,00,00,00,03,E8,
210769277,0000056E,false,Rx,0,8,00,05,BB,97,FF,E0,00,00,
210770510,00000440,false,Rx,0,8,4D,02,00,00,00,00,FF,FF,
210774259,00000122,false,Rx,0,8,0A,41,FF,FF,FF,FF,FF,FF,
210775504,0000012A,false,Rx,0,8,00,00,00,0E,00,00,00,00,
210776757,00000158,false,Rx,0,8,00,00,00,00,00,00,00,00,
210778006,00000196,false,Rx,0,8,00,00,00,03,FF,00,00,00,
210779233,00000161,false,Rx,0,8,03,00,00,00,00,00,00,00,
210784248,0000011E,false,Rx,0,8,FF,FF,FF,00,00,FF,FF,FF,
210794370,00000164,false,Rx,0,8,00,00,00,00,00,00,00,00,
210795606,00000571,false,Rx,0,8,1F,00,00,00,00,00,00,00,
210798562,000001D4,false,Rx,0,8,00,00,04,00,00,00,00,00,
210799733,000001D5,false,Rx,0,8,14,30,75,30,03,A4,1F,3C,
210804452,00000166,false,Rx,0,8,00,00,00,00,00,00,00,00,
210805685,000001AB,false,Rx,0,8,FF,FF,FF,FF,FF,7E,00,00,
210806950,0000057E,false,Rx,0,8,00,00,00,00,00,00,00,00,
210814348,00000133,false,Rx,0,8,03,FF,00,00,00,00,00,FF,
210815592,0000019D,false,Rx,0,8,00,00,00,00,00,00,00,00,
210824133,0000012B,false,Rx,0,8,00,00,00,00,00,00,00,00,
210825390,0000017D,false,Rx,0,8,00,00,00,00,00,00,00,00,
210844440,0000054E,false,Rx,0,8,00,00,00,00,00,00,00,00,
210845756,00000558,false,Rx,0,8,FF,FF,FF,FF,FF,00,00,00,
210854444,0000054D,false,Rx,0,8,00,00,00,00,00,00,00,00,
210855677,0000056D,false,Rx,0,8,00,00,00,00,00,00,00,00,
210856922,00000557,false,Rx,0,8,FF,FF,FF,FF,FF,FF,FF,F0,
210864267,000001CB,false,Rx,0,8,FF,C0,30,FC,00,00,00,00,
210865543,000001E7,false,Rx,0,8,FF,FF,FF,FF,FF,FF,FF,00,
210866808,0000054F,false,Rx,0,8,00,00,00,00,00,00,00,00,
210868305,0000044D,false,Rx,0,8,55,12,00,00,00,00,FF,FF,
210874271,00000123,false,Rx,0,8,00,00,00,C0,00,00,00,FF,
210875568,0000057B,false,Rx,0,8,00,00,00,00,00,00,00,00,
210884412,0000057A,false,Rx,0,8,00,00,00,00,00,00,00,00,
210894241,0000010E,false,Rx,0,8,00,00,00,00,00,00,00,00,
210895477,0000017A,false,Rx,0,8,00,00,00,00,C0,00,00,00,
210896670,0000017B,false,Rx,0,8,40,08,28,82,23,00,00,00,
210897907,000001AA,false,Rx,0,8,FF,FF,FF,FF,03,00,00,00,
210914183,00000171,false,Rx,0,8,02,00,00,00,00,00,00,00,
210915400,0000015E,false,Rx,0,8,00,01,00,00,00,00,01,00,
210916665,00000504,false,Rx,0,8,00,01,00,00,00,00,00,00,
210917882,0000057D,false,Rx,0,8,FF,3F,FF,3F,00,00,06,00,
210924388,00000157,false,Rx,0,8,CF,FF,00,00,00,00,00,00,
210925641,000001E1,false,Rx,0,8,FF,FF,FF,DF,7F,FF,00,00,
210926886,0000055C,false,Rx,0,8,00,00,00,00,00,30,C0,00,
210928114,000001E2,false,Rx,0,8,FF,FF,FF,00,00,00,00,00,
210929351,000001D1,false,Rx,0,8,00,00,00,00,00,00,01,00,
210930575,0000055E,false,Rx,0,8,00,00,00,3F,C0,FF,00,00,
210934167,00000173,false,Rx,0,8,C0,38,00,00,0C,F0,00,30,
210935392,0000055D,false,Rx,0,8,00,00,00,00,00,00,FF,00,
210936627,000001E5,false,Rx,0,8,00,0F,FF,FF,F0,00,FF,00,
210937864,0000056A,false,Rx,0,8,00,00,00,00,00,00,00,00,
210939111,000001D0,false,Rx,0,8,00,00,00,00,00,00,00,00,
210940339,000001DA,false,Rx,0,8,01,00,00,10,00,00,00,00,
210941576,000001DF,false,Rx,0,8,FF,FF,00,00,00,80,A0,01,
210942821,0000056B,false,Rx,0,8,00,00,00,00,00,00,00,00,
210944037,000005D2,false,Rx,0,8,00,01,86,A0,00,00,00,00,
210945243,0000016A,false,Rx,0,8,02,04,00,00,00,00,3C,3C,
210946504,0000056C,false,Rx,0,8,00,00,00,00,00,00,00,00,
210948213,000001D2,false,Rx,0,8,1F,E0,FF,1C,1F,3F,00,00,
210954366,00000126,false,Rx,0,8,0F,00,00,00,00,00,FF,FF,
210955600,0000015D,false,Rx,0,8,00,00,00,00,00,00,00,F0,
210956855,0000017F,false,Rx,0,8,00,00,40,00,00,00,00,00,
210963683,00000455,false,Rx,0,8,40,02,00,00,00,00,FF,FF,
210964906,00000115,false,Rx,0,8,FF,FF,FF,FF,FF,FF,FF,0F,
210966171,00000135,false,Rx,0,8,00,00,00,00,FF,FF,FF,00,
210967401,00000169,false,Rx,0,8,0F,00,00,00,00,00,03,E8,
210968606,0000056E,false,Rx,0,8,00,05,BB,97,FF,E0,00,00,
210974233,00000122,false,Rx,0,8,0A,41,FF,FF,FF,FF,FF,FF,
210975468,0000012A,false,Rx,0,8,00,00,00,0E,00,00,00,00,
210976723,00000158,false,Rx,0,8,00,00,00,00,00,00,00,00,
210977950,00000161,false,Rx,0,8,03,00,00,00,00,00,00,00,
210979207,00000196,false,Rx,0,8,00,00,00,03,FF,00,00,00,
210984204,0000011E,false,Rx,0,8,FF,FF,FF,00,00,FF,FF,FF,
210994368,00000164,false,Rx,0,8,00,00,00,00,00,00,00,00,
210998416,000001D4,false,Rx,0,8,00,00,04,00,00,00,00,00,
210999589,000001D5,false,Rx,0,8,14,30,75,30,03,A4,1F,3C,
211004451,00000166,false,Rx,0,8,00,00,00,00,00,00,00,00,
211005686,000001AB,false,Rx,0,8,FF,FF,FF,FF,FF,7E,00,00,
211006939,0000057E,false,Rx,0,8,00,00,00,00,00,00,00,00,
211014348,00000133,false,Rx,0,8,03,FF,00,00,00,00,00,FF,
211015591,0000019D,false,Rx,0,8,00,00,00,00,00,00,00,00,
211024133,0000012B,false,Rx,0,8,00,00,00,00,00,00,00,00,
211025390,0000017D,false,Rx,0,8,00,00,00,00,00,00,00,00,
211044336,0000054E,false,Rx,0,8,00,00,00,00,00,00,00,00,
211045653,00000558,false,Rx,0,8,FF,FF,FF,FF,FF,00,00,00,
211049501,00000440,false,Rx,0,8,4D,02,00,00,00,00,FF,FF,
211054348,0000054D,false,Rx,0,8,00,00,00,00,00,00,00,00,
211055592,0000056D,false,Rx,0,8,00,00,00,00,00,00,00,00,
211056826,00000557,false,Rx,0,8,FF,FF,FF,FF,FF,FF,FF,F0,
211064297,000001CB,false,Rx,0,8,FF,C0,30,FC,00,00,00,00,
211065583,000001E7,false,Rx,0,8,FF,FF,FF,FF,FF,FF,FF,00,
211066847,0000054F,false,Rx,0,8,00,00,00,00,00,00,00,00,
211074194,00000123,false,Rx,0,8,00,00,00,C0,00,00,00,FF,
211075490,0000057B,false,Rx,0,8,00,00,00,00,00,00,00,00,
211084376,0000057A,false,Rx,0,8,00,00,00,00,00,00,00,00,
211094321,0000010E,false,Rx,0,8,00,00,00,00,00,00,00,00,
211095556,0000017A,false,Rx,0,8,00,00,00,00,C0,00,00,00,
211096748,0000017B,false,Rx,0,8,40,08,28,82,23,00,00,00,
211097986,000001AA,false,Rx,0,8,FF,FF,FF,FF,03,00,00,00,
211114242,0000015E,false,Rx,0,8,00,01,00,00,00,00,01,00,
211115478,00000171,false,Rx,0,8,02,00,00,00,00,00,00,00,
211116701,0000057D,false,Rx,0,8,FF,3F,FF,3F,00,00,06,00,
211117961,00000504,false,Rx,0,8,00,01,00,00,00,00,00,00,
211124394,000001E1,false,Rx,0,8,FF,FF,FF,DF,7F,FF,00,00,
211125618,00000157,false,Rx,0,8,CF,FF,00,00,00,00,00,00,
211126851,000001E2,false,Rx,0,8,FF,FF,FF,00,00,00,00,00,
211128090,0000055C,false,Rx,0,8,00,00,00,00,00,30,C0,00,
211129327,000001D1,false,Rx,0,8,00,00,00,00,00,00,01,00,
211130550,0000055E,false,Rx,0,8,00,00,00,3F,C0,FF,00,00,
211134175,00000173,false,Rx,0,8,C0,38,00,00,0C,F0,00,30,
211135399,0000055D,false,Rx,0,8,00,00,00,00,00,00,FF,00,
211136633,000001E5,false,Rx,0,8,00,0F,FF,FF,F0,00,FF,00,
211137872,0000056A,false,Rx,0,8,00,00,00,00,00,00,00,00,
211139128,000001D0,false,Rx,0,8,00,00,00,00,00,00,00,00,
211140357,000001DA,false,Rx,0,8,01,00,00,10,00,00,00,00,
211141583,000001DF,false,Rx,0,8,FF,FF,00,00,00,80,A0,01,
211142837,0000056B,false,Rx,0,8,00,00,00,00,00,00,00,00,
211144045,000005D2,false,Rx,0,8,00,01,86,A0,00,00,00,00,
211145260,0000012F,false,Rx,0,8,FF,FF,FF,FF,3F,FF,FF,CF,
211146478,0000016A,false,Rx,0,8,02,04,00,00,00,00,3C,3C,
211147736,0000056C,false,Rx,0,8,00,00,00,00,00,00,00,00,
211148958,000001D2,false,Rx,0,8,1F,E0,FF,1C,1F,3F,00,00,
211150166,0000044D,false,Rx,0,8,55,12,00,00,00,00,FF,FF,
211154183,00000197,false,Rx,0,8,1D,FC,03,00,FF,C0,00,00,
211155408,0000015D,false,Rx,0,8,00,00,00,00,00,00,00,F0,
211156662,0000017F,false,Rx,0,8,00,00,40,00,00,00,00,00,
211164360,00000115,false,Rx,0,8,FF,FF,FF,FF,FF,FF,FF,0F,
211165615,00000135,false,Rx,0,8,00,00,00,00,FF,FF,FF,00,
211166848,00000169,false,Rx,0,8,0F,00,00,00,00,00,03,E8,
211168045,0000056E,false,Rx,0,8,00,05,BB,97,FF,E0,00,00,
211174250,00000122,false,Rx,0,8,0A,41,FF,FF,FF,FF,FF,FF,
211175495,0000012A,false,Rx,0,8,00,00,00,0E,00,00,00,00,
211176739,00000158,false,Rx,0,8,00,00,00,00,00,00,00,00,
211177967,00000161,false,Rx,0,8,03,00,00,00,00,00,00,00,
211179224,00000196,false,Rx,0,8,00,00,00,03,FF,00,00,00,
211184230,0000011E,false,Rx,0,8,FF,FF,FF,00,00,FF,FF,FF,
211194362,00000164,false,Rx,0,8,00,00,00,00,00,00,00,00,
211198276,000001D4,false,Rx,0,8,00,00,04,00,00,00,00,00,
211199449,000001D5,false,Rx,0,8,14,30,75,30,03,A4,1F,3C,
211200641,000005D8,false,Rx,0,8,31,30,35,30,30,30,30,00,
211204402,00000100,false,Rx,0,8,67,00,00,08,00,10,00,00,
211205646,00000166,false,Rx,0,8,00,00,00,00,00,00,00,00,
211206871,000001AB,false,Rx,0,8,FF,FF,FF,FF,FF,7E,00,00,
211208128,0000057E,false,Rx,0,8,00,00,00,00,00,00,00,00,
211214396,00000133,false,Rx,0,8,03,FF,00,00,00,00,00,FF,
211215640,0000019D,false,Rx,0,8,00,00,00,00,00,00,00,00,
211224287,0000012B,false,Rx,0,8,00,00,00,00,00,00,00,00,
211225758,0000017D,false,Rx,0,8,00,00,00,00,00,00,00,00,
211243691,00000455,false,Rx,0,8,40,02,00,00,00,00,FF,FF,
211244936,0000054E,false,Rx,0,8,00,00,00,00,00,00,00,00,
211246242,00000558,false,Rx,0,8,FF,FF,FF,FF,FF,00,00,00,
211254417,0000054D,false,Rx,0,8,00,00,00,00,00,00,00,00,
211255651,00000531,false,Rx,0,8,FF,00,FF,00,00,00,00,00,
211256886,00000557,false,Rx,0,8,FF,FF,FF,FF,FF,FF,FF,F0,
211258133,0000056D,false,Rx,0,8,00,00,00,00,00,00,00,00,
211264297,0000019F,false,Rx,0,8,00,FF,00,00,00,02,00,00,
211265511,000001CB,false,Rx,0,8,FF,C0,30,FC,00,00,00,00,
211266787,000001E7,false,Rx,0,8,FF,FF,FF,FF,FF,FF,FF,00,
211268045,0000054F,false,Rx,0,8,00,00,00,00,00,00,00,00,
211274270,00000123,false,Rx,0,8,00,00,00,C0,00,00,00,FF,
211275566,0000057B,false,Rx,0,8,00,00,00,00,00,00,00,00,
211284440,0000057A,false,Rx,0,8,00,00,00,00,00,00,00,00,
211294364,0000010E,false,Rx,0,8,00,00,00,00,00,00,00,00,
211295609,0000017A,false,Rx,0,8,00,00,00,00,C0,00,00,00,
211296844,000001AA,false,Rx,0,8,FF,FF,FF,FF,03,00,00,00,
211298040,0000017B,false,Rx,0,8,40,08,28,82,23,00,00,00,
211314234,0000015E,false,Rx,0,8,00,01,00,00,00,00,01,00,
211315480,00000171,false,Rx,0,8,02,00,00,00,00,00,00,00,
211316704,0000057D,false,Rx,0,8,FF,3F,FF,3F,00,00,06,00,
211317962,00000504,false,Rx,0,8,00,01,00,00,00,00,00,00,
211324366,000001E1,false,Rx,0,8,FF,FF,FF,DF,7F,FF,00,00,
211325590,00000157,false,Rx,0,8,CF,FF,00,00,00,00,00,00,
211326825,000001E2,false,Rx,0,8,FF,FF,FF,00,00,00,00,00,
211328062,0000055C,false,Rx,0,8,00,00,00,00,00,30,C0,00,
211329300,000001D1,false,Rx,0,8,00,00,00,00,00,00,01,00,
211330534,00000440,false,Rx,0,8,4D,02,00,00,00,00,FF,FF,
211331751,0000055E,false,Rx,0,8,00,00,00,3F,C0,FF,00,00,
211334222,00000173,false,Rx,0,8,C0,38,00,00,0C,F0,00,30,
211335458,0000055D,false,Rx,0,8,00,00,00,00,00,00,FF,00,
211336682,000001E5,false,Rx,0,8,00,0F,FF,FF,F0,00,FF,00,
211337920,0000056A,false,Rx,0,8,00,00,00,00,00,00,00,00,
211339177,000001D0,false,Rx,0,8,00,00,00,00,00,00,00,00,
211340405,000001DA,false,Rx,0,8,01,00,00,10,00,00,00,00,
211341632,000001DF,false,Rx,0,8,FF,FF,00,00,00,80,A0,01,
211342887,0000056B,false,Rx,0,8,00,00,00,00,00,00,00,00,
211344093,000005D2,false,Rx,0,8,00,01,86,A0,00,00,00,00,
211345310,0000016A,false,Rx,0,8,02,04,00,00,00,00,3C,3C,
211346564,0000056C,false,Rx,0,8,00,00,00,00,00,00,00,00,
211347946,000001D2,false,Rx,0,8,1F,E0,FF,1C,1F,3F,00,00,
211354358,0000015D,false,Rx,0,8,00,00,00,00,00,00,00,F0,
211355622,0000017F,false,Rx,0,8,00,00,40,00,00,00,00,00,
211364372,00000115,false,Rx,0,8,FF,FF,FF,FF,FF,FF,FF,0F,
211365636,00000135,false,Rx,0,8,00,00,00,00,FF,FF,FF,00,
211366860,00000169,false,Rx,0,8,0F,00,00,00,00,00,03,E8,
211368057,0000056E,false,Rx,0,8,00,05,BB,97,FF,E0,00,00,
211374239,00000122,false,Rx,0,8,0A,41,FF,FF,FF,FF,FF,FF,
211375476,0000012A,false,Rx,0,8,00,00,00,0E,00,00,00,00,
211376731,00000158,false,Rx,0,8,00,00,00,00,00,00,00,00,
211377958,00000161,false,Rx,0,8,03,00,00,00,00,00,00,00,
211379215,00000196,false,Rx,0,8,00,00,00,03,FF,00,00,00,
211384231,0000011E,false,Rx,0,8,FF,FF,FF,00,00,FF,FF,FF,
211394397,00000164,false,Rx,0,8,00,00,00,00,00,00,00,00,
211398135,000001D4,false,Rx,0,8,00,00,04,00,00,00,00,00,
211399298,000001D5,false,Rx,0,8,14,30,75,30,03,A4,1F,3C,
211404451,00000166,false,Rx,0,8,00,00,00,00,00,00,00,00,
211406045,000001AB,false,Rx,0,8,FF,FF,FF,FF,FF,7E,00,00,
211407311,0000057E,false,Rx,0,8,00,00,00,00,00,00,00,00,
211414358,00000133,false,Rx,0,8,03,FF,00,00,00,00,00,FF,
211415602,0000019D,false,Rx,0,8,00,00,00,00,00,00,00,00,
211424142,0000012B,false,Rx,0,8,00,00,00,00,00,00,00,00,
211425398,0000017D,false,Rx,0,8,00,00,00,00,00,00,00,00,
211427951,0000044D,false,Rx,0,8,55,12,00,00,00,00,FF,FF,
211444373,0000054E,false,Rx,0,8,00,00,00,00,00,00,00,00,
211445647,000001BC,false,Rx,0,8,FF,FF,FF,FF,FF,00,00,00,
211446902,00000558,false,Rx,0,8,FF,FF,FF,FF,FF,00,00,00,
211454374,0000054D,false,Rx,0,8,00,00,00,00,00,00,00,00,
211455618,0000056D,false,Rx,0,8,00,00,00,00,00,00,00,00,
211456853,00000557,false,Rx,0,8,FF,FF,FF,FF,FF,FF,FF,F0,
211464293,000001BB,false,Rx,0,8,FF,FF,FF,FF,00,00,00,00,
211465506,000001CB,false,Rx,0,8,FF,C0,30,FC,00,00,00,00,
211466793,000001E7,false,Rx,0,8,FF,FF,FF,FF,FF,FF,FF,00,
211468051,0000054F,false,Rx,0,8,00,00,00,00,00,00,00,00,
211474194,00000123,false,Rx,0,8,00,00,00,C0,00,00,00,FF,
211475491,0000057B,false,Rx,0,8,00,00,00,00,00,00,00,00,
211484324,0000057A,false,Rx,0,8,00,00,00,00,00,00,00,00,
211485567,000001BA,false,Rx,0,8,00,00,00,00,00,00,00,00,
211494339,0000010E,false,Rx,0,8,00,00,00,00,00,00,00,00,
211495572,0000017A,false,Rx,0,8,00,00,00,00,C0,00,00,00,
211496817,000001AA,false,Rx,0,8,FF,FF,FF,FF,03,00,00,00,
211498004,0000017B,false,Rx,0,8,40,08,28,82,23,00,00,00,
211504293,0000018A,false,Rx,0,8,00,00,00,00,00,00,00,00,
211514362,00000171,false,Rx,0,8,02,00,00,00,00,00,00,00,
211515585,0000015E,false,Rx,0,8,00,01,00,00,00,00,01,00,
211516851,00000504,false,Rx,0,8,00,01,00,00,00,00,00,00,
211518069,0000057D,false,Rx,0,8,FF,3F,FF,3F,00,00,06,00,
211523693,00000455,false,Rx,0,8,40,02,00,00,00,00,FF,FF,
211524938,000001E1,false,Rx,0,8,FF,FF,FF,DF,7F,FF,00,00,
211526171,00000157,false,Rx,0,8,CF,FF,00,00,00,00,00,00,
211527401,000001E2,false,Rx,0,8,FF,FF,FF,00,00,00,00,00,
211528658,0000018B,false,Rx,0,8,00,00,00,00,00,00,00,00,
211529902,000001D1,false,Rx,0,8,00,00,00,00,00,00,01,00,
211531141,0000055C,false,Rx,0,8,00,00,00,00,00,30,C0,00,
211532357,0000055E,false,Rx,0,8,00,00,00,3F,C0,FF,00,00,
211534273,00000173,false,Rx,0,8,C0,38,00,00,0C,F0,00,30,
211535500,0000055D,false,Rx,0,8,00,00,00,00,00,00,FF,00,
211536736,000001E5,false,Rx,0,8,00,0F,FF,FF,F0,00,FF,00,
211537971,0000056A,false,Rx,0,8,00,00,00,00,00,00,00,00,
211539218,000001D0,false,Rx,0,8,00,00,00,00,00,00,00,00,
211540456,000001DA,false,Rx,0,8,01,00,00,10,00,00,00,00,
211541683,000001DF,false,Rx,0,8,FF,FF,00,00,00,80,A0,01,
211542920,0000050F,false,Rx,0,8,FF,FF,FF,FF,7F,00,00,00,
211544175,0000056B,false,Rx,0,8,00,00,00,00,00,00,00,00,
211545382,0000016A,false,Rx,0,8,02,04,00,00,00,00,3C,3C,
211546629,0000051E,false,Rx,0,8,37,FF,FF,FF,FF,FF,00,00,
211547885,0000056C,false,Rx,0,8,00,00,00,00,00,00,00,00,
211549102,000001D2,false,Rx,0,8,1F,E0,FF,1C,1F,3F,00,00,
211550319,000005D2,false,Rx,0,8,00,01,86,A0,00,00,00,00,
211554243,0000051D,false,Rx,0,8,7F,FF,FF,FF,FF,FF,FF,FF,
211555498,00000126,false,Rx,0,8,0F,00,00,00,00,00,FF,FF,
211556733,0000015D,false,Rx,0,8,00,00,00,00,00,00,00,F0,
211557992,0000017F,false,Rx,0,8,00,00,40,00,00,00,00,00,
211559238,000005DC,false,Rx,0,8,00,00,03,FF,FF,E0,00,00,
211564381,00000115,false,Rx,0,8,FF,FF,FF,FF,FF,FF,FF,0F,
211565636,00000135,false,Rx,0,8,00,00,00,00,FF,FF,FF,00,
211566859,00000169,false,Rx,0,8,0F,00,00,00,00,00,03,E8,
211568107,0000051C,false,Rx,0,8,07,FF,FF,FF,FF,FF,FF,FF,
211569313,0000056E,false,Rx,0,8,00,05,BB,97,FF,E0,00,00,
211574288,00000122,false,Rx,0,8,0A,41,FF,FF,FF,FF,FF,FF,
211575523,0000012A,false,Rx,0,8,00,00,00,0E,00,00,00,00,
211576777,00000158,false,Rx,0,8,00,00,00,00,00,00,00,00,
211578025,00000196,false,Rx,0,8,00,00,00,03,FF,00,00,00,
211579262,00000161,false,Rx,0,8,03,00,00,00,00,00,00,00,
211580455,0000051B,false,Rx,0,8,F7,FF,CF,00,7F,FF,FF,FF,
211584276,0000011E,false,Rx,0,8,FF,FF,FF,00,00,FF,FF,FF,
211585572,0000051A,false,Rx,0,8,FF,FF,FF,FF,FF,F8,0F,FF,
211594362,00000164,false,Rx,0,8,00,00,00,00,00,00,00,00,
211595586,000001C0,false,Rx,0,8,00,00,00,00,0F,00,00,00,
211596840,000001CA,false,Rx,0,8,FF,FF,00,FF,FF,7F,FF,FF,
211598109,000001D4,false,Rx,0,8,00,00,04,00,00,00,00,00,
211599274,000001D5,false,Rx,0,8,14,30,75,30,03,A4,1F,3C,
211604437,00000166,false,Rx,0,8,00,00,00,00,00,00,00,00,
211605681,000001AB,false,Rx,0,8,FF,FF,FF,FF,FF,7E,00,00,
211606945,0000057E,false,Rx,0,8,00,00,00,00,00,00,00,00,
211609469,00000440,false,Rx,0,8,4D,02,00,00,00,00,FF,FF,
211614351,00000133,false,Rx,0,8,03,FF,00,00,00,00,00,FF,
211615606,0000019D,false,Rx,0,8,00,00,00,00,00,00,00,00,
211624147,0000012B,false,Rx,0,8,00,00,00,00,00,00,00,00,
211625392,0000017D,false,Rx,0,8,00,00,00,00,00,00,00,00,
211644484,0000054E,false,Rx,0,8,00,00,00,00,00,00,00,00,
211645811,00000558,false,Rx,0,8,FF,FF,FF,FF,FF,00,00,00,
211654499,0000054D,false,Rx,0,8,00,00,00,00,00,00,00,00,
211655733,0000056D,false,Rx,0,8,00,00,00,00,00,00,00,00,
211656978,00000557,false,Rx,0,8,FF,FF,FF,FF,FF,FF,FF,F0,
211658215,0000056F,false,Rx,0,8,00,00,00,00,00,00,00,00,
211664483,000001CB,false,Rx,0,8,FF,C0,30,FC,00,00,00,00,
211665758,000001E7,false,Rx,0,8,FF,FF,FF,FF,FF,FF,FF,00,
211667024,0000054F,false,Rx,0,8,00,00,00,00,00,00,00,00,
211674318,00000123,false,Rx,0,8,00,00,00,C0,00,00,00,FF,
211675614,0000057B,false,Rx,0,8,00,00,00,00,00,00,00,00,
211684769,0000057A,false,Rx,0,8,00,00,00,00,00,00,00,00,
211694434,0000017A,false,Rx,0,8,00,00,00,00,C0,00,00,00,
211695668,0000010E,false,Rx,0,8,00,00,00,00,00,00,00,00,
211696862,0000017B,false,Rx,0,8,40,08,28,82,23,00,00,00,
211698099,000001AA,false,Rx,0,8,FF,FF,FF,FF,03,00,00,00,
211704148,00000134,false,Rx,0,8,00,00,00,00,00,00,30,00,
211707607,0000044D,false,Rx,0,8,55,12,00,00,00,00,FF,FF,
211714245,0000015E,false,Rx,0,8,00,01,00,00,00,00,01,00,
211715480,00000171,false,Rx,0,8,02,00,00,00,00,00,00,00,
211716703,0000057D,false,Rx,0,8,FF,3F,FF,3F,00,00,06,00,
211717962,00000504,false,Rx,0,8,00,01,00,00,00,00,00,00,
211724385,00000132,false,Rx,0,8,FF,FF,33,70,0C,03,30,0F,
211725630,000001E1,false,Rx,0,8,FF,FF,FF,DF,7F,FF,00,00,
211726864,00000157,false,Rx,0,8,CF,FF,00,00,00,00,00,00,
211728102,000001D1,false,Rx,0,8,00,00,00,00,00,00,01,00,
211729339,000001E2,false,Rx,0,8,FF,FF,FF,00,00,00,00,00,
211730573,0000055C,false,Rx,0,8,00,00,00,00,00,30,C0,00,
211731801,0000055E,false,Rx,0,8,00,00,00,3F,C0,FF,00,00,
211734171,00000173,false,Rx,0,8,C0,38,00,00,0C,F0,00,30,
211735397,00000131,false,Rx,0,8,FF,00,FF,00,00,00,00,00,
211736630,000001E5,false,Rx,0,8,00,0F,FF,FF,F0,00,FF,00,
211737858,0000055D,false,Rx,0,8,00,00,00,00,00,00,FF,00,
211739105,000001D0,false,Rx,0,8,00,00,00,00,00,00,00,00,
211740333,000001DA,false,Rx,0,8,01,00,00,10,00,00,00,00,
211741571,000001DF,false,Rx,0,8,FF,FF,00,00,00,80,A0,01,
211742804,0000056A,false,Rx,0,8,00,00,00,00,00,00,00,00,
211744053,0000056B,false,Rx,0,8,00,00,00,00,00,00,00,00,
211745270,0000016A,false,Rx,0,8,02,04,00,00,00,00,3C,3C,
211746528,0000056C,false,Rx,0,8,00,00,00,00,00,00,00,00,
211747735,000005D2,false,Rx,0,8,00,01,86,A0,00,00,00,00,
211748958,000001D2,false,Rx,0,8,1F,E0,FF,1C,1F,3F,00,00,
211754160,000001C1,false,Rx,0,8,06,05,00,00,7F,0C,00,01,
211755374,0000015D,false,Rx,0,8,00,00,00,00,00,00,00,F0,
211756638,0000017F,false,Rx,0,8,00,00,40,00,00,00,00,00,
211764326,00000115,false,Rx,0,8,FF,FF,FF,FF,FF,FF,FF,0F,
211765591,00000135,false,Rx,0,8,00,00,00,00,FF,FF,FF,00,
211766856,00000167,false,Rx,0,8,00,00,00,F0,00,00,00,00,
211768074,00000169,false,Rx,0,8,0F,00,00,00,00,00,03,E8,
211769271,0000056E,false,Rx,0,8,00,05,BB,97,FF,E0,00,00,
211774213,00000122,false,Rx,0,8,0A,41,FF,FF,FF,FF,FF,FF,
211775459,0000012A,false,Rx,0,8,00,00,00,0E,00,00,00,00,
211776703,00000158,false,Rx,0,8,00,00,00,00,00,00,00,00,
211777931,00000161,false,Rx,0,8,03,00,00,00,00,00,00,00,
211779188,00000196,false,Rx,0,8,00,00,00,03,FF,00,00,00,
211784183,0000011E,false,Rx,0,8,FF,FF,FF,00,00,FF,FF,FF,
211794336,00000571,false,Rx,0,8,1F,00,00,00,00,00,00,00,
211795591,00000164,false,Rx,0,8,00,00,00,00,00,00,00,00,
211797814,000001D4,false,Rx,0,8,00,00,04,00,00,00,00,00,
211798988,000001D5,false,Rx,0,8,14,30,75,30,03,A4,1F,3C,
211803702,00000455,false,Rx,0,8,40,02,00,00,00,00,FF,FF,
211804945,00000166,false,Rx,0,8,00,00,00,00,00,00,00,00,
211806190,000001AB,false,Rx,0,8,FF,FF,FF,FF,FF,7E,00,00,
211807450,0000057E,false,Rx,0,8,00,00,00,00,00,00,00,00,
211814349,00000133,false,Rx,0,8,03,FF,00,00,00,00,00,FF,
211815798,0000019D,false,Rx,0,8,00,00,00,00,00,00,00,00,
211824143,0000012B,false,Rx,0,8,00,00,00,00,00,00,00,00,
211825389,0000017D,false,Rx,0,8,00,00,00,00,00,00,00,00,
211844335,0000054E,false,Rx,0,8,00,00,00,00,00,00,00,00,
211845662,00000558,false,Rx,0,8,FF,FF,FF,FF,FF,00,00,00,
211854299,0000054D,false,Rx,0,8,00,00,00,00,00,00,00,00,
211855532,0000056D,false,Rx,0,8,00,00,00,00,00,00,00,00,
211856777,00000557,false,Rx,0,8,FF,FF,FF,FF,FF,FF,FF,F0,
211864361,000001CB,false,Rx,0,8,FF,C0,30,FC,00,00,00,00,
211865635,000001E7,false,Rx,0,8,FF,FF,FF,FF,FF,FF,FF,00,
211866901,0000054F,false,Rx,0,8,00,00,00,00,00,00,00,00,
211874183,00000123,false,Rx,0,8,00,00,00,C0,00,00,00,FF,
211875480,0000057B,false,Rx,0,8,00,00,00,00,00,00,00,00,
211884252,0000057A,false,Rx,0,8,00,00,00,00,00,00,00,00,
211889543,00000440,false,Rx,0,8,4D,02,00,00,00,00,FF,FF,
211894360,0000010E,false,Rx,0,8,00,00,00,00,00,00,00,00,
211895603,0000017A,false,Rx,0,8,00,00,00,00,C0,00,00,00,
211896848,000001AA,false,Rx,0,8,FF,FF,FF,FF,03,00,00,00,
211898034,0000017B,false,Rx,0,8,40,08,28,82,23,00,00,00,
211914239,0000015E,false,Rx,0,8,00,01,00,00,00,00,01,00,
211915473,00000171,false,Rx,0,8,02,00,00,00,00,00,00,00,
211916697,0000057D,false,Rx,0,8,FF,3F,FF,3F,00,00,06,00,
211917955,00000504,false,Rx,0,8,00,01,00,00,00,00,00,00,
211924389,00000157,false,Rx,0,8,CF,FF,00,00,00,00,00,00,
211925632,000001E1,false,Rx,0,8,FF,FF,FF,DF,7F,FF,00,00,
211926877,0000055C,false,Rx,0,8,00,00,00,00,00,30,C0,00,
211928115,000001D1,false,Rx,0,8,00,00,00,00,00,00,01,00,
211929352,000001E2,false,Rx,0,8,FF,FF,FF,00,00,00,00,00,
211930567,0000055E,false,Rx,0,8,00,00,00,3F,C0,FF,00,00,
211934201,00000173,false,Rx,0,8,C0,38,00,00,0C,F0,00,30,
211935426,0000055D,false,Rx,0,8,00,00,00,00,00,00,FF,00,
211936660,000001E5,false,Rx,0,8,00,0F,FF,FF,F0,00,FF,00,
211937908,000001D0,false,Rx,0,8,00,00,00,00,00,00,00,00,
211939135,000001DA,false,Rx,0,8,01,00,00,10,00,00,00,00,
211940374,000001DF,false,Rx,0,8,FF,FF,00,00,00,80,A0,01,
211941609,0000056A,false,Rx,0,8,00,00,00,00,00,00,00,00,
211942823,000005D2,false,Rx,0,8,00,01,86,A0,00,00,00,00,
211944071,0000056B,false,Rx,0,8,00,00,00,00,00,00,00,00,
211945278,0000016A,false,Rx,0,8,02,04,00,00,00,00,3C,3C,
211946537,0000056C,false,Rx,0,8,00,00,00,00,00,00,00,00,
211947762,000001D2,false,Rx,0,8,1F,E0,FF,1C,1F,3F,00,00,
211954366,0000015D,false,Rx,0,8,00,00,00,00,00,00,00,F0,
211955631,0000017F,false,Rx,0,8,00,00,40,00,00,00,00,00,
211964412,00000135,false,Rx,0,8,00,00,00,00,FF,FF,FF,00,
211965635,00000115,false,Rx,0,8,FF,FF,FF,FF,FF,FF,FF,0F,
211966859,00000169,false,Rx,0,8,0F,00,00,00,00,00,03,E8,
211968057,0000056E,false,Rx,0,8,00,05,BB,97,FF,E0,00,00,
211974210,00000122,false,Rx,0,8,0A,41,FF,FF,FF,FF,FF,FF,
211975454,0000012A,false,Rx,0,8,00,00,00,0E,00,00,00,00,
211976710,00000158,false,Rx,0,8,00,00,00,00,00,00,00,00,
211977938,00000161,false,Rx,0,8,03,00,00,00,00,00,00,00,
211979184,00000196,false,Rx,0,8,00,00,00,03,FF,00,00,00,
211984201,0000011E,false,Rx,0,8,FF,FF,FF,00,00,FF,FF,FF,
211987639,0000044D,false,Rx,0,8,55,12,00,00,00,00,FF,FF,
211994362,00000164,false,Rx,0,8,00,00,00,00,00,00,00,00,
211997665,000001D4,false,Rx,0,8,00,00,04,00,00,00,00,00,
211998837,000001D5,false,Rx,0,8,14,30,75,30,03,A4,1F,3C,
212004456,00000166,false,Rx,0,8,00,00,00,00,00,00,00,00,
212005691,000001AB,false,Rx,0,8,FF,FF,FF,FF,FF,7E,00,00,
212006955,0000057E,false,Rx,0,8,00,00,00,00,00,00,00,00,
212014353,00000133,false,Rx,0,8,03,FF,00,00,00,00,00,FF,
212015608,0000019D,false,Rx,0,8,00,00,00,00,00,00,00,00,
212024138,0000012B,false,Rx,0,8,00,00,00,00,00,00,00,00,
212025385,0000017D,false,Rx,0,8,00,00,00,00,00,00,00,00,
212044424,0000054E,false,Rx,0,8,00,00,00,00,00,00,00,00,
212045751,00000558,false,Rx,0,8,FF,FF,FF,FF,FF,00,00,00,
212054335,0000054D,false,Rx,0,8,00,00,00,00,00,00,00,00,
212055580,0000056D,false,Rx,0,8,00,00,00,00,00,00,00,00,
212056823,00000557,false,Rx,0,8,FF,FF,FF,FF,FF,FF,FF,F0,
212064417,000001CB,false,Rx,0,8,FF,C0,30,FC,00,00,00,00,
212065704,000001E7,false,Rx,0,8,FF,FF,FF,FF,FF,FF,FF,00,
212066958,0000054F,false,Rx,0,8,00,00,00,00,00,00,00,00,
212074170,00000123,false,Rx,0,8,00,00,00,C0,00,00,00,FF,
212075468,0000057B,false,Rx,0,8,00,00,00,00,00,00,00,00,
212083697,00000455,false,Rx,0,8,40,02,00,00,00,00,FF,FF,
212084942,0000057A,false,Rx,0,8,00,00,00,00,00,00,00,00,
212094408,0000010E,false,Rx,0,8,00,00,00,00,00,00,00,00,
212095643,0000017A,false,Rx,0,8,00,00,00,00,C0,00,00,00,
212096886,000001AA,false,Rx,0,8,FF,FF,FF,FF,03,00,00,00,
212098074,0000017B,false,Rx,0,8,40,08,28,82,23,00,00,00,
212114236,0000015E,false,Rx,0,8,00,01,00,00,00,00,01,00,
212115483,00000171,false,Rx,0,8,02,00,00,00,00,00,00,00,
212116706,0000057D,false,Rx,0,8,FF,3F,FF,3F,00,00,06,00,
212117964,00000504,false,Rx,0,8,00,01,00,00,00,00,00,00,
212124189,000001E1,false,Rx,0,8,FF,FF,FF,DF,7F,FF,00,00,
212125425,00000157,false,Rx,0,8,CF,FF,00,00,00,00,00,00,
212126648,000001E2,false,Rx,0,8,FF,FF,FF,00,00,00,00,00,
212127896,000001D1,false,Rx,0,8,00,00,00,00,00,00,01,00,
212129132,0000055C,false,Rx,0,8,00,00,00,00,00,30,C0,00,
212130357,0000055E,false,Rx,0,8,00,00,00,3F,C0,FF,00,00,
212134208,00000173,false,Rx,0,8,C0,38,00,00,0C,F0,00,30,
212135433,0000055D,false,Rx,0,8,00,00,00,00,00,00,FF,00,
212136666,000001E5,false,Rx,0,8,00,0F,FF,FF,F0,00,FF,00,
212137915,000001D0,false,Rx,0,8,00,00,00,00,00,00,00,00,
212139140,000001DA,false,Rx,0,8,01,00,00,10,00,00,00,00,
212140376,000001DF,false,Rx,0,8,FF,FF,00,00,00,80,A0,01,
212141615,0000056A,false,Rx,0,8,00,00,00,00,00,00,00,00,
212142819,000005D2,false,Rx,0,8,00,01,86,A0,00,00,00,00,
212144068,0000056B,false,Rx,0,8,00,00,00,00,00,00,00,00,
212145294,0000012F,false,Rx,0,8,FF,FF,FF,FF,3F,FF,FF,CF,
212146508,0000016A,false,Rx,0,8,02,04,00,00,00,00,3C,3C,
212147726,000001D2,false,Rx,0,8,1F,E0,FF,1C,1F,3F,00,00,
212148982,0000056C,false,Rx,0,8,00,00,00,00,00,00,00,00,
212154173,00000197,false,Rx,0,8,1D,FC,03,00,FF,C0,00,00,
212155429,00000126,false,Rx,0,8,0F,00,00,00,00,00,FF,FF,
212156642,0000015D,false,Rx,0,8,00,00,00,00,00,00,00,F0,
212157911,0000017F,false,Rx,0,8,00,00,40,00,00,00,00,00,
212164417,00000135,false,Rx,0,8,00,00,00,00,FF,FF,FF,00,
212165641,00000115,false,Rx,0,8,FF,FF,FF,FF,FF,FF,FF,0F,
212166865,00000169,false,Rx,0,8,0F,00,00,00,00,00,03,E8,
212168061,0000056E,false,Rx,0,8,00,05,BB,97,FF,E0,00,00,
212169679,00000440,false,Rx,0,8,4D,02,00,00,00,00,FF,FF,
212174199,00000122,false,Rx,0,8,0A,41,FF,FF,FF,FF,FF,FF,
212175445,0000012A,false,Rx,0,8,00,00,00,0E,00,00,00,00,
212176689,00000158,false,Rx,0,8,00,00,00,00,00,00,00,00,
212177927,00000161,false,Rx,0,8,03,00,00,00,00,00,00,00,
212179174,00000196,false,Rx,0,8,00,00,00,03,FF,00,00,00,
212184200,0000011E,false,Rx,0,8,FF,FF,FF,00,00,FF,FF,FF,
212194365,00000164,false,Rx,0,8,00,00,00,00,00,00,00,00,
212197542,000001D4,false,Rx,0,8,00,00,04,00,00,00,00,00,
212198715,000001D5,false,Rx,0,8,14,30,75,30,03,A4,1F,3C,
212199908,000005D8,false,Rx,0,8,31,30,35,30,30,30,30,00,
212204454,00000166,false,Rx,0,8,00,00,00,00,00,00,00,00,
212205689,000001AB,false,Rx,0,8,FF,FF,FF,FF,FF,7E,00,00,
212206944,0000057E,false,Rx,0,8,00,00,00,00,00,00,00,00,
212214352,00000133,false,Rx,0,8,03,FF,00,00,00,00,00,FF,
212215607,0000019D,false,Rx,0,8,00,00,00,00,00,00,00,00,
212224148,0000012B,false,Rx,0,8,00,00,00,00,00,00,00,00,
212225404,0000017D,false,Rx,0,8,00,00,00,00,00,00,00,00,
212244350,0000054E,false,Rx,0,8,00,00,00,00,00,00,00,00,
212245657,00000558,false,Rx,0,8,FF,FF,FF,FF,FF,00,00,00,
212254283,0000054D,false,Rx,0,8,00,00,00,00,00,00,00,00,
212255508,00000531,false,Rx,0,8,FF,00,FF,00,00,00,00,00,
212256752,00000557,false,Rx,0,8,FF,FF,FF,FF,FF,FF,FF,F0,
212257990,0000056D,false,Rx,0,8,00,00,00,00,00,00,00,00,
212264245,000001CB,false,Rx,0,8,FF,C0,30,FC,00,00,00,00,
212265481,0000019F,false,Rx,0,8,00,FF,00,00,00,02,00,00,
212266716,000001E7,false,Rx,0,8,FF,FF,FF,FF,FF,FF,FF,00,
212267922,0000044D,false,Rx,0,8,55,12,00,00,00,00,FF,FF,
212269179,0000054F,false,Rx,0,8,00,00,00,00,00,00,00,00,
212274205,00000123,false,Rx,0,8,00,00,00,C0,00,00,00,FF,
212275493,0000057B,false,Rx,0,8,00,00,00,00,00,00,00,00,
212284168,0000057A,false,Rx,0,8,00,00,00,00,00,00,00,00,
212294323,0000010E,false,Rx,0,8,00,00,00,00,00,00,00,00,
212295568,0000017A,false,Rx,0,8,00,00,00,00,C0,00,00,00,
212296813,000001AA,false,Rx,0,8,FF,FF,FF,FF,03,00,00,00,
212297999,0000017B,false,Rx,0,8,40,08,28,82,23,00,00,00,
212314214,00000171,false,Rx,0,8,02,00,00,00,00,00,00,00,
212315429,0000015E,false,Rx,0,8,00,01,00,00,00,00,01,00,
212316694,00000504,false,Rx,0,8,00,01,00,00,00,00,00,00,
212317911,0000057D,false,Rx,0,8,FF,3F,FF,3F,00,00,06,00,
212324239,000001E1,false,Rx,0,8,FF,FF,FF,DF,7F,FF,00,00,
212325475,00000157,false,Rx,0,8,CF,FF,00,00,00,00,00,00,
212326699,000001E2,false,Rx,0,8,FF,FF,FF,00,00,00,00,00,
212327936,000001D1,false,Rx,0,8,00,00,00,00,00,00,01,00,
212329183,0000055C,false,Rx,0,8,00,00,00,00,00,30,C0,00,
212330397,0000055E,false,Rx,0,8,00,00,00,3F,C0,FF,00,00,
212334259,00000173,false,Rx,0,8,C0,38,00,00,0C,F0,00,30,
212335483,0000055D,false,Rx,0,8,00,00,00,00,00,00,FF,00,
212336717,000001E5,false,Rx,0,8,00,0F,FF,FF,F0,00,FF,00,
212337965,000001D0,false,Rx,0,8,00,00,00,00,00,00,00,00,
212339191,000001DA,false,Rx,0,8,01,00,00,10,00,00,00,00,
212340427,000001DF,false,Rx,0,8,FF,FF,00,00,00,80,A0,01,
212341664,0000056A,false,Rx,0,8,00,00,00,00,00,00,00,00,
212342911,0000056B,false,Rx,0,8,00,00,00,00,00,00,00,00,
212344128,000005D2,false,Rx,0,8,00,01,86,A0,00,00,00,00,
212345335,0000016A,false,Rx,0,8,02,04,00,00,00,00,3C,3C,
212346600,0000056C,false,Rx,0,8,00,00,00,00,00,00,00,00,
212347817,000001D2,false,Rx,0,8,1F,E0,FF,1C,1F,3F,00,00,
212354355,0000015D,false,Rx,0,8,00,00,00,00,00,00,00,F0,
212355629,0000017F,false,Rx,0,8,00,00,40,00,00,00,00,00,
212363697,00000455,false,Rx,0,8,40,02,00,00,00,00,FF,FF,
212364920,00000115,false,Rx,0,8,FF,FF,FF,FF,FF,FF,FF,0F,
212366175,00000135,false,Rx,0,8,00,00,00,00,FF,FF,FF,00,
212367406,00000169,false,Rx,0,8,0F,00,00,00,00,00,03,E8,
212368621,0000056E,false,Rx,0,8,00,05,BB,97,FF,E0,00,00,
212374311,00000122,false,Rx,0,8,0A,41,FF,FF,FF,FF,FF,FF,
212375545,0000012A,false,Rx,0,8,00,00,00,0E,00,00,00,00,
212376800,00000158,false,Rx,0,8,00,00,00,00,00,00,00,00,
212378048,00000196,false,Rx,0,8,00,00,00,03,FF,00,00,00,
212379285,00000161,false,Rx,0,8,03,00,00,00,00,00,00,00,
212384177,0000011E,false,Rx,0,8,FF,FF,FF,00,00,FF,FF,FF,
212394362,00000164,false,Rx,0,8,00,00,00,00,00,00,00,00,
212397386,000001D4,false,Rx,0,8,00,00,04,00,00,00,00,00,
212398548,000001D5,false,Rx,0,8,14,30,75,30,03,A4,1F,3C,
212404448,00000166,false,Rx,0,8,00,00,00,00,00,00,00,00,
212405693,000001AB,false,Rx,0,8,FF,FF,FF,FF,FF,7E,00,00,
212406958,0000057E,false,Rx,0,8,00,00,00,00,00,00,00,00,
212414398,00000133,false,Rx,0,8,03,FF,00,00,00,00,00,FF,
212415631,0000019D,false,Rx,0,8,00,00,00,00,00,00,00,00,
212424152,0000012B,false,Rx,0,8,00,00,00,00,00,00,00,00,
212425397,0000017D,false,Rx,0,8,00,00,00,00,00,00,00,00,
212444314,0000054E,false,Rx,0,8,00,00,00,00,00,00,00,00,
212445588,000001BC,false,Rx,0,8,FF,FF,FF,FF,FF,00,00,00,
212446853,00000558,false,Rx,0,8,FF,FF,FF,FF,FF,00,00,00,
212449490,00000440,false,Rx,0,8,4D,02,00,00,00,00,FF,FF,
212454424,0000054D,false,Rx,0,8,00,00,00,00,00,00,00,00,
212455658,0000056D,false,Rx,0,8,00,00,00,00,00,00,00,00,
212456901,00000557,false,Rx,0,8,FF,FF,FF,FF,FF,FF,FF,F0,
212464300,000001BB,false,Rx,0,8,FF,FF,FF,FF,00,00,00,00,
212465513,000001CB,false,Rx,0,8,FF,C0,30,FC,00,00,00,00,
212466789,000001E7,false,Rx,0,8,FF,FF,FF,FF,FF,FF,FF,00,
212468049,0000054F,false,Rx,0,8,00,00,00,00,00,00,00,00,
212474232,00000123,false,Rx,0,8,00,00,00,C0,00,00,00,FF,
212475528,0000057B,false,Rx,0,8,00,00,00,00,00,00,00,00,
212484194,0000057A,false,Rx,0,8,00,00,00,00,00,00,00,00,
212485439,000001BA,false,Rx,0,8,00,00,00,00,00,00,00,00,
212494376,0000010E,false,Rx,0,8,00,00,00,00,00,00,00,00,
212495621,0000017A,false,Rx,0,8,00,00,00,00,C0,00,00,00,
212496854,000001AA,false,Rx,0,8,FF,FF,FF,FF,03,00,00,00,
212498051,0000017B,false,Rx,0,8,40,08,28,82,23,00,00,00,
212504329,0000018A,false,Rx,0,8,00,00,00,00,00,00,00,00,
212514243,0000015E,false,Rx,0,8,00,01,00,00,00,00,01,00,
212515478,00000171,false,Rx,0,8,02,00,00,00,00,00,00,00,
212516702,0000057D,false,Rx,0,8,FF,3F,FF,3F,00,00,06,00,
212517961,00000504,false,Rx,0,8,00,01,00,00,00,00,00,00,
212524216,000001E1,false,Rx,0,8,FF,FF,FF,DF,7F,FF,00,00,
212525441,00000157,false,Rx,0,8,CF,FF,00,00,00,00,00,00,
212526706,0000018B,false,Rx,0,8,00,00,00,00,00,00,00,00,
212527946,000001D1,false,Rx,0,8,00,00,00,00,00,00,01,00,
212529171,000001E2,false,Rx,0,8,FF,FF,FF,00,00,00,00,00,
212530407,0000055C,false,Rx,0,8,00,00,00,00,00,30,C0,00,
212531634,0000055E,false,Rx,0,8,00,00,00,3F,C0,FF,00,00,
212534283,00000173,false,Rx,0,8,C0,38,00,00,0C,F0,00,30,
212535517,0000055D,false,Rx,0,8,00,00,00,00,00,00,FF,00,
212536740,000001E5,false,Rx,0,8,00,0F,FF,FF,F0,00,FF,00,
212537999,000001D0,false,Rx,0,8,00,00,00,00,00,00,00,00,
212539224,000001DA,false,Rx,0,8,01,00,00,10,00,00,00,00,
212540449,000001DF,false,Rx,0,8,FF,FF,00,00,00,80,A0,01,
212541698,0000050F,false,Rx,0,8,FF,FF,FF,FF,7F,00,00,00,
212542934,0000056A,false,Rx,0,8,00,00,00,00,00,00,00,00,
212544182,0000056B,false,Rx,0,8,00,00,00,00,00,00,00,00,
212545429,0000051E,false,Rx,0,8,37,FF,FF,FF,FF,FF,00,00,
212546633,0000016A,false,Rx,0,8,02,04,00,00,00,00,3C,3C,
212547861,000001D2,false,Rx,0,8,1F,E0,FF,1C,1F,3F,00,00,
212549065,0000044D,false,Rx,0,8,55,12,00,00,00,00,FF,FF,
212550326,0000056C,false,Rx,0,8,00,00,00,00,00,00,00,00,
212551540,000005D2,false,Rx,0,8,00,01,86,A0,00,00,00,00,
212554207,0000051D,false,Rx,0,8,7F,FF,FF,FF,FF,FF,FF,FF,
212555431,0000015D,false,Rx,0,8,00,00,00,00,00,00,00,F0,
212556686,0000017F,false,Rx,0,8,00,00,40,00,00,00,00,00,
212557936,000005DC,false,Rx,0,8,00,00,03,FF,FF,E0,00,00,
212564295,00000115,false,Rx,0,8,FF,FF,FF,FF,FF,FF,FF,0F,
212565560,00000135,false,Rx,0,8,00,00,00,00,FF,FF,FF,00,
212566783,00000169,false,Rx,0,8,0F,00,00,00,00,00,03,E8,
212568032,0000051C,false,Rx,0,8,07,FF,FF,FF,FF,FF,FF,FF,
212569236,0000056E,false,Rx,0,8,00,05,BB,97,FF,E0,00,00,
212574298,00000122,false,Rx,0,8,0A,41,FF,FF,FF,FF,FF,FF,
212575543,0000012A,false,Rx,0,8,00,00,00,0E,00,00,00,00,
212576797,00000158,false,Rx,0,8,00,00,00,00,00,00,00,00,
212578045,00000196,false,Rx,0,8,00,00,00,03,FF,00,00,00,
212579273,00000161,false,Rx,0,8,03,00,00,00,00,00,00,00,
212580475,0000051B,false,Rx,0,8,F7,FF,CF,00,7F,FF,FF,FF,
212584181,0000011E,false,Rx,0,8,FF,FF,FF,00,00,FF,FF,FF,
212585458,0000051A,false,Rx,0,8,FF,FF,FF,FF,FF,F8,0F,FF,
212594246,000001C0,false,Rx,0,8,00,00,00,00,0F,00,00,00,
212595502,00000164,false,Rx,0,8,00,00,00,00,00,00,00,00,
212596715,000001CA,false,Rx,0,8,FF,FF,00,FF,FF,7F,FF,FF,
212597963,000001D4,false,Rx,0,8,00,00,04,00,00,00,00,00,
212599137,000001D5,false,Rx,0,8,14,30,75,30,03,A4,1F,3C,
212604454,00000166,false,Rx,0,8,00,00,00,00,00,00,00,00,
212605689,000001AB,false,Rx,0,8,FF,FF,FF,FF,FF,7E,00,00,
212606954,0000057E,false,Rx,0,8,00,00,00,00,00,00,00,00,
212614353,00000133,false,Rx,0,8,03,FF,00,00,00,00,00,FF,
212615597,0000019D,false,Rx,0,8,00,00,00,00,00,00,00,00,
212624159,0000012B,false,Rx,0,8,00,00,00,00,00,00,00,00,
212625426,0000017D,false,Rx,0,8,00,00,00,00,00,00,00,00,
212643697,00000455,false,Rx,0,8,40,02,00,00,00,00,FF,FF,
212644942,0000054E,false,Rx,0,8,00,00,00,00,00,00,00,00,
212646248,00000558,false,Rx,0,8,FF,FF,FF,FF,FF,00,00,00,
212654372,0000054D,false,Rx,0,8,00,00,00,00,00,00,00,00,
212655617,0000056D,false,Rx,0,8,00,00,00,00,00,00,00,00,
212656862,00000557,false,Rx,0,8,FF,FF,FF,FF,FF,FF,FF,F0,
212658099,0000056F,false,Rx,0,8,00,00,00,00,00,00,00,00,
212664273,000001CB,false,Rx,0,8,FF,C0,30,FC,00,00,00,00,
212665559,000001E7,false,Rx,0,8,FF,FF,FF,FF,FF,FF,FF,00,
212666845,0000054F,false,Rx,0,8,00,00,00,00,00,00,00,00,
212674210,00000123,false,Rx,0,8,00,00,00,C0,00,00,00,FF,
212675509,0000057B,false,Rx,0,8,00,00,00,00,00,00,00,00,
212684205,0000057A,false,Rx,0,8,00,00,00,00,00,00,00,00,
212694329,0000010E,false,Rx,0,8,00,00,00,00,00,00,00,00,
212695573,0000017A,false,Rx,0,8,00,00,00,00,C0,00,00,00,
212696808,000001AA,false,Rx,0,8,FF,FF,FF,FF,03,00,00,00,
212698005,0000017B,false,Rx,0,8,40,08,28,82,23,00,00,00,
212704147,00000134,false,Rx,0,8,00,00,00,00,00,00,30,00,
212714247,0000015E,false,Rx,0,8,00,01,00,00,00,00,01,00,
212715482,00000171,false,Rx,0,8,02,00,00,00,00,00,00,00,
212716705,0000057D,false,Rx,0,8,FF,3F,FF,3F,00,00,06,00,
212717964,00000504,false,Rx,0,8,00,01,00,00,00,00,00,00,
212724199,000001E1,false,Rx,0,8,FF,FF,FF,DF,7F,FF,00,00,
212725384,00000132,false,Rx,0,8,FF,FF,33,70,0C,03,30,0F,
212726618,00000157,false,Rx,0,8,CF,FF,00,00,00,00,00,00,
212727856,000001D1,false,Rx,0,8,00,00,00,00,00,00,01,00,
212729093,000001E2,false,Rx,0,8,FF,FF,FF,00,00,00,00,00,
212730328,0000055C,false,Rx,0,8,00,00,00,00,00,30,C0,00,
212731556,00000440,false,Rx,0,8,4D,02,00,00,00,00,FF,FF,
212732782,0000055E,false,Rx,0,8,00,00,00,3F,C0,FF,00,00,
212734419,00000131,false,Rx,0,8,FF,00,FF,00,00,00,00,00,
212735605,00000173,false,Rx,0,8,C0,38,00,00,0C,F0,00,30,
212736831,0000055D,false,Rx,0,8,00,00,00,00,00,00,FF,00,
212738079,000001D0,false,Rx,0,8,00,00,00,00,00,00,00,00,
212739308,000001DA,false,Rx,0,8,01,00,00,10,00,00,00,00,
212740541,000001DF,false,Rx,0,8,FF,FF,00,00,00,80,A0,01,
212741769,000001E5,false,Rx,0,8,00,0F,FF,FF,F0,00,FF,00,
212743016,0000056A,false,Rx,0,8,00,00,00,00,00,00,00,00,
212744223,000005D2,false,Rx,0,8,00,01,86,A0,00,00,00,00,
212745472,0000056B,false,Rx,0,8,00,00,00,00,00,00,00,00,
212746685,0000016A,false,Rx,0,8,02,04,00,00,00,00,3C,3C,
212747903,000001D2,false,Rx,0,8,1F,E0,FF,1C,1F,3F,00,00,
212749160,0000056C,false,Rx,0,8,00,00,00,00,00,00,00,00,
212754217,000001C1,false,Rx,0,8,06,05,00,00,7F,0C,00,01,
212755463,00000126,false,Rx,0,8,0F,00,00,00,00,00,FF,FF,
212756728,0000015D,false,Rx,0,8,00,00,00,00,00,00,00,F0,
212757987,0000017F,false,Rx,0,8,00,00,40,00,00,00,00,00,
212764371,00000115,false,Rx,0,8,FF,FF,FF,FF,FF,FF,FF,0F,
212765626,00000135,false,Rx,0,8,00,00,00,00,FF,FF,FF,00,
212766861,00000167,false,Rx,0,8,00,00,00,F0,00,00,00,00,
212768078,00000169,false,Rx,0,8,0F,00,00,00,00,00,03,E8,
212769284,0000056E,false,Rx,0,8,00,05,BB,97,FF,E0,00,00,
212774342,0000012A,false,Rx,0,8,00,00,00,0E,00,00,00,00,
212775575,00000122,false,Rx,0,8,0A,41,FF,FF,FF,FF,FF,FF,
212776820,00000158,false,Rx,0,8,00,00,00,00,00,00,00,00,
212778057,00000161,false,Rx,0,8,03,00,00,00,00,00,00,00,
212779305,00000196,false,Rx,0,8,00,00,00,03,FF,00,00,00,
212784248,0000011E,false,Rx,0,8,FF,FF,FF,00,00,FF,FF,FF,
212794351,00000571,false,Rx,0,8,1F,00,00,00,00,00,00,00,
212795594,00000164,false,Rx,0,8,00,00,00,00,00,00,00,00,
212797075,000001D4,false,Rx,0,8,00,00,04,00,00,00,00,00,
212798242,000001D5,false,Rx,0,8,14,30,75,30,03,A4,1F,3C,
212804458,00000166,false,Rx,0,8,00,00,00,00,00,00,00,00,
212805691,000001AB,false,Rx,0,8,FF,FF,FF,FF,FF,7E,00,00,
212806946,0000057E,false,Rx,0,8,00,00,00,00,00,00,00,00,
212814345,00000133,false,Rx,0,8,03,FF,00,00,00,00,00,FF,
212815598,0000019D,false,Rx,0,8,00,00,00,00,00,00,00,00,
212824141,0000012B,false,Rx,0,8,00,00,00,00,00,00,00,00,
212825387,0000017D,false,Rx,0,8,00,00,00,00,00,00,00,00,
212831608,0000044D,false,Rx,0,8,55,12,00,00,00,00,FF,FF,
212844351,0000054E,false,Rx,0,8,00,00,00,00,00,00,00,00,
212845667,00000558,false,Rx,0,8,FF,FF,FF,FF,FF,00,00,00,
212854407,0000054D,false,Rx,0,8,00,00,00,00,00,00,00,00,
212855652,0000056D,false,Rx,0,8,00,00,00,00,00,00,00,00,
212856886,00000557,false,Rx,0,8,FF,FF,FF,FF,FF,FF,FF,F0,
212864408,000001CB,false,Rx,0,8,FF,C0,30,FC,00,00,00,00,
212865693,000001E7,false,Rx,0,8,FF,FF,FF,FF,FF,FF,FF,00,
212866969,0000054F,false,Rx,0,8,00,00,00,00,00,00,00,00,
212874284,00000123,false,Rx,0,8,00,00,00,C0,00,00,00,FF,
212875579,0000057B,false,Rx,0,8,00,00,00,00,00,00,00,00,
212884225,0000057A,false,Rx,0,8,00,00,00,00,00,00,00,00,
212894409,0000010E,false,Rx,0,8,00,00,00,00,00,00,00,00,
212895642,0000017A,false,Rx,0,8,00,00,00,00,C0,00,00,00,
212896887,000001AA,false,Rx,0,8,FF,FF,FF,FF,03,00,00,00,
212898074,0000017B,false,Rx,0,8,40,08,28,82,23,00,00,00,
212914362,00000171,false,Rx,0,8,02,00,00,00,00,00,00,00,
212915575,0000015E,false,Rx,0,8,00,01,00,00,00,00,01,00,
212916840,00000504,false,Rx,0,8,00,01,00,00,00,00,00,00,
212918059,0000057D,false,Rx,0,8,FF,3F,FF,3F,00,00,06,00,
212923693,00000455,false,Rx,0,8,40,02,00,00,00,00,FF,FF,
212924938,000001E1,false,Rx,0,8,FF,FF,FF,DF,7F,FF,00,00,
212926171,00000157,false,Rx,0,8,CF,FF,00,00,00,00,00,00,
212927410,000001D1,false,Rx,0,8,00,00,00,00,00,00,01,00,
212928635,000001E2,false,Rx,0,8,FF,FF,FF,00,00,00,00,00,
212929880,0000055C,false,Rx,0,8,00,00,00,00,00,30,C0,00,
212931098,0000055E,false,Rx,0,8,00,00,00,3F,C0,FF,00,00,
212934296,00000173,false,Rx,0,8,C0,38,00,00,0C,F0,00,30,
212935519,0000055D,false,Rx,0,8,00,00,00,00,00,00,FF,00,
212936753,000001E5,false,Rx,0,8,00,0F,FF,FF,F0,00,FF,00,
212938002,000001D0,false,Rx,0,8,00,00,00,00,00,00,00,00,
212939238,000001DA,false,Rx,0,8,01,00,00,10,00,00,00,00,
212940463,000001DF,false,Rx,0,8,FF,FF,00,00,00,80,A0,01,
212941700,0000056A,false,Rx,0,8,00,00,00,00,00,00,00,00,
212942958,0000056B,false,Rx,0,8,00,00,00,00,00,00,00,00,
212944165,000005D2,false,Rx,0,8,00,01,86,A0,00,00,00,00,
212945371,0000016A,false,Rx,0,8,02,04,00,00,00,00,3C,3C,
212946646,0000056C,false,Rx,0,8,00,00,00,00,00,00,00,00,
212947863,000001D2,false,Rx,0,8,1F,E0,FF,1C,1F,3F,00,00,
212954368,0000015D,false,Rx,0,8,00,00,00,00,00,00,00,F0,
212955633,0000017F,false,Rx,0,8,00,00,40,00,00,00,00,00,
212964174,00000115,false,Rx,0,8,FF,FF,FF,FF,FF,FF,FF,0F,
212965439,00000135,false,Rx,0,8,00,00,00,00,FF,FF,FF,00,
212966653,00000169,false,Rx,0,8,0F,00,00,00,00,00,03,E8,
212967869,0000056E,false,Rx,0,8,00,05,BB,97,FF,E0,00,00,
212974314,00000122,false,Rx,0,8,0A,41,FF,FF,FF,FF,FF,FF,
212975558,0000012A,false,Rx,0,8,00,00,00,0E,00,00,00,00,
212976813,00000158,false,Rx,0,8,00,00,00,00,00,00,00,00,
212978062,00000196,false,Rx,0,8,00,00,00,03,FF,00,00,00,
212979289,00000161,false,Rx,0,8,03,00,00,00,00,00,00,00,
212984234,0000011E,false,Rx,0,8,FF,FF,FF,00,00,FF,FF,FF,
212994366,00000164,false,Rx,0,8,00,00,00,00,00,00,00,00,
212996931,000001D4,false,Rx,0,8,00,00,04,00,00,00,00,00,
212998104,000001D5,false,Rx,0,8,14,30,75,30,03,A4,1F,3C,
213004490,00000166,false,Rx,0,8,00,00,00,00,00,00,00,00,
213005724,000001AB,false,Rx,0,8,FF,FF,FF,FF,FF,7E,00,00,
213006978,0000057E,false,Rx,0,8,00,00,00,00,00,00,00,00,
213009420,00000440,false,Rx,0,8,4D,02,00,00,00,00,FF,FF,
213014352,00000133,false,Rx,0,8,03,FF,00,00,00,00,00,FF,
213015895,0000019D,false,Rx,0,8,00,00,00,00,00,00,00,00,
213024148,0000012B,false,Rx,0,8,00,00,00,00,00,00,00,00,
213025395,0000017D,false,Rx,0,8,00,00,00,00,00,00,00,00,
213044280,0000054E,false,Rx,0,8,00,00,00,00,00,00,00,00,
213045596,00000558,false,Rx,0,8,FF,FF,FF,FF,FF,00,00,00,
213054345,0000054D,false,Rx,0,8,00,00,00,00,00,00,00,00,
213055590,0000056D,false,Rx,0,8,00,00,00,00,00,00,00,00,
213056823,00000557,false,Rx,0,8,FF,FF,FF,FF,FF,FF,FF,F0,
213064335,000001CB,false,Rx,0,8,FF,C0,30,FC,00,00,00,00,
213065632,000001E7,false,Rx,0,8,FF,FF,FF,FF,FF,FF,FF,00,
213066886,0000054F,false,Rx,0,8,00,00,00,00,00,00,00,00,
213074213,00000123,false,Rx,0,8,00,00,00,C0,00,00,00,FF,
213075500,0000057B,false,Rx,0,8,00,00,00,00,00,00,00,00,
213084196,0000057A,false,Rx,0,8,00,00,00,00,00,00,00,00,
213094350,0000010E,false,Rx,0,8,00,00,00,00,00,00,00,00,
213095594,0000017A,false,Rx,0,8,00,00,00,00,C0,00,00,00,
213096838,000001AA,false,Rx,0,8,FF,FF,FF,FF,03,00,00,00,
213098025,0000017B,false,Rx,0,8,40,08,28,82,23,00,00,00,
213106572,0000044D,false,Rx,0,8,55,12,00,00,00,00,FF,FF,
213114236,0000015E,false,Rx,0,8,00,01,00,00,00,00,01,00,
213115482,00000171,false,Rx,0,8,02,00,00,00,00,00,00,00,
213116705,0000057D,false,Rx,0,8,FF,3F,FF,3F,00,00,06,00,
213117964,00000504,false,Rx,0,8,00,01,00,00,00,00,00,00,
213124252,000001E1,false,Rx,0,8,FF,FF,FF,DF,7F,FF,00,00,
213125487,00000157,false,Rx,0,8,CF,FF,00,00,00,00,00,00,
213126710,000001E2,false,Rx,0,8,FF,FF,FF,00,00,00,00,00,
213127948,000001D1,false,Rx,0,8,00,00,00,00,00,00,01,00,
213129195,0000055C,false,Rx,0,8,00,00,00,00,00,30,C0,00,
213130409,0000055E,false,Rx,0,8,00,00,00,3F,C0,FF,00,00,
213134282,00000173,false,Rx,0,8,C0,38,00,00,0C,F0,00,30,
213135516,0000055D,false,Rx,0,8,00,00,00,00,00,00,FF,00,
213136740,000001E5,false,Rx,0,8,00,0F,FF,FF,F0,00,FF,00,
213137999,000001D0,false,Rx,0,8,00,00,00,00,00,00,00,00,
213139226,000001DA,false,Rx,0,8,01,00,00,10,00,00,00,00,
213140450,000001DF,false,Rx,0,8,FF,FF,00,00,00,80,A0,01,
213141698,0000056A,false,Rx,0,8,00,00,00,00,00,00,00,00,
213142944,0000056B,false,Rx,0,8,00,00,00,00,00,00,00,00,
213144152,000005D2,false,Rx,0,8,00,01,86,A0,00,00,00,00,
213145379,0000012F,false,Rx,0,8,FF,FF,FF,FF,3F,FF,FF,CF,
213146582,0000016A,false,Rx,0,8,02,04,00,00,00,00,3C,3C,
213147810,000001D2,false,Rx,0,8,1F,E0,FF,1C,1F,3F,00,00,
213149066,0000056C,false,Rx,0,8,00,00,00,00,00,00,00,00,
213154226,00000197,false,Rx,0,8,1D,FC,03,00,FF,C0,00,00,
213155443,0000015D,false,Rx,0,8,00,00,00,00,00,00,00,F0,
213156707,0000017F,false,Rx,0,8,00,00,40,00,00,00,00,00,
213164283,00000115,false,Rx,0,8,FF,FF,FF,FF,FF,FF,FF,0F,
213165538,00000135,false,Rx,0,8,00,00,00,00,FF,FF,FF,00,
213166761,00000169,false,Rx,0,8,0F,00,00,00,00,00,03,E8,
213167958,0000056E,false,Rx,0,8,00,05,BB,97,FF,E0,00,00,
213174339,0000012A,false,Rx,0,8,00,00,00,0E,00,00,00,00,
213175574,00000122,false,Rx,0,8,0A,41,FF,FF,FF,FF,FF,FF,
213176818,00000158,false,Rx,0,8,00,00,00,00,00,00,00,00,
213178076,00000196,false,Rx,0,8,00,00,00,03,FF,00,00,00,
213179304,00000161,false,Rx,0,8,03,00,00,00,00,00,00,00,
213184214,0000011E,false,Rx,0,8,FF,FF,FF,00,00,FF,FF,FF,
213194367,00000164,false,Rx,0,8,00,00,00,00,00,00,00,00,
213196789,000001D4,false,Rx,0,8,00,00,04,00,00,00,00,00,
213197961,000001D5,false,Rx,0,8,14,30,75,30,03,A4,1F,3C,
213199154,000005D8,false,Rx,0,8,31,30,35,30,30,30,30,00,
213203692,00000455,false,Rx,0,8,40,02,00,00,00,00,FF,FF,
213204925,00000100,false,Rx,0,8,67,00,00,08,00,10,00,00,
213206159,00000166,false,Rx,0,8,00,00,00,00,00,00,00,00,
213207418,000001AB,false,Rx,0,8,FF,FF,FF,FF,FF,7E,00,00,
213208686,0000057E,false,Rx,0,8,00,00,00,00,00,00,00,00,
213214388,00000133,false,Rx,0,8,03,FF,00,00,00,00,00,FF,
213215622,0000019D,false,Rx,0,8,00,00,00,00,00,00,00,00,
213224142,0000012B,false,Rx,0,8,00,00,00,00,00,00,00,00,
213225398,0000017D,false,Rx,0,8,00,00,00,00,00,00,00,00,
213244335,0000054E,false,Rx,0,8,00,00,00,00,00,00,00,00,
213245651,00000558,false,Rx,0,8,FF,FF,FF,FF,FF,00,00,00,
213254392,0000054D,false,Rx,0,8,00,00,00,00,00,00,00,00,
213255625,00000531,false,Rx,0,8,FF,00,FF,00,00,00,00,00,
213256859,00000557,false,Rx,0,8,FF,FF,FF,FF,FF,FF,FF,F0,
213258107,0000056D,false,Rx,0,8,00,00,00,00,00,00,00,00,
213264335,0000019F,false,Rx,0,8,00,FF,00,00,00,02,00,00,
213265547,000001CB,false,Rx,0,8,FF,C0,30,FC,00,00,00,00,
213266864,000001E7,false,Rx,0,8,FF,FF,FF,FF,FF,FF,FF,00,
213268143,0000054F,false,Rx,0,8,00,00,00,00,00,00,00,00,
213274287,00000123,false,Rx,0,8,00,00,00,C0,00,00,00,FF,
213275573,0000057B,false,Rx,0,8,00,00,00,00,00,00,00,00,
213284188,0000057A,false,Rx,0,8,00,00,00,00,00,00,00,00,
213289336,00000440,false,Rx,0,8,4D,02,00,00,00,00,FF,FF,
213294413,0000010E,false,Rx,0,8,00,00,00,00,00,00,00,00,
213295647,0000017A,false,Rx,0,8,00,00,00,00,C0,00,00,00,
213296891,000001AA,false,Rx,0,8,FF,FF,FF,FF,03,00,00,00,
213298077,0000017B,false,Rx,0,8,40,08,28,82,23,00,00,00,
213314239,0000015E,false,Rx,0,8,00,01,00,00,00,00,01,00,
213315485,00000171,false,Rx,0,8,02,00,00,00,00,00,00,00,
213316699,0000057D,false,Rx,0,8,FF,3F,FF,3F,00,00,06,00,
213317967,00000504,false,Rx,0,8,00,01,00,00,00,00,00,00,
213324224,000001E1,false,Rx,0,8,FF,FF,FF,DF,7F,FF,00,00,
213325449,00000157,false,Rx,0,8,CF,FF,00,00,00,00,00,00,
213326684,000001E2,false,Rx,0,8,FF,FF,FF,00,00,00,00,00,
213327921,000001D1,false,Rx,0,8,00,00,00,00,00,00,01,00,
213329168,0000055C,false,Rx,0,8,00,00,00,00,00,30,C0,00,
213330383,0000055E,false,Rx,0,8,00,00,00,3F,C0,FF,00,00,
213334287,00000173,false,Rx,0,8,C0,38,00,00,0C,F0,00,30,
213335521,0000055D,false,Rx,0,8,00,00,00,00,00,00,FF,00,
213336745,000001E5,false,Rx,0,8,00,0F,FF,FF,F0,00,FF,00,
213337992,000001D0,false,Rx,0,8,00,00,00,00,00,00,00,00,
213339229,000001DA,false,Rx,0,8,01,00,00,10,00,00,00,00,
213340454,000001DF,false,Rx,0,8,FF,FF,00,00,00,80,A0,01,
213341702,0000056A,false,Rx,0,8,00,00,00,00,00,00,00,00,
213342948,0000056B,false,Rx,0,8,00,00,00,00,00,00,00,00,
213344155,000005D2,false,Rx,0,8,00,01,86,A0,00,00,00,00,
213345372,0000016A,false,Rx,0,8,02,04,00,00,00,00,3C,3C,
213346606,000001D2,false,Rx,0,8,1F,E0,FF,1C,1F,3F,00,00,
213347864,0000056C,false,Rx,0,8,00,00,00,00,00,00,00,00,
213354371,00000126,false,Rx,0,8,0F,00,00,00,00,00,FF,FF,
213355604,0000015D,false,Rx,0,8,00,00,00,00,00,00,00,F0,
213356860,0000017F,false,Rx,0,8,00,00,40,00,00,00,00,00,
